! created by ADMIN at Tue Apr 21 15:46:20 IST 2026
! generated using vna/J Version 3.2.10
# Hz S DB R 50
001000000 0.00000000 0.00000000 -60.56531484 44.63983880 0.00000000 0.00000000 0.00000000 0.00000000 
002917518 0.00000000 0.00000000 -63.30726968 45.28456342 0.00000000 0.00000000 0.00000000 0.00000000 
004835036 0.00000000 0.00000000 -62.59495272 36.59460206 0.00000000 0.00000000 0.00000000 0.00000000 
006752554 0.00000000 0.00000000 -59.37678831 21.03286350 0.00000000 0.00000000 0.00000000 0.00000000 
008670074 0.00000000 0.00000000 -60.06820006 29.09797400 0.00000000 0.00000000 0.00000000 0.00000000 
010587592 0.00000000 0.00000000 -57.66715819 37.25542710 0.00000000 0.00000000 0.00000000 0.00000000 
012505110 0.00000000 0.00000000 -56.86408128 41.31563725 0.00000000 0.00000000 0.00000000 0.00000000 
014422628 0.00000000 0.00000000 -56.34377864 45.86206470 0.00000000 0.00000000 0.00000000 0.00000000 
016340148 0.00000000 0.00000000 -55.71597894 48.80007186 0.00000000 0.00000000 0.00000000 0.00000000 
018257666 0.00000000 0.00000000 -55.46194860 50.35742896 0.00000000 0.00000000 0.00000000 0.00000000 
020175184 0.00000000 0.00000000 -55.58902772 52.48079032 0.00000000 0.00000000 0.00000000 0.00000000 
022092702 0.00000000 0.00000000 -55.62924459 52.44645387 0.00000000 0.00000000 0.00000000 0.00000000 
024010222 0.00000000 0.00000000 -57.31960244 59.57515426 0.00000000 0.00000000 0.00000000 0.00000000 
025927740 0.00000000 0.00000000 -56.34187282 48.83973798 0.00000000 0.00000000 0.00000000 0.00000000 
027845258 0.00000000 0.00000000 -57.38092274 59.38492960 0.00000000 0.00000000 0.00000000 0.00000000 
029762776 0.00000000 0.00000000 -57.96374422 60.89764728 0.00000000 0.00000000 0.00000000 0.00000000 
031680296 0.00000000 0.00000000 -55.89260396 54.43399304 0.00000000 0.00000000 0.00000000 0.00000000 
033597814 0.00000000 0.00000000 -57.63054665 56.69113651 0.00000000 0.00000000 0.00000000 0.00000000 
035515332 0.00000000 0.00000000 -56.84219021 60.56258091 0.00000000 0.00000000 0.00000000 0.00000000 
037432850 0.00000000 0.00000000 -58.09528585 66.73244390 0.00000000 0.00000000 0.00000000 0.00000000 
039350370 0.00000000 0.00000000 -56.62255216 64.80014446 0.00000000 0.00000000 0.00000000 0.00000000 
041267888 0.00000000 0.00000000 -56.80917565 55.99935959 0.00000000 0.00000000 0.00000000 0.00000000 
043185406 0.00000000 0.00000000 -56.48175307 49.78068389 0.00000000 0.00000000 0.00000000 0.00000000 
045102924 0.00000000 0.00000000 -54.03292432 49.57999938 0.00000000 0.00000000 0.00000000 0.00000000 
047020444 0.00000000 0.00000000 -53.12240240 42.88775152 0.00000000 0.00000000 0.00000000 0.00000000 
048937962 0.00000000 0.00000000 -53.18406531 50.33128154 0.00000000 0.00000000 0.00000000 0.00000000 
050855480 0.00000000 0.00000000 -52.48736406 51.79251831 0.00000000 0.00000000 0.00000000 0.00000000 
052772998 0.00000000 0.00000000 -51.96015473 52.57083011 0.00000000 0.00000000 0.00000000 0.00000000 
054690518 0.00000000 0.00000000 -51.02150076 57.36659369 0.00000000 0.00000000 0.00000000 0.00000000 
056608036 0.00000000 0.00000000 -50.38866490 62.73843356 0.00000000 0.00000000 0.00000000 0.00000000 
058525554 0.00000000 0.00000000 -50.60971419 61.54598752 0.00000000 0.00000000 0.00000000 0.00000000 
060443072 0.00000000 0.00000000 -49.91702613 58.76081831 0.00000000 0.00000000 0.00000000 0.00000000 
062360592 0.00000000 0.00000000 -49.59597986 63.11401505 0.00000000 0.00000000 0.00000000 0.00000000 
064278110 0.00000000 0.00000000 -49.29540619 67.41876893 0.00000000 0.00000000 0.00000000 0.00000000 
066195628 0.00000000 0.00000000 -50.14247437 70.57532711 0.00000000 0.00000000 0.00000000 0.00000000 
068113146 0.00000000 0.00000000 -49.43427132 72.25481111 0.00000000 0.00000000 0.00000000 0.00000000 
070030666 0.00000000 0.00000000 -48.71750821 76.07816932 0.00000000 0.00000000 0.00000000 0.00000000 
071948184 0.00000000 0.00000000 -49.09663413 72.16465670 0.00000000 0.00000000 0.00000000 0.00000000 
073865702 0.00000000 0.00000000 -48.54629288 72.20326429 0.00000000 0.00000000 0.00000000 0.00000000 
075783220 0.00000000 0.00000000 -47.68295188 72.42479382 0.00000000 0.00000000 0.00000000 0.00000000 
077700740 0.00000000 0.00000000 -46.69114472 73.46091136 0.00000000 0.00000000 0.00000000 0.00000000 
079618258 0.00000000 0.00000000 -47.67918381 69.43441368 0.00000000 0.00000000 0.00000000 0.00000000 
081535776 0.00000000 0.00000000 -47.44700977 65.94704445 0.00000000 0.00000000 0.00000000 0.00000000 
083453294 0.00000000 0.00000000 -47.55321796 59.99809548 0.00000000 0.00000000 0.00000000 0.00000000 
085370814 0.00000000 0.00000000 -47.19319622 58.89613778 0.00000000 0.00000000 0.00000000 0.00000000 
087288332 0.00000000 0.00000000 -48.53186013 63.29089199 0.00000000 0.00000000 0.00000000 0.00000000 
089205850 0.00000000 0.00000000 -48.61381004 70.02879592 0.00000000 0.00000000 0.00000000 0.00000000 
091123368 0.00000000 0.00000000 -49.73130019 73.75441932 0.00000000 0.00000000 0.00000000 0.00000000 
093040888 0.00000000 0.00000000 -51.03818598 80.13257085 0.00000000 0.00000000 0.00000000 0.00000000 
094958406 0.00000000 0.00000000 -44.88593754 90.07378589 0.00000000 0.00000000 0.00000000 0.00000000 
096875924 0.00000000 0.00000000 -41.25236017 98.13465967 0.00000000 0.00000000 0.00000000 0.00000000 
098793442 0.00000000 0.00000000 -38.70579052 106.34709697 0.00000000 0.00000000 0.00000000 0.00000000 
100710962 0.00000000 0.00000000 -36.71894205 114.76300409 0.00000000 0.00000000 0.00000000 0.00000000 
102628480 0.00000000 0.00000000 -38.54839005 107.47485852 0.00000000 0.00000000 0.00000000 0.00000000 
104545998 0.00000000 0.00000000 -40.02274040 94.74394928 0.00000000 0.00000000 0.00000000 0.00000000 
106463516 0.00000000 0.00000000 -39.98560633 76.62763902 0.00000000 0.00000000 0.00000000 0.00000000 
108381036 0.00000000 0.00000000 -38.16353088 61.24943899 0.00000000 0.00000000 0.00000000 0.00000000 
110298554 0.00000000 0.00000000 -39.23312729 62.82266706 0.00000000 0.00000000 0.00000000 0.00000000 
112216072 0.00000000 0.00000000 -39.76720574 62.95272050 0.00000000 0.00000000 0.00000000 0.00000000 
114133590 0.00000000 0.00000000 -40.54670487 61.12990261 0.00000000 0.00000000 0.00000000 0.00000000 
116051110 0.00000000 0.00000000 -40.53473404 56.26793748 0.00000000 0.00000000 0.00000000 0.00000000 
117968628 0.00000000 0.00000000 -41.13758615 58.63641773 0.00000000 0.00000000 0.00000000 0.00000000 
119886146 0.00000000 0.00000000 -41.65531014 59.10405143 0.00000000 0.00000000 0.00000000 0.00000000 
121803664 0.00000000 0.00000000 -42.03582750 59.33785003 0.00000000 0.00000000 0.00000000 0.00000000 
123721184 0.00000000 0.00000000 -42.02581172 61.94398048 0.00000000 0.00000000 0.00000000 0.00000000 
125638702 0.00000000 0.00000000 -42.48081889 60.48394817 0.00000000 0.00000000 0.00000000 0.00000000 
127556220 0.00000000 0.00000000 -42.29321928 59.37626936 0.00000000 0.00000000 0.00000000 0.00000000 
129473738 0.00000000 0.00000000 -42.17798467 60.31142981 0.00000000 0.00000000 0.00000000 0.00000000 
131391258 0.00000000 0.00000000 -41.79397750 61.61335201 0.00000000 0.00000000 0.00000000 0.00000000 
133308776 0.00000000 0.00000000 -42.00402039 64.34565693 0.00000000 0.00000000 0.00000000 0.00000000 
135226294 0.00000000 0.00000000 -41.24333075 64.71618794 0.00000000 0.00000000 0.00000000 0.00000000 
137143812 0.00000000 0.00000000 -40.96302012 64.18328358 0.00000000 0.00000000 0.00000000 0.00000000 
139061332 0.00000000 0.00000000 -40.54734939 66.64955402 0.00000000 0.00000000 0.00000000 0.00000000 
140978850 0.00000000 0.00000000 -40.38256486 66.31944235 0.00000000 0.00000000 0.00000000 0.00000000 
142896368 0.00000000 0.00000000 -39.96370905 66.08756660 0.00000000 0.00000000 0.00000000 0.00000000 
144813886 0.00000000 0.00000000 -39.90544032 66.30479798 0.00000000 0.00000000 0.00000000 0.00000000 
146731406 0.00000000 0.00000000 -39.37953851 67.89092494 0.00000000 0.00000000 0.00000000 0.00000000 
148648924 0.00000000 0.00000000 -39.21425082 67.39459227 0.00000000 0.00000000 0.00000000 0.00000000 
150566442 0.00000000 0.00000000 -39.10032528 66.91930368 0.00000000 0.00000000 0.00000000 0.00000000 
152483960 0.00000000 0.00000000 -38.73041379 66.02403190 0.00000000 0.00000000 0.00000000 0.00000000 
154401480 0.00000000 0.00000000 -38.38997903 67.80940818 0.00000000 0.00000000 0.00000000 0.00000000 
156318998 0.00000000 0.00000000 -38.47581234 67.70756880 0.00000000 0.00000000 0.00000000 0.00000000 
158236516 0.00000000 0.00000000 -38.29565058 66.24278358 0.00000000 0.00000000 0.00000000 0.00000000 
160154034 0.00000000 0.00000000 -37.81832431 67.07818231 0.00000000 0.00000000 0.00000000 0.00000000 
162071554 0.00000000 0.00000000 -37.36299203 68.43083241 0.00000000 0.00000000 0.00000000 0.00000000 
163989072 0.00000000 0.00000000 -37.70126706 67.03299876 0.00000000 0.00000000 0.00000000 0.00000000 
165906590 0.00000000 0.00000000 -37.31345037 64.15960110 0.00000000 0.00000000 0.00000000 0.00000000 
167824108 0.00000000 0.00000000 -37.28395213 63.86161367 0.00000000 0.00000000 0.00000000 0.00000000 
169741628 0.00000000 0.00000000 -36.52598820 63.48008419 0.00000000 0.00000000 0.00000000 0.00000000 
171659146 0.00000000 0.00000000 -36.74456103 61.33161676 0.00000000 0.00000000 0.00000000 0.00000000 
173576664 0.00000000 0.00000000 -36.62567362 58.26337980 0.00000000 0.00000000 0.00000000 0.00000000 
175494182 0.00000000 0.00000000 -36.10928987 55.85197593 0.00000000 0.00000000 0.00000000 0.00000000 
177411702 0.00000000 0.00000000 -35.41972521 54.61797642 0.00000000 0.00000000 0.00000000 0.00000000 
179329220 0.00000000 0.00000000 -35.67011151 52.68314893 0.00000000 0.00000000 0.00000000 0.00000000 
181246738 0.00000000 0.00000000 -35.76634807 50.08481513 0.00000000 0.00000000 0.00000000 0.00000000 
183164256 0.00000000 0.00000000 -35.53251307 49.37023061 0.00000000 0.00000000 0.00000000 0.00000000 
185081776 0.00000000 0.00000000 -35.05603723 46.17264719 0.00000000 0.00000000 0.00000000 0.00000000 
186999294 0.00000000 0.00000000 -35.39808682 45.36825030 0.00000000 0.00000000 0.00000000 0.00000000 
188916812 0.00000000 0.00000000 -35.69034227 45.15195773 0.00000000 0.00000000 0.00000000 0.00000000 
190834330 0.00000000 0.00000000 -35.79405099 43.01762962 0.00000000 0.00000000 0.00000000 0.00000000 
192751850 0.00000000 0.00000000 -35.57359642 41.76990836 0.00000000 0.00000000 0.00000000 0.00000000 
194669368 0.00000000 0.00000000 -35.99520546 41.20518770 0.00000000 0.00000000 0.00000000 0.00000000 
196586886 0.00000000 0.00000000 -36.37970040 40.26573236 0.00000000 0.00000000 0.00000000 0.00000000 
198504404 0.00000000 0.00000000 -36.52276570 38.62853507 0.00000000 0.00000000 0.00000000 0.00000000 
200421924 0.00000000 0.00000000 -36.33051666 37.11789262 0.00000000 0.00000000 0.00000000 0.00000000 
202339442 0.00000000 0.00000000 -36.95732298 38.18273404 0.00000000 0.00000000 0.00000000 0.00000000 
204256960 0.00000000 0.00000000 -37.43676417 38.24612071 0.00000000 0.00000000 0.00000000 0.00000000 
206174478 0.00000000 0.00000000 -37.44421409 38.48356925 0.00000000 0.00000000 0.00000000 0.00000000 
208091998 0.00000000 0.00000000 -37.65744212 38.20682772 0.00000000 0.00000000 0.00000000 0.00000000 
210009516 0.00000000 0.00000000 -37.83933013 39.16178166 0.00000000 0.00000000 0.00000000 0.00000000 
211927034 0.00000000 0.00000000 -38.21711717 41.01507219 0.00000000 0.00000000 0.00000000 0.00000000 
213844552 0.00000000 0.00000000 -38.20008529 41.63273456 0.00000000 0.00000000 0.00000000 0.00000000 
215762072 0.00000000 0.00000000 -38.18590951 41.00133074 0.00000000 0.00000000 0.00000000 0.00000000 
217679590 0.00000000 0.00000000 -38.50791708 43.29143890 0.00000000 0.00000000 0.00000000 0.00000000 
219597108 0.00000000 0.00000000 -38.54784203 44.24692914 0.00000000 0.00000000 0.00000000 0.00000000 
221514626 0.00000000 0.00000000 -38.51793878 43.24933918 0.00000000 0.00000000 0.00000000 0.00000000 
223432146 0.00000000 0.00000000 -38.33754874 44.71116403 0.00000000 0.00000000 0.00000000 0.00000000 
225349664 0.00000000 0.00000000 -38.39381698 48.23221580 0.00000000 0.00000000 0.00000000 0.00000000 
227267182 0.00000000 0.00000000 -38.16475077 50.33361896 0.00000000 0.00000000 0.00000000 0.00000000 
229184700 0.00000000 0.00000000 -38.00887950 52.48233885 0.00000000 0.00000000 0.00000000 0.00000000 
231102220 0.00000000 0.00000000 -37.50269256 54.99850144 0.00000000 0.00000000 0.00000000 0.00000000 
233019738 0.00000000 0.00000000 -37.65129033 56.08524195 0.00000000 0.00000000 0.00000000 0.00000000 
234937256 0.00000000 0.00000000 -37.39931972 57.53408292 0.00000000 0.00000000 0.00000000 0.00000000 
236854774 0.00000000 0.00000000 -37.20514748 60.79005486 0.00000000 0.00000000 0.00000000 0.00000000 
238772294 0.00000000 0.00000000 -36.95921792 61.46732262 0.00000000 0.00000000 0.00000000 0.00000000 
240689812 0.00000000 0.00000000 -36.90254235 61.73480932 0.00000000 0.00000000 0.00000000 0.00000000 
242607330 0.00000000 0.00000000 -36.67035793 60.83229832 0.00000000 0.00000000 0.00000000 0.00000000 
244524848 0.00000000 0.00000000 -36.32053700 61.75943065 0.00000000 0.00000000 0.00000000 0.00000000 
246442368 0.00000000 0.00000000 -35.76405924 62.94905433 0.00000000 0.00000000 0.00000000 0.00000000 
248359886 0.00000000 0.00000000 -35.82335635 61.71821736 0.00000000 0.00000000 0.00000000 0.00000000 
250277404 0.00000000 0.00000000 -35.94207597 61.34641853 0.00000000 0.00000000 0.00000000 0.00000000 
252194922 0.00000000 0.00000000 -35.51943528 62.01787589 0.00000000 0.00000000 0.00000000 0.00000000 
254112442 0.00000000 0.00000000 -35.22141897 62.91595574 0.00000000 0.00000000 0.00000000 0.00000000 
256029960 0.00000000 0.00000000 -35.14269522 61.19585440 0.00000000 0.00000000 0.00000000 0.00000000 
257947478 0.00000000 0.00000000 -34.84707496 59.01976902 0.00000000 0.00000000 0.00000000 0.00000000 
259864996 0.00000000 0.00000000 -34.27858361 58.09290422 0.00000000 0.00000000 0.00000000 0.00000000 
261782516 0.00000000 0.00000000 -33.61274852 59.03618842 0.00000000 0.00000000 0.00000000 0.00000000 
263700034 0.00000000 0.00000000 -33.79265250 56.23954592 0.00000000 0.00000000 0.00000000 0.00000000 
265617552 0.00000000 0.00000000 -33.61018950 54.64888140 0.00000000 0.00000000 0.00000000 0.00000000 
267535070 0.00000000 0.00000000 -33.11522045 52.70350761 0.00000000 0.00000000 0.00000000 0.00000000 
269452590 0.00000000 0.00000000 -32.54655313 52.36643151 0.00000000 0.00000000 0.00000000 0.00000000 
271370108 0.00000000 0.00000000 -32.96396513 48.81172045 0.00000000 0.00000000 0.00000000 0.00000000 
273287626 0.00000000 0.00000000 -32.96148212 46.21213398 0.00000000 0.00000000 0.00000000 0.00000000 
275205144 0.00000000 0.00000000 -32.67462742 44.13843519 0.00000000 0.00000000 0.00000000 0.00000000 
277122664 0.00000000 0.00000000 -32.19019591 41.52129965 0.00000000 0.00000000 0.00000000 0.00000000 
279040182 0.00000000 0.00000000 -32.71100468 40.78693639 0.00000000 0.00000000 0.00000000 0.00000000 
280957700 0.00000000 0.00000000 -33.34822293 40.01379883 0.00000000 0.00000000 0.00000000 0.00000000 
282875218 0.00000000 0.00000000 -33.40505595 35.91137487 0.00000000 0.00000000 0.00000000 0.00000000 
284792738 0.00000000 0.00000000 -33.22011001 33.45610282 0.00000000 0.00000000 0.00000000 0.00000000 
286710256 0.00000000 0.00000000 -33.90861597 33.66778417 0.00000000 0.00000000 0.00000000 0.00000000 
288627774 0.00000000 0.00000000 -34.47805420 34.43815723 0.00000000 0.00000000 0.00000000 0.00000000 
290545292 0.00000000 0.00000000 -34.76274330 32.02462135 0.00000000 0.00000000 0.00000000 0.00000000 
292462812 0.00000000 0.00000000 -34.82442076 31.57972919 0.00000000 0.00000000 0.00000000 0.00000000 
294380330 0.00000000 0.00000000 -35.63120769 32.49363642 0.00000000 0.00000000 0.00000000 0.00000000 
296297848 0.00000000 0.00000000 -35.80337575 30.34065897 0.00000000 0.00000000 0.00000000 0.00000000 
298215366 0.00000000 0.00000000 -36.08952134 31.46796236 0.00000000 0.00000000 0.00000000 0.00000000 
300132886 0.00000000 0.00000000 -36.00270326 30.25999947 0.00000000 0.00000000 0.00000000 0.00000000 
302050404 0.00000000 0.00000000 -36.41648586 32.05526382 0.00000000 0.00000000 0.00000000 0.00000000 
303967922 0.00000000 0.00000000 -36.78083496 33.44412585 0.00000000 0.00000000 0.00000000 0.00000000 
305885440 0.00000000 0.00000000 -37.05873364 35.35128256 0.00000000 0.00000000 0.00000000 0.00000000 
307802960 0.00000000 0.00000000 -37.18385302 35.16309276 0.00000000 0.00000000 0.00000000 0.00000000 
309720478 0.00000000 0.00000000 -37.41589639 39.66030568 0.00000000 0.00000000 0.00000000 0.00000000 
311637996 0.00000000 0.00000000 -37.73947520 43.07205019 0.00000000 0.00000000 0.00000000 0.00000000 
313555514 0.00000000 0.00000000 -37.90092845 46.00043239 0.00000000 0.00000000 0.00000000 0.00000000 
315473034 0.00000000 0.00000000 -38.22510226 49.35862751 0.00000000 0.00000000 0.00000000 0.00000000 
317390552 0.00000000 0.00000000 -38.24365506 50.44584670 0.00000000 0.00000000 0.00000000 0.00000000 
319308070 0.00000000 0.00000000 -38.11657532 54.06933188 0.00000000 0.00000000 0.00000000 0.00000000 
321225588 0.00000000 0.00000000 -37.66253171 56.25263680 0.00000000 0.00000000 0.00000000 0.00000000 
323143108 0.00000000 0.00000000 -37.70030443 60.33741121 0.00000000 0.00000000 0.00000000 0.00000000 
325060626 0.00000000 0.00000000 -37.50187661 63.11344433 0.00000000 0.00000000 0.00000000 0.00000000 
326978144 0.00000000 0.00000000 -37.28367648 64.30079944 0.00000000 0.00000000 0.00000000 0.00000000 
328895662 0.00000000 0.00000000 -36.94507384 66.04237451 0.00000000 0.00000000 0.00000000 0.00000000 
330813182 0.00000000 0.00000000 -36.56599144 70.16921843 0.00000000 0.00000000 0.00000000 0.00000000 
332730700 0.00000000 0.00000000 -36.68425063 71.72016270 0.00000000 0.00000000 0.00000000 0.00000000 
334648218 0.00000000 0.00000000 -36.54061523 73.44118905 0.00000000 0.00000000 0.00000000 0.00000000 
336565736 0.00000000 0.00000000 -36.09403442 74.60562697 0.00000000 0.00000000 0.00000000 0.00000000 
338483256 0.00000000 0.00000000 -35.80802277 77.88997449 0.00000000 0.00000000 0.00000000 0.00000000 
340400774 0.00000000 0.00000000 -35.61079661 78.87062956 0.00000000 0.00000000 0.00000000 0.00000000 
342318292 0.00000000 0.00000000 -35.27422371 80.29564897 0.00000000 0.00000000 0.00000000 0.00000000 
344235810 0.00000000 0.00000000 -34.78921410 80.22248485 0.00000000 0.00000000 0.00000000 0.00000000 
346153330 0.00000000 0.00000000 -34.22054160 83.20455649 0.00000000 0.00000000 0.00000000 0.00000000 
348070848 0.00000000 0.00000000 -33.91609310 81.22491536 0.00000000 0.00000000 0.00000000 0.00000000 
349988366 0.00000000 0.00000000 -33.50209622 81.41921913 0.00000000 0.00000000 0.00000000 0.00000000 
351905884 0.00000000 0.00000000 -32.96361612 81.64623396 0.00000000 0.00000000 0.00000000 0.00000000 
353823404 0.00000000 0.00000000 -32.36452109 83.42087365 0.00000000 0.00000000 0.00000000 0.00000000 
355740922 0.00000000 0.00000000 -32.10384586 79.86488141 0.00000000 0.00000000 0.00000000 0.00000000 
357658440 0.00000000 0.00000000 -31.53959958 78.03645999 0.00000000 0.00000000 0.00000000 0.00000000 
359575958 0.00000000 0.00000000 -30.99388946 77.77670669 0.00000000 0.00000000 0.00000000 0.00000000 
361493478 0.00000000 0.00000000 -30.19756815 78.53064175 0.00000000 0.00000000 0.00000000 0.00000000 
363410996 0.00000000 0.00000000 -30.18509738 75.12517261 0.00000000 0.00000000 0.00000000 0.00000000 
365328514 0.00000000 0.00000000 -29.93996198 72.48791607 0.00000000 0.00000000 0.00000000 0.00000000 
367246032 0.00000000 0.00000000 -29.44991882 71.82887324 0.00000000 0.00000000 0.00000000 0.00000000 
369163552 0.00000000 0.00000000 -28.75881540 71.44324205 0.00000000 0.00000000 0.00000000 0.00000000 
371081070 0.00000000 0.00000000 -29.23942026 68.21247591 0.00000000 0.00000000 0.00000000 0.00000000 
372998588 0.00000000 0.00000000 -29.43596732 65.03966513 0.00000000 0.00000000 0.00000000 0.00000000 
