! created by ADMIN at Mon Apr 20 18:55:53 IST 2026
! generated using vna/J Version 3.2.10
# Hz S DB R 50
001000000 0.00000000 0.00000000 -64.59663411 58.31255424 0.00000000 0.00000000 0.00000000 0.00000000 
002917518 0.00000000 0.00000000 -68.30485341 77.11566090 0.00000000 0.00000000 0.00000000 0.00000000 
004835036 0.00000000 0.00000000 -68.74799497 75.17913706 0.00000000 0.00000000 0.00000000 0.00000000 
006752554 0.00000000 0.00000000 -66.82149900 35.92228828 0.00000000 0.00000000 0.00000000 0.00000000 
008670074 0.00000000 0.00000000 -69.53580218 73.59984835 0.00000000 0.00000000 0.00000000 0.00000000 
010587592 0.00000000 0.00000000 -66.67243793 58.63603866 0.00000000 0.00000000 0.00000000 0.00000000 
012505110 0.00000000 0.00000000 -67.30831693 46.80605932 0.00000000 0.00000000 0.00000000 0.00000000 
014422628 0.00000000 0.00000000 -67.73850404 33.45001496 0.00000000 0.00000000 0.00000000 0.00000000 
016340148 0.00000000 0.00000000 -66.06782493 16.44111682 0.00000000 0.00000000 0.00000000 0.00000000 
018257666 0.00000000 0.00000000 -63.30665368 22.30230997 0.00000000 0.00000000 0.00000000 0.00000000 
020175184 0.00000000 0.00000000 -62.18534536 26.73929396 0.00000000 0.00000000 0.00000000 0.00000000 
022092702 0.00000000 0.00000000 -61.01881007 28.31285067 0.00000000 0.00000000 0.00000000 0.00000000 
024010222 0.00000000 0.00000000 -63.80828025 36.32037411 0.00000000 0.00000000 0.00000000 0.00000000 
025927740 0.00000000 0.00000000 -60.46246346 27.77122552 0.00000000 0.00000000 0.00000000 0.00000000 
027845258 0.00000000 0.00000000 -62.56478622 48.00039130 0.00000000 0.00000000 0.00000000 0.00000000 
029762776 0.00000000 0.00000000 -63.57319131 56.88256441 0.00000000 0.00000000 0.00000000 0.00000000 
031680296 0.00000000 0.00000000 -60.17923375 51.35370277 0.00000000 0.00000000 0.00000000 0.00000000 
033597814 0.00000000 0.00000000 -62.93966053 46.52905118 0.00000000 0.00000000 0.00000000 0.00000000 
035515332 0.00000000 0.00000000 -61.20157340 47.47743673 0.00000000 0.00000000 0.00000000 0.00000000 
037432850 0.00000000 0.00000000 -62.93247253 48.13046519 0.00000000 0.00000000 0.00000000 0.00000000 
039350370 0.00000000 0.00000000 -59.78660683 44.88557203 0.00000000 0.00000000 0.00000000 0.00000000 
041267888 0.00000000 0.00000000 -58.17351424 25.21974202 0.00000000 0.00000000 0.00000000 0.00000000 
043185406 0.00000000 0.00000000 -56.05422258 17.23258492 0.00000000 0.00000000 0.00000000 0.00000000 
045102924 0.00000000 0.00000000 -52.95763844 22.84150818 0.00000000 0.00000000 0.00000000 0.00000000 
047020444 0.00000000 0.00000000 -51.07973096 19.96318796 0.00000000 0.00000000 0.00000000 0.00000000 
048937962 0.00000000 0.00000000 -54.53397204 13.34031207 0.00000000 0.00000000 0.00000000 0.00000000 
050855480 0.00000000 0.00000000 -56.09919044 -9.98665006 0.00000000 0.00000000 0.00000000 0.00000000 
052772998 0.00000000 0.00000000 -54.46080791 -36.68940248 0.00000000 0.00000000 0.00000000 0.00000000 
054690518 0.00000000 0.00000000 -52.06744180 -46.80921291 0.00000000 0.00000000 0.00000000 0.00000000 
056608036 0.00000000 0.00000000 -54.54848691 -41.70501365 0.00000000 0.00000000 0.00000000 0.00000000 
058525554 0.00000000 0.00000000 -55.40038592 -46.82979923 0.00000000 0.00000000 0.00000000 0.00000000 
060443072 0.00000000 0.00000000 -55.75243334 -45.07466577 0.00000000 0.00000000 0.00000000 0.00000000 
062360592 0.00000000 0.00000000 -57.38173289 -56.01074791 0.00000000 0.00000000 0.00000000 0.00000000 
064278110 0.00000000 0.00000000 -59.73994775 -58.99689150 0.00000000 0.00000000 0.00000000 0.00000000 
066195628 0.00000000 0.00000000 -58.40898565 -81.43707016 0.00000000 0.00000000 0.00000000 0.00000000 
068113146 0.00000000 0.00000000 -59.15811714 -82.38325006 0.00000000 0.00000000 0.00000000 0.00000000 
070030666 0.00000000 0.00000000 -59.76349634 -88.51000370 0.00000000 0.00000000 0.00000000 0.00000000 
071948184 0.00000000 0.00000000 -60.02787056 -78.66151648 0.00000000 0.00000000 0.00000000 0.00000000 
073865702 0.00000000 0.00000000 -64.11832762 -74.29701885 0.00000000 0.00000000 0.00000000 0.00000000 
075783220 0.00000000 0.00000000 -72.51544756 -57.33695030 0.00000000 0.00000000 0.00000000 0.00000000 
077700740 0.00000000 0.00000000 -74.76087602 77.08050568 0.00000000 0.00000000 0.00000000 0.00000000 
079618258 0.00000000 0.00000000 -73.45027619 -68.40855278 0.00000000 0.00000000 0.00000000 0.00000000 
081535776 0.00000000 0.00000000 -72.49224344 -32.17184921 0.00000000 0.00000000 0.00000000 0.00000000 
083453294 0.00000000 0.00000000 -64.77865226 -51.92824938 0.00000000 0.00000000 0.00000000 0.00000000 
085370814 0.00000000 0.00000000 -63.79600596 -61.44527939 0.00000000 0.00000000 0.00000000 0.00000000 
087288332 0.00000000 0.00000000 -62.28272662 -54.87272168 0.00000000 0.00000000 0.00000000 0.00000000 
089205850 0.00000000 0.00000000 -64.24320223 -4.89193743 0.00000000 0.00000000 0.00000000 0.00000000 
091123368 0.00000000 0.00000000 -63.43961262 8.68661483 0.00000000 0.00000000 0.00000000 0.00000000 
093040888 0.00000000 0.00000000 -65.01547944 31.17656606 0.00000000 0.00000000 0.00000000 0.00000000 
094958406 0.00000000 0.00000000 -67.83272084 30.81217053 0.00000000 0.00000000 0.00000000 0.00000000 
096875924 0.00000000 0.00000000 -69.09452460 20.92871727 0.00000000 0.00000000 0.00000000 0.00000000 
098793442 0.00000000 0.00000000 -70.19273108 -5.51936102 0.00000000 0.00000000 0.00000000 0.00000000 
100710962 0.00000000 0.00000000 -69.02395302 -40.91937641 0.00000000 0.00000000 0.00000000 0.00000000 
102628480 0.00000000 0.00000000 -69.60145095 37.10189189 0.00000000 0.00000000 0.00000000 0.00000000 
104545998 0.00000000 0.00000000 -69.98657005 111.61517352 0.00000000 0.00000000 0.00000000 0.00000000 
106463516 0.00000000 0.00000000 -64.94279879 130.05707676 0.00000000 0.00000000 0.00000000 0.00000000 
108381036 0.00000000 0.00000000 -63.08247505 102.72971952 0.00000000 0.00000000 0.00000000 0.00000000 
110298554 0.00000000 0.00000000 -63.99506335 122.01291123 0.00000000 0.00000000 0.00000000 0.00000000 
112216072 0.00000000 0.00000000 -60.41519547 104.24312352 0.00000000 0.00000000 0.00000000 0.00000000 
114133590 0.00000000 0.00000000 -60.62472757 110.84087313 0.00000000 0.00000000 0.00000000 0.00000000 
116051110 0.00000000 0.00000000 -58.92165218 85.26386659 0.00000000 0.00000000 0.00000000 0.00000000 
117968628 0.00000000 0.00000000 -59.86071179 84.75860519 0.00000000 0.00000000 0.00000000 0.00000000 
119886146 0.00000000 0.00000000 -60.98726441 72.38418893 0.00000000 0.00000000 0.00000000 0.00000000 
121803664 0.00000000 0.00000000 -61.10814990 62.53310301 0.00000000 0.00000000 0.00000000 0.00000000 
123721184 0.00000000 0.00000000 -58.50880614 74.47931656 0.00000000 0.00000000 0.00000000 0.00000000 
125638702 0.00000000 0.00000000 -59.96481573 57.01289269 0.00000000 0.00000000 0.00000000 0.00000000 
127556220 0.00000000 0.00000000 -57.42917947 47.14950760 0.00000000 0.00000000 0.00000000 0.00000000 
129473738 0.00000000 0.00000000 -56.68400521 50.82433087 0.00000000 0.00000000 0.00000000 0.00000000 
131391258 0.00000000 0.00000000 -55.38335759 56.01262807 0.00000000 0.00000000 0.00000000 0.00000000 
133308776 0.00000000 0.00000000 -56.93767224 63.73393729 0.00000000 0.00000000 0.00000000 0.00000000 
135226294 0.00000000 0.00000000 -54.10285796 59.35049219 0.00000000 0.00000000 0.00000000 0.00000000 
137143812 0.00000000 0.00000000 -53.85620490 50.10293007 0.00000000 0.00000000 0.00000000 0.00000000 
139061332 0.00000000 0.00000000 -53.55720006 52.89204373 0.00000000 0.00000000 0.00000000 0.00000000 
140978850 0.00000000 0.00000000 -52.64813004 53.91780843 0.00000000 0.00000000 0.00000000 0.00000000 
142896368 0.00000000 0.00000000 -51.40951694 55.73304447 0.00000000 0.00000000 0.00000000 0.00000000 
144813886 0.00000000 0.00000000 -52.11693200 56.44915687 0.00000000 0.00000000 0.00000000 0.00000000 
146731406 0.00000000 0.00000000 -51.49453338 62.21658079 0.00000000 0.00000000 0.00000000 0.00000000 
148648924 0.00000000 0.00000000 -49.79135322 57.58935667 0.00000000 0.00000000 0.00000000 0.00000000 
150566442 0.00000000 0.00000000 -48.74762454 55.23125692 0.00000000 0.00000000 0.00000000 0.00000000 
152483960 0.00000000 0.00000000 -47.32147235 53.49518657 0.00000000 0.00000000 0.00000000 0.00000000 
154401480 0.00000000 0.00000000 -46.51356618 58.46295432 0.00000000 0.00000000 0.00000000 0.00000000 
156318998 0.00000000 0.00000000 -45.63703835 49.09909654 0.00000000 0.00000000 0.00000000 0.00000000 
158236516 0.00000000 0.00000000 -43.94726841 41.74093526 0.00000000 0.00000000 0.00000000 0.00000000 
160154034 0.00000000 0.00000000 -42.20656944 42.52828942 0.00000000 0.00000000 0.00000000 0.00000000 
162071554 0.00000000 0.00000000 -40.80633133 44.81298179 0.00000000 0.00000000 0.00000000 0.00000000 
163989072 0.00000000 0.00000000 -40.49934873 16.85898059 0.00000000 0.00000000 0.00000000 0.00000000 
165906590 0.00000000 0.00000000 -37.54771432 2.48598163 0.00000000 0.00000000 0.00000000 0.00000000 
167824108 0.00000000 0.00000000 -35.18294040 -3.12007011 0.00000000 0.00000000 0.00000000 0.00000000 
169741628 0.00000000 0.00000000 -32.90491203 -1.08251779 0.00000000 0.00000000 0.00000000 0.00000000 
171659146 0.00000000 0.00000000 -36.48096646 -7.14111713 0.00000000 0.00000000 0.00000000 0.00000000 
173576664 0.00000000 0.00000000 -39.95560080 -33.03514983 0.00000000 0.00000000 0.00000000 0.00000000 
175494182 0.00000000 0.00000000 -38.91045078 -71.77374290 0.00000000 0.00000000 0.00000000 0.00000000 
177411702 0.00000000 0.00000000 -35.08995161 -88.60308459 0.00000000 0.00000000 0.00000000 0.00000000 
179329220 0.00000000 0.00000000 -37.03314331 -87.58758937 0.00000000 0.00000000 0.00000000 0.00000000 
181246738 0.00000000 0.00000000 -39.04149765 -91.70592867 0.00000000 0.00000000 0.00000000 0.00000000 
183164256 0.00000000 0.00000000 -41.10844445 -106.10530719 0.00000000 0.00000000 0.00000000 0.00000000 
185081776 0.00000000 0.00000000 -41.42019982 -122.55401810 0.00000000 0.00000000 0.00000000 0.00000000 
186999294 0.00000000 0.00000000 -42.97748094 -119.05149223 0.00000000 0.00000000 0.00000000 0.00000000 
188916812 0.00000000 0.00000000 -44.50083493 -122.48435992 0.00000000 0.00000000 0.00000000 0.00000000 
190834330 0.00000000 0.00000000 -45.69813885 -126.46441585 0.00000000 0.00000000 0.00000000 0.00000000 
192751850 0.00000000 0.00000000 -46.77265941 -137.70116378 0.00000000 0.00000000 0.00000000 0.00000000 
194669368 0.00000000 0.00000000 -48.19494469 -134.90788853 0.00000000 0.00000000 0.00000000 0.00000000 
196586886 0.00000000 0.00000000 -49.16165413 -136.95705619 0.00000000 0.00000000 0.00000000 0.00000000 
198504404 0.00000000 0.00000000 -50.08968249 -141.67286314 0.00000000 0.00000000 0.00000000 0.00000000 
200421924 0.00000000 0.00000000 -51.09027100 -150.55732824 0.00000000 0.00000000 0.00000000 0.00000000 
202339442 0.00000000 0.00000000 -51.29706609 -143.99563554 0.00000000 0.00000000 0.00000000 0.00000000 
204256960 0.00000000 0.00000000 -51.81214274 -137.44543819 0.00000000 0.00000000 0.00000000 0.00000000 
206174478 0.00000000 0.00000000 -54.49890230 -134.02091539 0.00000000 0.00000000 0.00000000 0.00000000 
208091998 0.00000000 0.00000000 -54.97073611 -133.28688613 0.00000000 0.00000000 0.00000000 0.00000000 
210009516 0.00000000 0.00000000 -57.46140283 -130.46285118 0.00000000 0.00000000 0.00000000 0.00000000 
211927034 0.00000000 0.00000000 -57.19304492 -144.66796560 0.00000000 0.00000000 0.00000000 0.00000000 
213844552 0.00000000 0.00000000 -58.83423986 -152.51888762 0.00000000 0.00000000 0.00000000 0.00000000 
215762072 0.00000000 0.00000000 -58.84589993 -146.10751545 0.00000000 0.00000000 0.00000000 0.00000000 
217679590 0.00000000 0.00000000 -59.76653207 -154.41414927 0.00000000 0.00000000 0.00000000 0.00000000 
219597108 0.00000000 0.00000000 -63.28489595 -158.61769116 0.00000000 0.00000000 0.00000000 0.00000000 
221514626 0.00000000 0.00000000 -67.11816697 -119.13610903 0.00000000 0.00000000 0.00000000 0.00000000 
223432146 0.00000000 0.00000000 -74.43494823 -139.69801913 0.00000000 0.00000000 0.00000000 0.00000000 
225349664 0.00000000 0.00000000 -67.47464163 164.05558025 0.00000000 0.00000000 0.00000000 0.00000000 
227267182 0.00000000 0.00000000 -67.09196304 133.72361967 0.00000000 0.00000000 0.00000000 0.00000000 
229184700 0.00000000 0.00000000 -66.47881138 140.60239880 0.00000000 0.00000000 0.00000000 0.00000000 
231102220 0.00000000 0.00000000 -63.89869016 110.80924215 0.00000000 0.00000000 0.00000000 0.00000000 
233019738 0.00000000 0.00000000 -66.19122611 128.83397802 0.00000000 0.00000000 0.00000000 0.00000000 
234937256 0.00000000 0.00000000 -64.50242223 110.79079687 0.00000000 0.00000000 0.00000000 0.00000000 
236854774 0.00000000 0.00000000 -60.53022504 130.45445056 0.00000000 0.00000000 0.00000000 0.00000000 
238772294 0.00000000 0.00000000 -64.23606212 137.75524351 0.00000000 0.00000000 0.00000000 0.00000000 
240689812 0.00000000 0.00000000 -65.69087369 129.65575200 0.00000000 0.00000000 0.00000000 0.00000000 
242607330 0.00000000 0.00000000 -70.78478423 72.74461897 0.00000000 0.00000000 0.00000000 0.00000000 
244524848 0.00000000 0.00000000 -68.09689524 64.42281127 0.00000000 0.00000000 0.00000000 0.00000000 
246442368 0.00000000 0.00000000 -62.90773665 56.82007425 0.00000000 0.00000000 0.00000000 0.00000000 
248359886 0.00000000 0.00000000 -60.95667357 31.28555936 0.00000000 0.00000000 0.00000000 0.00000000 
250277404 0.00000000 0.00000000 -62.89211988 10.09361605 0.00000000 0.00000000 0.00000000 0.00000000 
252194922 0.00000000 0.00000000 -60.20658209 34.02690607 0.00000000 0.00000000 0.00000000 0.00000000 
254112442 0.00000000 0.00000000 -60.80596080 35.66180854 0.00000000 0.00000000 0.00000000 0.00000000 
256029960 0.00000000 0.00000000 -59.11152866 32.88901834 0.00000000 0.00000000 0.00000000 0.00000000 
257947478 0.00000000 0.00000000 -56.66186484 23.03381677 0.00000000 0.00000000 0.00000000 0.00000000 
259864996 0.00000000 0.00000000 -54.19538721 25.40897061 0.00000000 0.00000000 0.00000000 0.00000000 
261782516 0.00000000 0.00000000 -52.82560095 34.51026539 0.00000000 0.00000000 0.00000000 0.00000000 
263700034 0.00000000 0.00000000 -52.79259746 23.91797296 0.00000000 0.00000000 0.00000000 0.00000000 
265617552 0.00000000 0.00000000 -52.31330529 25.87958723 0.00000000 0.00000000 0.00000000 0.00000000 
267535070 0.00000000 0.00000000 -50.51295188 22.67969590 0.00000000 0.00000000 0.00000000 0.00000000 
269452590 0.00000000 0.00000000 -49.63615848 22.47069649 0.00000000 0.00000000 0.00000000 0.00000000 
271370108 0.00000000 0.00000000 -49.36416125 6.31136680 0.00000000 0.00000000 0.00000000 0.00000000 
273287626 0.00000000 0.00000000 -48.64355396 1.97639581 0.00000000 0.00000000 0.00000000 0.00000000 
275205144 0.00000000 0.00000000 -47.77491751 -0.05526123 0.00000000 0.00000000 0.00000000 0.00000000 
277122664 0.00000000 0.00000000 -46.08077975 -7.20835097 0.00000000 0.00000000 0.00000000 0.00000000 
279040182 0.00000000 0.00000000 -45.90550760 -8.81343792 0.00000000 0.00000000 0.00000000 0.00000000 
280957700 0.00000000 0.00000000 -46.90632824 -15.33835653 0.00000000 0.00000000 0.00000000 0.00000000 
282875218 0.00000000 0.00000000 -45.24563650 -20.78211938 0.00000000 0.00000000 0.00000000 0.00000000 
284792738 0.00000000 0.00000000 -44.43171634 -22.12261811 0.00000000 0.00000000 0.00000000 0.00000000 
286710256 0.00000000 0.00000000 -44.49939416 -30.19228823 0.00000000 0.00000000 0.00000000 0.00000000 
288627774 0.00000000 0.00000000 -44.76539367 -35.91577376 0.00000000 0.00000000 0.00000000 0.00000000 
290545292 0.00000000 0.00000000 -43.47045649 -41.11374014 0.00000000 0.00000000 0.00000000 0.00000000 
292462812 0.00000000 0.00000000 -42.94826018 -42.23207750 0.00000000 0.00000000 0.00000000 0.00000000 
294380330 0.00000000 0.00000000 -43.65565169 -48.73298744 0.00000000 0.00000000 0.00000000 0.00000000 
296297848 0.00000000 0.00000000 -43.02233514 -49.10079928 0.00000000 0.00000000 0.00000000 0.00000000 
298215366 0.00000000 0.00000000 -43.62853995 -52.58369947 0.00000000 0.00000000 0.00000000 0.00000000 
300132886 0.00000000 0.00000000 -43.14689870 -53.87232831 0.00000000 0.00000000 0.00000000 0.00000000 
302050404 0.00000000 0.00000000 -43.51823165 -57.62801485 0.00000000 0.00000000 0.00000000 0.00000000 
303967922 0.00000000 0.00000000 -43.56643827 -62.45819310 0.00000000 0.00000000 0.00000000 0.00000000 
305885440 0.00000000 0.00000000 -43.51228371 -67.58643626 0.00000000 0.00000000 0.00000000 0.00000000 
307802960 0.00000000 0.00000000 -42.59394415 -70.22723850 0.00000000 0.00000000 0.00000000 0.00000000 
309720478 0.00000000 0.00000000 -43.55746911 -72.84548518 0.00000000 0.00000000 0.00000000 0.00000000 
311637996 0.00000000 0.00000000 -43.87388874 -78.01123423 0.00000000 0.00000000 0.00000000 0.00000000 
313555514 0.00000000 0.00000000 -43.82137865 -81.89539843 0.00000000 0.00000000 0.00000000 0.00000000 
315473034 0.00000000 0.00000000 -43.23415656 -87.60453390 0.00000000 0.00000000 0.00000000 0.00000000 
317390552 0.00000000 0.00000000 -43.77982647 -88.56097517 0.00000000 0.00000000 0.00000000 0.00000000 
319308070 0.00000000 0.00000000 -44.56570842 -93.83792117 0.00000000 0.00000000 0.00000000 0.00000000 
321225588 0.00000000 0.00000000 -45.14591560 -95.39046162 0.00000000 0.00000000 0.00000000 0.00000000 
323143108 0.00000000 0.00000000 -44.40348370 -103.51195844 0.00000000 0.00000000 0.00000000 0.00000000 
325060626 0.00000000 0.00000000 -45.29841581 -107.71619699 0.00000000 0.00000000 0.00000000 0.00000000 
326978144 0.00000000 0.00000000 -45.54557374 -108.74709287 0.00000000 0.00000000 0.00000000 0.00000000 
328895662 0.00000000 0.00000000 -45.53581006 -109.89082947 0.00000000 0.00000000 0.00000000 0.00000000 
330813182 0.00000000 0.00000000 -45.13164783 -115.45854099 0.00000000 0.00000000 0.00000000 0.00000000 
332730700 0.00000000 0.00000000 -45.23710272 -115.60745095 0.00000000 0.00000000 0.00000000 0.00000000 
334648218 0.00000000 0.00000000 -45.43740738 -116.52961089 0.00000000 0.00000000 0.00000000 0.00000000 
336565736 0.00000000 0.00000000 -46.01674984 -115.84994113 0.00000000 0.00000000 0.00000000 0.00000000 
338483256 0.00000000 0.00000000 -45.41124142 -119.39975928 0.00000000 0.00000000 0.00000000 0.00000000 
340400774 0.00000000 0.00000000 -46.07836047 -119.57913139 0.00000000 0.00000000 0.00000000 0.00000000 
342318292 0.00000000 0.00000000 -46.53226963 -121.71074528 0.00000000 0.00000000 0.00000000 0.00000000 
344235810 0.00000000 0.00000000 -47.26835182 -117.53203163 0.00000000 0.00000000 0.00000000 0.00000000 
346153330 0.00000000 0.00000000 -47.28082436 -123.48571443 0.00000000 0.00000000 0.00000000 0.00000000 
348070848 0.00000000 0.00000000 -48.21718245 -123.64055348 0.00000000 0.00000000 0.00000000 0.00000000 
349988366 0.00000000 0.00000000 -47.88958474 -130.69357974 0.00000000 0.00000000 0.00000000 0.00000000 
351905884 0.00000000 0.00000000 -47.42730806 -133.36196020 0.00000000 0.00000000 0.00000000 0.00000000 
353823404 0.00000000 0.00000000 -46.24560283 -136.24796358 0.00000000 0.00000000 0.00000000 0.00000000 
355740922 0.00000000 0.00000000 -47.56984140 -136.19288709 0.00000000 0.00000000 0.00000000 0.00000000 
357658440 0.00000000 0.00000000 -48.44397061 -143.24444237 0.00000000 0.00000000 0.00000000 0.00000000 
359575958 0.00000000 0.00000000 -47.60336879 -147.00889959 0.00000000 0.00000000 0.00000000 0.00000000 
361493478 0.00000000 0.00000000 -47.30351658 -153.33999357 0.00000000 0.00000000 0.00000000 0.00000000 
363410996 0.00000000 0.00000000 -49.31531057 -152.91036412 0.00000000 0.00000000 0.00000000 0.00000000 
365328514 0.00000000 0.00000000 -50.70106716 -154.79012488 0.00000000 0.00000000 0.00000000 0.00000000 
367246032 0.00000000 0.00000000 -50.44815291 -165.64900164 0.00000000 0.00000000 0.00000000 0.00000000 
369163552 0.00000000 0.00000000 -51.49806639 -172.99731482 0.00000000 0.00000000 0.00000000 0.00000000 
