! created by ADMIN at Mon Apr 20 19:09:09 IST 2026
! generated using vna/J Version 3.2.10
# Hz S DB R 50
001000000 0.00000000 0.00000000 -59.77295153 17.71107544 0.00000000 0.00000000 0.00000000 0.00000000 
002917518 0.00000000 0.00000000 -60.81331658 25.67199929 0.00000000 0.00000000 0.00000000 0.00000000 
004835036 0.00000000 0.00000000 -59.72937519 30.81224283 0.00000000 0.00000000 0.00000000 0.00000000 
006752554 0.00000000 0.00000000 -57.47159849 26.78742098 0.00000000 0.00000000 0.00000000 0.00000000 
008670074 0.00000000 0.00000000 -58.12126787 41.23077361 0.00000000 0.00000000 0.00000000 0.00000000 
010587592 0.00000000 0.00000000 -56.31408178 43.94421494 0.00000000 0.00000000 0.00000000 0.00000000 
012505110 0.00000000 0.00000000 -55.76190527 45.38112273 0.00000000 0.00000000 0.00000000 0.00000000 
014422628 0.00000000 0.00000000 -55.35569756 47.55676364 0.00000000 0.00000000 0.00000000 0.00000000 
016340148 0.00000000 0.00000000 -54.79925263 48.44607150 0.00000000 0.00000000 0.00000000 0.00000000 
018257666 0.00000000 0.00000000 -54.73704200 49.33553547 0.00000000 0.00000000 0.00000000 0.00000000 
020175184 0.00000000 0.00000000 -54.98110818 50.57011612 0.00000000 0.00000000 0.00000000 0.00000000 
022092702 0.00000000 0.00000000 -55.09818024 49.56631662 0.00000000 0.00000000 0.00000000 0.00000000 
024010222 0.00000000 0.00000000 -56.73593810 54.73999270 0.00000000 0.00000000 0.00000000 0.00000000 
025927740 0.00000000 0.00000000 -55.48556089 42.01512192 0.00000000 0.00000000 0.00000000 0.00000000 
027845258 0.00000000 0.00000000 -56.13461850 48.08387027 0.00000000 0.00000000 0.00000000 0.00000000 
029762776 0.00000000 0.00000000 -56.08635276 46.81655325 0.00000000 0.00000000 0.00000000 0.00000000 
031680296 0.00000000 0.00000000 -53.73724576 43.18226022 0.00000000 0.00000000 0.00000000 0.00000000 
033597814 0.00000000 0.00000000 -54.99385977 42.95365689 0.00000000 0.00000000 0.00000000 0.00000000 
035515332 0.00000000 0.00000000 -54.34684388 46.18752979 0.00000000 0.00000000 0.00000000 0.00000000 
037432850 0.00000000 0.00000000 -55.16815071 48.81655200 0.00000000 0.00000000 0.00000000 0.00000000 
039350370 0.00000000 0.00000000 -53.80142724 49.11882176 0.00000000 0.00000000 0.00000000 0.00000000 
041267888 0.00000000 0.00000000 -53.14767145 49.71938641 0.00000000 0.00000000 0.00000000 0.00000000 
043185406 0.00000000 0.00000000 -52.54993740 52.72187525 0.00000000 0.00000000 0.00000000 0.00000000 
045102924 0.00000000 0.00000000 -50.75704025 57.68775839 0.00000000 0.00000000 0.00000000 0.00000000 
047020444 0.00000000 0.00000000 -50.29525698 58.15054280 0.00000000 0.00000000 0.00000000 0.00000000 
048937962 0.00000000 0.00000000 -50.43319630 62.12805294 0.00000000 0.00000000 0.00000000 0.00000000 
050855480 0.00000000 0.00000000 -50.09754699 60.87536518 0.00000000 0.00000000 0.00000000 0.00000000 
052772998 0.00000000 0.00000000 -49.76407174 59.35569338 0.00000000 0.00000000 0.00000000 0.00000000 
054690518 0.00000000 0.00000000 -48.93473466 60.98083413 0.00000000 0.00000000 0.00000000 0.00000000 
056608036 0.00000000 0.00000000 -48.39782440 65.78501354 0.00000000 0.00000000 0.00000000 0.00000000 
058525554 0.00000000 0.00000000 -48.60533701 65.88878559 0.00000000 0.00000000 0.00000000 0.00000000 
060443072 0.00000000 0.00000000 -48.12193436 64.19701229 0.00000000 0.00000000 0.00000000 0.00000000 
062360592 0.00000000 0.00000000 -47.82041945 68.49534459 0.00000000 0.00000000 0.00000000 0.00000000 
064278110 0.00000000 0.00000000 -47.31886159 67.79364240 0.00000000 0.00000000 0.00000000 0.00000000 
066195628 0.00000000 0.00000000 -47.54693570 66.98175835 0.00000000 0.00000000 0.00000000 0.00000000 
068113146 0.00000000 0.00000000 -46.47004723 66.18671725 0.00000000 0.00000000 0.00000000 0.00000000 
070030666 0.00000000 0.00000000 -45.38536066 68.21429799 0.00000000 0.00000000 0.00000000 0.00000000 
071948184 0.00000000 0.00000000 -45.69665361 64.37351836 0.00000000 0.00000000 0.00000000 0.00000000 
073865702 0.00000000 0.00000000 -45.29676980 63.45856925 0.00000000 0.00000000 0.00000000 0.00000000 
075783220 0.00000000 0.00000000 -44.56640624 63.01832069 0.00000000 0.00000000 0.00000000 0.00000000 
077700740 0.00000000 0.00000000 -43.66404046 63.59732394 0.00000000 0.00000000 0.00000000 0.00000000 
079618258 0.00000000 0.00000000 -44.15482023 59.41505605 0.00000000 0.00000000 0.00000000 0.00000000 
081535776 0.00000000 0.00000000 -43.72882246 56.69514427 0.00000000 0.00000000 0.00000000 0.00000000 
083453294 0.00000000 0.00000000 -43.42906122 52.84099284 0.00000000 0.00000000 0.00000000 0.00000000 
085370814 0.00000000 0.00000000 -42.84832218 52.83022859 0.00000000 0.00000000 0.00000000 0.00000000 
087288332 0.00000000 0.00000000 -43.42866673 49.86632502 0.00000000 0.00000000 0.00000000 0.00000000 
089205850 0.00000000 0.00000000 -43.05454991 49.02433014 0.00000000 0.00000000 0.00000000 0.00000000 
091123368 0.00000000 0.00000000 -42.85197971 46.32227563 0.00000000 0.00000000 0.00000000 0.00000000 
093040888 0.00000000 0.00000000 -42.51158619 45.46996539 0.00000000 0.00000000 0.00000000 0.00000000 
094958406 0.00000000 0.00000000 -43.30570956 46.40666341 0.00000000 0.00000000 0.00000000 0.00000000 
096875924 0.00000000 0.00000000 -43.91164593 45.51337217 0.00000000 0.00000000 0.00000000 0.00000000 
098793442 0.00000000 0.00000000 -44.41046829 43.03941009 0.00000000 0.00000000 0.00000000 0.00000000 
100710962 0.00000000 0.00000000 -44.73274720 39.57189404 0.00000000 0.00000000 0.00000000 0.00000000 
102628480 0.00000000 0.00000000 -44.17916174 44.24521841 0.00000000 0.00000000 0.00000000 0.00000000 
104545998 0.00000000 0.00000000 -44.19955135 49.11705347 0.00000000 0.00000000 0.00000000 0.00000000 
106463516 0.00000000 0.00000000 -43.91255953 53.69669272 0.00000000 0.00000000 0.00000000 0.00000000 
108381036 0.00000000 0.00000000 -43.07228122 55.81609292 0.00000000 0.00000000 0.00000000 0.00000000 
110298554 0.00000000 0.00000000 -43.87044520 55.06959814 0.00000000 0.00000000 0.00000000 0.00000000 
112216072 0.00000000 0.00000000 -43.65549002 54.09412132 0.00000000 0.00000000 0.00000000 0.00000000 
114133590 0.00000000 0.00000000 -43.79943139 51.80333979 0.00000000 0.00000000 0.00000000 0.00000000 
116051110 0.00000000 0.00000000 -42.91866613 48.15948725 0.00000000 0.00000000 0.00000000 0.00000000 
117968628 0.00000000 0.00000000 -43.30580570 48.71292265 0.00000000 0.00000000 0.00000000 0.00000000 
119886146 0.00000000 0.00000000 -43.47747393 47.42373004 0.00000000 0.00000000 0.00000000 0.00000000 
121803664 0.00000000 0.00000000 -43.44830845 46.68711100 0.00000000 0.00000000 0.00000000 0.00000000 
123721184 0.00000000 0.00000000 -43.06497272 49.76970495 0.00000000 0.00000000 0.00000000 0.00000000 
125638702 0.00000000 0.00000000 -43.47693554 49.29189929 0.00000000 0.00000000 0.00000000 0.00000000 
127556220 0.00000000 0.00000000 -43.28428284 49.75981368 0.00000000 0.00000000 0.00000000 0.00000000 
129473738 0.00000000 0.00000000 -43.29443238 52.06602476 0.00000000 0.00000000 0.00000000 0.00000000 
131391258 0.00000000 0.00000000 -43.06083138 54.57889133 0.00000000 0.00000000 0.00000000 0.00000000 
133308776 0.00000000 0.00000000 -43.46525923 57.03596475 0.00000000 0.00000000 0.00000000 0.00000000 
135226294 0.00000000 0.00000000 -42.69679499 57.12922253 0.00000000 0.00000000 0.00000000 0.00000000 
137143812 0.00000000 0.00000000 -42.46162619 55.53963733 0.00000000 0.00000000 0.00000000 0.00000000 
139061332 0.00000000 0.00000000 -42.10710326 57.39008378 0.00000000 0.00000000 0.00000000 0.00000000 
140978850 0.00000000 0.00000000 -41.82902846 58.67807009 0.00000000 0.00000000 0.00000000 0.00000000 
142896368 0.00000000 0.00000000 -41.35028787 60.12808963 0.00000000 0.00000000 0.00000000 0.00000000 
144813886 0.00000000 0.00000000 -41.38354548 61.69757119 0.00000000 0.00000000 0.00000000 0.00000000 
146731406 0.00000000 0.00000000 -40.93919105 64.76525916 0.00000000 0.00000000 0.00000000 0.00000000 
148648924 0.00000000 0.00000000 -40.71231530 64.47874222 0.00000000 0.00000000 0.00000000 0.00000000 
150566442 0.00000000 0.00000000 -40.59232291 64.22166326 0.00000000 0.00000000 0.00000000 0.00000000 
152483960 0.00000000 0.00000000 -40.20760109 63.41403743 0.00000000 0.00000000 0.00000000 0.00000000 
154401480 0.00000000 0.00000000 -39.89651561 65.62900685 0.00000000 0.00000000 0.00000000 0.00000000 
156318998 0.00000000 0.00000000 -40.00130103 65.64627408 0.00000000 0.00000000 0.00000000 0.00000000 
158236516 0.00000000 0.00000000 -39.82589997 63.98793138 0.00000000 0.00000000 0.00000000 0.00000000 
160154034 0.00000000 0.00000000 -39.32670970 64.97170979 0.00000000 0.00000000 0.00000000 0.00000000 
162071554 0.00000000 0.00000000 -38.87854398 66.42153245 0.00000000 0.00000000 0.00000000 0.00000000 
163989072 0.00000000 0.00000000 -39.18825725 65.03097575 0.00000000 0.00000000 0.00000000 0.00000000 
165906590 0.00000000 0.00000000 -38.68842066 62.03316709 0.00000000 0.00000000 0.00000000 0.00000000 
167824108 0.00000000 0.00000000 -38.66248114 62.09158608 0.00000000 0.00000000 0.00000000 0.00000000 
169741628 0.00000000 0.00000000 -37.83214314 61.91714342 0.00000000 0.00000000 0.00000000 0.00000000 
171659146 0.00000000 0.00000000 -38.18700359 60.55485174 0.00000000 0.00000000 0.00000000 0.00000000 
173576664 0.00000000 0.00000000 -38.23982189 57.74716525 0.00000000 0.00000000 0.00000000 0.00000000 
175494182 0.00000000 0.00000000 -37.87293590 55.14891330 0.00000000 0.00000000 0.00000000 0.00000000 
177411702 0.00000000 0.00000000 -37.31286475 53.41716673 0.00000000 0.00000000 0.00000000 0.00000000 
179329220 0.00000000 0.00000000 -37.56033606 53.59307965 0.00000000 0.00000000 0.00000000 0.00000000 
181246738 0.00000000 0.00000000 -37.80032883 53.11126674 0.00000000 0.00000000 0.00000000 0.00000000 
183164256 0.00000000 0.00000000 -37.76530285 54.65041610 0.00000000 0.00000000 0.00000000 0.00000000 
185081776 0.00000000 0.00000000 -37.63490131 52.17416521 0.00000000 0.00000000 0.00000000 0.00000000 
186999294 0.00000000 0.00000000 -37.66518261 51.07493189 0.00000000 0.00000000 0.00000000 0.00000000 
188916812 0.00000000 0.00000000 -37.64071856 51.77146767 0.00000000 0.00000000 0.00000000 0.00000000 
190834330 0.00000000 0.00000000 -37.51115478 50.85228146 0.00000000 0.00000000 0.00000000 0.00000000 
192751850 0.00000000 0.00000000 -37.08518947 51.33669151 0.00000000 0.00000000 0.00000000 0.00000000 
194669368 0.00000000 0.00000000 -37.50082443 50.40475625 0.00000000 0.00000000 0.00000000 0.00000000 
196586886 0.00000000 0.00000000 -37.86964751 49.40012153 0.00000000 0.00000000 0.00000000 0.00000000 
198504404 0.00000000 0.00000000 -37.98451795 47.68230056 0.00000000 0.00000000 0.00000000 0.00000000 
200421924 0.00000000 0.00000000 -37.73653197 46.05153340 0.00000000 0.00000000 0.00000000 0.00000000 
202339442 0.00000000 0.00000000 -38.34493924 47.29414813 0.00000000 0.00000000 0.00000000 0.00000000 
204256960 0.00000000 0.00000000 -38.80233381 47.50471455 0.00000000 0.00000000 0.00000000 0.00000000 
206174478 0.00000000 0.00000000 -38.71567166 47.58408949 0.00000000 0.00000000 0.00000000 0.00000000 
208091998 0.00000000 0.00000000 -38.90201257 47.76807445 0.00000000 0.00000000 0.00000000 0.00000000 
210009516 0.00000000 0.00000000 -39.06160941 50.88007289 0.00000000 0.00000000 0.00000000 0.00000000 
211927034 0.00000000 0.00000000 -39.47285727 55.73724450 0.00000000 0.00000000 0.00000000 0.00000000 
213844552 0.00000000 0.00000000 -39.58738004 58.62743842 0.00000000 0.00000000 0.00000000 0.00000000 
215762072 0.00000000 0.00000000 -39.89194112 60.22288945 0.00000000 0.00000000 0.00000000 0.00000000 
217679590 0.00000000 0.00000000 -39.42637496 63.92382435 0.00000000 0.00000000 0.00000000 0.00000000 
219597108 0.00000000 0.00000000 -38.83103473 66.61037508 0.00000000 0.00000000 0.00000000 0.00000000 
221514626 0.00000000 0.00000000 -38.41069378 68.46102980 0.00000000 0.00000000 0.00000000 0.00000000 
223432146 0.00000000 0.00000000 -37.81210920 72.91994079 0.00000000 0.00000000 0.00000000 0.00000000 
225349664 0.00000000 0.00000000 -37.72930072 72.65816615 0.00000000 0.00000000 0.00000000 0.00000000 
227267182 0.00000000 0.00000000 -37.35232846 71.02267194 0.00000000 0.00000000 0.00000000 0.00000000 
229184700 0.00000000 0.00000000 -36.91877542 70.49027317 0.00000000 0.00000000 0.00000000 0.00000000 
231102220 0.00000000 0.00000000 -36.11168549 70.54788727 0.00000000 0.00000000 0.00000000 0.00000000 
233019738 0.00000000 0.00000000 -36.40671423 69.40022901 0.00000000 0.00000000 0.00000000 0.00000000 
234937256 0.00000000 0.00000000 -36.21961828 67.91748031 0.00000000 0.00000000 0.00000000 0.00000000 
236854774 0.00000000 0.00000000 -35.91141988 68.36418831 0.00000000 0.00000000 0.00000000 0.00000000 
238772294 0.00000000 0.00000000 -35.52016345 67.06382420 0.00000000 0.00000000 0.00000000 0.00000000 
240689812 0.00000000 0.00000000 -35.49557627 67.51141759 0.00000000 0.00000000 0.00000000 0.00000000 
242607330 0.00000000 0.00000000 -35.32748232 66.91315756 0.00000000 0.00000000 0.00000000 0.00000000 
244524848 0.00000000 0.00000000 -35.01373269 67.86482134 0.00000000 0.00000000 0.00000000 0.00000000 
246442368 0.00000000 0.00000000 -34.50999386 68.97293025 0.00000000 0.00000000 0.00000000 0.00000000 
248359886 0.00000000 0.00000000 -34.52670103 68.20511211 0.00000000 0.00000000 0.00000000 0.00000000 
250277404 0.00000000 0.00000000 -34.56671969 68.48362237 0.00000000 0.00000000 0.00000000 0.00000000 
252194922 0.00000000 0.00000000 -34.12768129 69.38158741 0.00000000 0.00000000 0.00000000 0.00000000 
254112442 0.00000000 0.00000000 -33.79954872 70.79296306 0.00000000 0.00000000 0.00000000 0.00000000 
256029960 0.00000000 0.00000000 -33.78129718 69.61887196 0.00000000 0.00000000 0.00000000 0.00000000 
257947478 0.00000000 0.00000000 -33.58895726 67.95963846 0.00000000 0.00000000 0.00000000 0.00000000 
259864996 0.00000000 0.00000000 -33.13222564 67.17305015 0.00000000 0.00000000 0.00000000 0.00000000 
261782516 0.00000000 0.00000000 -32.54434857 68.00253208 0.00000000 0.00000000 0.00000000 0.00000000 
263700034 0.00000000 0.00000000 -32.63094602 65.61610007 0.00000000 0.00000000 0.00000000 0.00000000 
265617552 0.00000000 0.00000000 -32.35999090 64.36061431 0.00000000 0.00000000 0.00000000 0.00000000 
267535070 0.00000000 0.00000000 -31.84848780 62.93297465 0.00000000 0.00000000 0.00000000 0.00000000 
269452590 0.00000000 0.00000000 -31.26260398 63.15834630 0.00000000 0.00000000 0.00000000 0.00000000 
271370108 0.00000000 0.00000000 -31.68656585 58.93017354 0.00000000 0.00000000 0.00000000 0.00000000 
273287626 0.00000000 0.00000000 -31.61365398 55.39478672 0.00000000 0.00000000 0.00000000 0.00000000 
275205144 0.00000000 0.00000000 -31.20913337 52.65855206 0.00000000 0.00000000 0.00000000 0.00000000 
277122664 0.00000000 0.00000000 -30.62341221 50.06692518 0.00000000 0.00000000 0.00000000 0.00000000 
279040182 0.00000000 0.00000000 -31.11356848 49.46130989 0.00000000 0.00000000 0.00000000 0.00000000 
280957700 0.00000000 0.00000000 -31.63978307 49.12023526 0.00000000 0.00000000 0.00000000 0.00000000 
282875218 0.00000000 0.00000000 -31.73120654 45.75546462 0.00000000 0.00000000 0.00000000 0.00000000 
284792738 0.00000000 0.00000000 -31.55508625 43.82967608 0.00000000 0.00000000 0.00000000 0.00000000 
286710256 0.00000000 0.00000000 -32.06193431 43.74802259 0.00000000 0.00000000 0.00000000 0.00000000 
288627774 0.00000000 0.00000000 -32.36295849 44.23175811 0.00000000 0.00000000 0.00000000 0.00000000 
290545292 0.00000000 0.00000000 -32.44453253 42.46539746 0.00000000 0.00000000 0.00000000 0.00000000 
292462812 0.00000000 0.00000000 -32.25929955 42.57249607 0.00000000 0.00000000 0.00000000 0.00000000 
294380330 0.00000000 0.00000000 -32.93831455 43.47852093 0.00000000 0.00000000 0.00000000 0.00000000 
296297848 0.00000000 0.00000000 -33.16362634 41.43443772 0.00000000 0.00000000 0.00000000 0.00000000 
298215366 0.00000000 0.00000000 -33.30258087 41.99527755 0.00000000 0.00000000 0.00000000 0.00000000 
300132886 0.00000000 0.00000000 -33.16699244 40.77996080 0.00000000 0.00000000 0.00000000 0.00000000 
302050404 0.00000000 0.00000000 -33.54114585 41.96227906 0.00000000 0.00000000 0.00000000 0.00000000 
303967922 0.00000000 0.00000000 -33.82656500 42.76190292 0.00000000 0.00000000 0.00000000 0.00000000 
305885440 0.00000000 0.00000000 -33.97074047 43.89376621 0.00000000 0.00000000 0.00000000 0.00000000 
307802960 0.00000000 0.00000000 -33.99050310 43.63450490 0.00000000 0.00000000 0.00000000 0.00000000 
309720478 0.00000000 0.00000000 -34.15994721 45.65129522 0.00000000 0.00000000 0.00000000 0.00000000 
311637996 0.00000000 0.00000000 -34.33035020 46.95325994 0.00000000 0.00000000 0.00000000 0.00000000 
313555514 0.00000000 0.00000000 -34.31183418 47.95588359 0.00000000 0.00000000 0.00000000 0.00000000 
315473034 0.00000000 0.00000000 -34.31555486 49.54976824 0.00000000 0.00000000 0.00000000 0.00000000 
317390552 0.00000000 0.00000000 -34.43236007 50.24113794 0.00000000 0.00000000 0.00000000 0.00000000 
319308070 0.00000000 0.00000000 -34.38707493 52.52396582 0.00000000 0.00000000 0.00000000 0.00000000 
321225588 0.00000000 0.00000000 -34.07134596 53.92173699 0.00000000 0.00000000 0.00000000 0.00000000 
323143108 0.00000000 0.00000000 -34.02402191 56.71356166 0.00000000 0.00000000 0.00000000 0.00000000 
325060626 0.00000000 0.00000000 -33.90026987 59.01459799 0.00000000 0.00000000 0.00000000 0.00000000 
326978144 0.00000000 0.00000000 -33.71499141 60.33553923 0.00000000 0.00000000 0.00000000 0.00000000 
328895662 0.00000000 0.00000000 -33.40964311 62.15244307 0.00000000 0.00000000 0.00000000 0.00000000 
330813182 0.00000000 0.00000000 -33.05008290 65.70811639 0.00000000 0.00000000 0.00000000 0.00000000 
332730700 0.00000000 0.00000000 -33.04811586 66.86954250 0.00000000 0.00000000 0.00000000 0.00000000 
334648218 0.00000000 0.00000000 -32.81692771 68.36458550 0.00000000 0.00000000 0.00000000 0.00000000 
336565736 0.00000000 0.00000000 -32.34624233 69.77794809 0.00000000 0.00000000 0.00000000 0.00000000 
338483256 0.00000000 0.00000000 -31.95665055 72.76350559 0.00000000 0.00000000 0.00000000 0.00000000 
340400774 0.00000000 0.00000000 -31.90556922 72.67090378 0.00000000 0.00000000 0.00000000 0.00000000 
342318292 0.00000000 0.00000000 -31.66416912 72.80802675 0.00000000 0.00000000 0.00000000 0.00000000 
344235810 0.00000000 0.00000000 -31.21344647 72.13813192 0.00000000 0.00000000 0.00000000 0.00000000 
346153330 0.00000000 0.00000000 -30.66008813 73.77912744 0.00000000 0.00000000 0.00000000 0.00000000 
348070848 0.00000000 0.00000000 -30.45639361 71.93574338 0.00000000 0.00000000 0.00000000 0.00000000 
349988366 0.00000000 0.00000000 -30.11529591 71.52820804 0.00000000 0.00000000 0.00000000 0.00000000 
351905884 0.00000000 0.00000000 -29.61320079 71.33919881 0.00000000 0.00000000 0.00000000 0.00000000 
353823404 0.00000000 0.00000000 -29.02386700 72.47403969 0.00000000 0.00000000 0.00000000 0.00000000 
355740922 0.00000000 0.00000000 -28.86976421 68.99560024 0.00000000 0.00000000 0.00000000 0.00000000 
357658440 0.00000000 0.00000000 -28.41435043 66.77127870 0.00000000 0.00000000 0.00000000 0.00000000 
359575958 0.00000000 0.00000000 -27.88837981 65.79022139 0.00000000 0.00000000 0.00000000 0.00000000 
361493478 0.00000000 0.00000000 -27.12854907 66.03980887 0.00000000 0.00000000 0.00000000 0.00000000 
363410996 0.00000000 0.00000000 -27.24995192 62.38902430 0.00000000 0.00000000 0.00000000 0.00000000 
365328514 0.00000000 0.00000000 -27.09202886 59.06279155 0.00000000 0.00000000 0.00000000 0.00000000 
367246032 0.00000000 0.00000000 -26.65689086 57.33918461 0.00000000 0.00000000 0.00000000 0.00000000 
369163552 0.00000000 0.00000000 -25.96456237 56.34902594 0.00000000 0.00000000 0.00000000 0.00000000 
371081070 0.00000000 0.00000000 -26.55839129 53.23803298 0.00000000 0.00000000 0.00000000 0.00000000 
372998588 0.00000000 0.00000000 -26.86277196 49.60042137 0.00000000 0.00000000 0.00000000 0.00000000 
