! created by ADMIN at Tue Apr 21 15:42:59 IST 2026
! generated using vna/J Version 3.2.10
# Hz S DB R 50
001000000 0.00000000 0.00000000 -69.87372184 32.73312737 0.00000000 0.00000000 0.00000000 0.00000000 
002917518 0.00000000 0.00000000 -80.00000000 -20.93775256 0.00000000 0.00000000 0.00000000 0.00000000 
004835036 0.00000000 0.00000000 -74.61250630 -52.77364690 0.00000000 0.00000000 0.00000000 0.00000000 
006752554 0.00000000 0.00000000 -65.18333757 -35.62847656 0.00000000 0.00000000 0.00000000 0.00000000 
008670074 0.00000000 0.00000000 -66.73959431 -56.57030829 0.00000000 0.00000000 0.00000000 0.00000000 
010587592 0.00000000 0.00000000 -68.31590114 -11.19520903 0.00000000 0.00000000 0.00000000 0.00000000 
012505110 0.00000000 0.00000000 -69.06537665 7.27051646 0.00000000 0.00000000 0.00000000 0.00000000 
014422628 0.00000000 0.00000000 -70.85470260 23.83309714 0.00000000 0.00000000 0.00000000 0.00000000 
016340148 0.00000000 0.00000000 -71.56241585 33.39304962 0.00000000 0.00000000 0.00000000 0.00000000 
018257666 0.00000000 0.00000000 -68.77218338 50.97604069 0.00000000 0.00000000 0.00000000 0.00000000 
020175184 0.00000000 0.00000000 -68.62687142 67.81481073 0.00000000 0.00000000 0.00000000 0.00000000 
022092702 0.00000000 0.00000000 -69.13156651 76.70353840 0.00000000 0.00000000 0.00000000 0.00000000 
024010222 0.00000000 0.00000000 -69.10010750 152.53543928 0.00000000 0.00000000 0.00000000 0.00000000 
025927740 0.00000000 0.00000000 -74.93124528 71.85541665 0.00000000 0.00000000 0.00000000 0.00000000 
027845258 0.00000000 0.00000000 -70.03337329 139.52136931 0.00000000 0.00000000 0.00000000 0.00000000 
029762776 0.00000000 0.00000000 -68.87719909 154.96329867 0.00000000 0.00000000 0.00000000 0.00000000 
031680296 0.00000000 0.00000000 -69.53869993 96.15477466 0.00000000 0.00000000 0.00000000 0.00000000 
033597814 0.00000000 0.00000000 -73.96926075 162.94218241 0.00000000 0.00000000 0.00000000 0.00000000 
035515332 0.00000000 0.00000000 -73.57447266 137.18303087 0.00000000 0.00000000 0.00000000 0.00000000 
037432850 0.00000000 0.00000000 -69.95451584 -171.38808529 0.00000000 0.00000000 0.00000000 0.00000000 
039350370 0.00000000 0.00000000 -77.50759753 155.41015015 0.00000000 0.00000000 0.00000000 0.00000000 
041267888 0.00000000 0.00000000 -75.23072973 -105.15133521 0.00000000 0.00000000 0.00000000 0.00000000 
043185406 0.00000000 0.00000000 -68.81266822 -86.63010475 0.00000000 0.00000000 0.00000000 0.00000000 
045102924 0.00000000 0.00000000 -69.61482312 -34.96324038 0.00000000 0.00000000 0.00000000 0.00000000 
047020444 0.00000000 0.00000000 -62.81944268 -38.16096793 0.00000000 0.00000000 0.00000000 0.00000000 
048937962 0.00000000 0.00000000 -69.08022781 -40.74953020 0.00000000 0.00000000 0.00000000 0.00000000 
050855480 0.00000000 0.00000000 -72.42752419 -19.79945959 0.00000000 0.00000000 0.00000000 0.00000000 
052772998 0.00000000 0.00000000 -75.04196107 -15.05792213 0.00000000 0.00000000 0.00000000 0.00000000 
054690518 0.00000000 0.00000000 -76.66273713 73.35778733 0.00000000 0.00000000 0.00000000 0.00000000 
056608036 0.00000000 0.00000000 -68.77129158 103.58395324 0.00000000 0.00000000 0.00000000 0.00000000 
058525554 0.00000000 0.00000000 -78.31519349 118.56882521 0.00000000 0.00000000 0.00000000 0.00000000 
060443072 0.00000000 0.00000000 -72.81782087 12.37130642 0.00000000 0.00000000 0.00000000 0.00000000 
062360592 0.00000000 0.00000000 -77.50148274 14.06383669 0.00000000 0.00000000 0.00000000 0.00000000 
064278110 0.00000000 0.00000000 -76.32927691 76.11077013 0.00000000 0.00000000 0.00000000 0.00000000 
066195628 0.00000000 0.00000000 -71.60505813 -123.24977078 0.00000000 0.00000000 0.00000000 0.00000000 
068113146 0.00000000 0.00000000 -79.11580729 -105.23290071 0.00000000 0.00000000 0.00000000 0.00000000 
070030666 0.00000000 0.00000000 -80.00000000 118.45691248 0.00000000 0.00000000 0.00000000 0.00000000 
071948184 0.00000000 0.00000000 -78.29884628 -83.68380251 0.00000000 0.00000000 0.00000000 0.00000000 
073865702 0.00000000 0.00000000 -79.25299006 165.13831209 0.00000000 0.00000000 0.00000000 0.00000000 
075783220 0.00000000 0.00000000 -71.52380787 131.48449082 0.00000000 0.00000000 0.00000000 0.00000000 
077700740 0.00000000 0.00000000 -67.37563496 122.73200403 0.00000000 0.00000000 0.00000000 0.00000000 
079618258 0.00000000 0.00000000 -80.00000000 116.89671695 0.00000000 0.00000000 0.00000000 0.00000000 
081535776 0.00000000 0.00000000 -69.85001011 48.28511329 0.00000000 0.00000000 0.00000000 0.00000000 
083453294 0.00000000 0.00000000 -66.51483615 8.72292258 0.00000000 0.00000000 0.00000000 0.00000000 
085370814 0.00000000 0.00000000 -66.34294217 16.56751620 0.00000000 0.00000000 0.00000000 0.00000000 
087288332 0.00000000 0.00000000 -69.43460654 -9.48680418 0.00000000 0.00000000 0.00000000 0.00000000 
089205850 0.00000000 0.00000000 -67.60446279 52.56465539 0.00000000 0.00000000 0.00000000 0.00000000 
091123368 0.00000000 0.00000000 -71.17810658 60.66137107 0.00000000 0.00000000 0.00000000 0.00000000 
093040888 0.00000000 0.00000000 -73.56757176 139.47224968 0.00000000 0.00000000 0.00000000 0.00000000 
094958406 0.00000000 0.00000000 -74.50505413 152.97199838 0.00000000 0.00000000 0.00000000 0.00000000 
096875924 0.00000000 0.00000000 -78.89295549 141.48083781 0.00000000 0.00000000 0.00000000 0.00000000 
098793442 0.00000000 0.00000000 -80.00000000 169.26972222 0.00000000 0.00000000 0.00000000 0.00000000 
100710962 0.00000000 0.00000000 -80.00000000 -110.16194400 0.00000000 0.00000000 0.00000000 0.00000000 
102628480 0.00000000 0.00000000 -71.36991976 80.31973006 0.00000000 0.00000000 0.00000000 0.00000000 
104545998 0.00000000 0.00000000 -68.61095817 126.81338295 0.00000000 0.00000000 0.00000000 0.00000000 
106463516 0.00000000 0.00000000 -65.31526925 130.41559495 0.00000000 0.00000000 0.00000000 0.00000000 
108381036 0.00000000 0.00000000 -63.09575035 92.35096503 0.00000000 0.00000000 0.00000000 0.00000000 
110298554 0.00000000 0.00000000 -65.92414838 128.39426339 0.00000000 0.00000000 0.00000000 0.00000000 
112216072 0.00000000 0.00000000 -63.31461987 116.02448912 0.00000000 0.00000000 0.00000000 0.00000000 
114133590 0.00000000 0.00000000 -65.30679521 138.40195370 0.00000000 0.00000000 0.00000000 0.00000000 
116051110 0.00000000 0.00000000 -67.05564560 83.44437320 0.00000000 0.00000000 0.00000000 0.00000000 
117968628 0.00000000 0.00000000 -66.54868660 111.02543568 0.00000000 0.00000000 0.00000000 0.00000000 
119886146 0.00000000 0.00000000 -68.07778374 126.17246116 0.00000000 0.00000000 0.00000000 0.00000000 
121803664 0.00000000 0.00000000 -67.94115801 150.33317554 0.00000000 0.00000000 0.00000000 0.00000000 
123721184 0.00000000 0.00000000 -61.85435563 149.24602209 0.00000000 0.00000000 0.00000000 0.00000000 
125638702 0.00000000 0.00000000 -66.03981116 -174.77577656 0.00000000 0.00000000 0.00000000 0.00000000 
127556220 0.00000000 0.00000000 -75.28674695 -151.81026274 0.00000000 0.00000000 0.00000000 0.00000000 
129473738 0.00000000 0.00000000 -74.10444770 -129.73083598 0.00000000 0.00000000 0.00000000 0.00000000 
131391258 0.00000000 0.00000000 -78.15781135 -113.68876594 0.00000000 0.00000000 0.00000000 0.00000000 
133308776 0.00000000 0.00000000 -67.47539928 -155.86879679 0.00000000 0.00000000 0.00000000 0.00000000 
135226294 0.00000000 0.00000000 -69.59934040 107.56035354 0.00000000 0.00000000 0.00000000 0.00000000 
137143812 0.00000000 0.00000000 -73.44572348 61.18838109 0.00000000 0.00000000 0.00000000 0.00000000 
139061332 0.00000000 0.00000000 -72.11692164 104.30412828 0.00000000 0.00000000 0.00000000 0.00000000 
140978850 0.00000000 0.00000000 -69.14803913 82.00894168 0.00000000 0.00000000 0.00000000 0.00000000 
142896368 0.00000000 0.00000000 -64.62526997 71.05058598 0.00000000 0.00000000 0.00000000 0.00000000 
144813886 0.00000000 0.00000000 -72.20296223 69.25745979 0.00000000 0.00000000 0.00000000 0.00000000 
146731406 0.00000000 0.00000000 -69.70371984 90.64622565 0.00000000 0.00000000 0.00000000 0.00000000 
148648924 0.00000000 0.00000000 -65.53379144 81.63626057 0.00000000 0.00000000 0.00000000 0.00000000 
150566442 0.00000000 0.00000000 -66.94577281 83.01212598 0.00000000 0.00000000 0.00000000 0.00000000 
152483960 0.00000000 0.00000000 -66.19042314 61.50745790 0.00000000 0.00000000 0.00000000 0.00000000 
154401480 0.00000000 0.00000000 -68.75089497 97.09911882 0.00000000 0.00000000 0.00000000 0.00000000 
156318998 0.00000000 0.00000000 -68.24868375 126.90043257 0.00000000 0.00000000 0.00000000 0.00000000 
158236516 0.00000000 0.00000000 -72.52504322 109.20619119 0.00000000 0.00000000 0.00000000 0.00000000 
160154034 0.00000000 0.00000000 -65.87833204 113.68462584 0.00000000 0.00000000 0.00000000 0.00000000 
162071554 0.00000000 0.00000000 -64.22707711 128.70547359 0.00000000 0.00000000 0.00000000 0.00000000 
163989072 0.00000000 0.00000000 -64.37763409 156.07885560 0.00000000 0.00000000 0.00000000 0.00000000 
165906590 0.00000000 0.00000000 -65.18774388 103.27589361 0.00000000 0.00000000 0.00000000 0.00000000 
167824108 0.00000000 0.00000000 -65.09074375 161.22456798 0.00000000 0.00000000 0.00000000 0.00000000 
169741628 0.00000000 0.00000000 -64.40433558 123.58870697 0.00000000 0.00000000 0.00000000 0.00000000 
171659146 0.00000000 0.00000000 -63.16372660 122.79166141 0.00000000 0.00000000 0.00000000 0.00000000 
173576664 0.00000000 0.00000000 -63.76446458 111.60293254 0.00000000 0.00000000 0.00000000 0.00000000 
175494182 0.00000000 0.00000000 -62.11453182 93.42186485 0.00000000 0.00000000 0.00000000 0.00000000 
177411702 0.00000000 0.00000000 -60.93280731 85.48094245 0.00000000 0.00000000 0.00000000 0.00000000 
179329220 0.00000000 0.00000000 -61.34196930 77.22557076 0.00000000 0.00000000 0.00000000 0.00000000 
181246738 0.00000000 0.00000000 -64.31916151 68.92070964 0.00000000 0.00000000 0.00000000 0.00000000 
183164256 0.00000000 0.00000000 -62.98832374 96.56265327 0.00000000 0.00000000 0.00000000 0.00000000 
185081776 0.00000000 0.00000000 -67.53604492 33.55905285 0.00000000 0.00000000 0.00000000 0.00000000 
186999294 0.00000000 0.00000000 -63.39037425 28.62742393 0.00000000 0.00000000 0.00000000 0.00000000 
188916812 0.00000000 0.00000000 -64.27386550 59.13441035 0.00000000 0.00000000 0.00000000 0.00000000 
190834330 0.00000000 0.00000000 -66.54409413 55.24521338 0.00000000 0.00000000 0.00000000 0.00000000 
192751850 0.00000000 0.00000000 -65.10848219 75.73268663 0.00000000 0.00000000 0.00000000 0.00000000 
194669368 0.00000000 0.00000000 -65.64242969 67.94109685 0.00000000 0.00000000 0.00000000 0.00000000 
196586886 0.00000000 0.00000000 -68.52423870 91.00633110 0.00000000 0.00000000 0.00000000 0.00000000 
198504404 0.00000000 0.00000000 -70.35624823 115.80905237 0.00000000 0.00000000 0.00000000 0.00000000 
200421924 0.00000000 0.00000000 -69.46230343 113.53339972 0.00000000 0.00000000 0.00000000 0.00000000 
202339442 0.00000000 0.00000000 -71.77660010 152.58728010 0.00000000 0.00000000 0.00000000 0.00000000 
204256960 0.00000000 0.00000000 -73.56948084 -172.13916516 0.00000000 0.00000000 0.00000000 0.00000000 
206174478 0.00000000 0.00000000 -69.80104265 72.12037575 0.00000000 0.00000000 0.00000000 0.00000000 
208091998 0.00000000 0.00000000 -71.57145313 94.93704673 0.00000000 0.00000000 0.00000000 0.00000000 
210009516 0.00000000 0.00000000 -69.78278698 50.72245705 0.00000000 0.00000000 0.00000000 0.00000000 
211927034 0.00000000 0.00000000 -75.02670525 113.80007136 0.00000000 0.00000000 0.00000000 0.00000000 
213844552 0.00000000 0.00000000 -73.57263140 56.90237000 0.00000000 0.00000000 0.00000000 0.00000000 
215762072 0.00000000 0.00000000 -68.30924733 -21.07486060 0.00000000 0.00000000 0.00000000 0.00000000 
217679590 0.00000000 0.00000000 -79.47755737 80.67661104 0.00000000 0.00000000 0.00000000 0.00000000 
219597108 0.00000000 0.00000000 -71.02874367 97.95450234 0.00000000 0.00000000 0.00000000 0.00000000 
221514626 0.00000000 0.00000000 -79.56505419 30.57989751 0.00000000 0.00000000 0.00000000 0.00000000 
223432146 0.00000000 0.00000000 -75.12289443 127.22599234 0.00000000 0.00000000 0.00000000 0.00000000 
225349664 0.00000000 0.00000000 -66.43096457 139.35668630 0.00000000 0.00000000 0.00000000 0.00000000 
227267182 0.00000000 0.00000000 -65.48612358 116.63747562 0.00000000 0.00000000 0.00000000 0.00000000 
229184700 0.00000000 0.00000000 -66.09970423 120.81078845 0.00000000 0.00000000 0.00000000 0.00000000 
231102220 0.00000000 0.00000000 -62.84913409 96.03521878 0.00000000 0.00000000 0.00000000 0.00000000 
233019738 0.00000000 0.00000000 -65.88268143 99.65878377 0.00000000 0.00000000 0.00000000 0.00000000 
234937256 0.00000000 0.00000000 -63.01622889 84.75730545 0.00000000 0.00000000 0.00000000 0.00000000 
236854774 0.00000000 0.00000000 -60.61755484 107.60163590 0.00000000 0.00000000 0.00000000 0.00000000 
238772294 0.00000000 0.00000000 -63.59812190 95.08739090 0.00000000 0.00000000 0.00000000 0.00000000 
240689812 0.00000000 0.00000000 -63.11019636 99.14451049 0.00000000 0.00000000 0.00000000 0.00000000 
242607330 0.00000000 0.00000000 -64.48941645 76.97487729 0.00000000 0.00000000 0.00000000 0.00000000 
244524848 0.00000000 0.00000000 -64.21996707 85.71102993 0.00000000 0.00000000 0.00000000 0.00000000 
246442368 0.00000000 0.00000000 -62.13674533 82.33385758 0.00000000 0.00000000 0.00000000 0.00000000 
248359886 0.00000000 0.00000000 -61.86087106 67.29182261 0.00000000 0.00000000 0.00000000 0.00000000 
250277404 0.00000000 0.00000000 -67.03368109 80.82778428 0.00000000 0.00000000 0.00000000 0.00000000 
252194922 0.00000000 0.00000000 -61.38555860 93.91435047 0.00000000 0.00000000 0.00000000 0.00000000 
254112442 0.00000000 0.00000000 -61.54405939 114.18153679 0.00000000 0.00000000 0.00000000 0.00000000 
256029960 0.00000000 0.00000000 -62.17828804 112.85977509 0.00000000 0.00000000 0.00000000 0.00000000 
257947478 0.00000000 0.00000000 -65.21551417 90.60011530 0.00000000 0.00000000 0.00000000 0.00000000 
259864996 0.00000000 0.00000000 -63.09997580 65.47835405 0.00000000 0.00000000 0.00000000 0.00000000 
261782516 0.00000000 0.00000000 -60.61938268 70.05038777 0.00000000 0.00000000 0.00000000 0.00000000 
263700034 0.00000000 0.00000000 -62.31197715 71.06309672 0.00000000 0.00000000 0.00000000 0.00000000 
265617552 0.00000000 0.00000000 -60.35768208 92.83470660 0.00000000 0.00000000 0.00000000 0.00000000 
267535070 0.00000000 0.00000000 -59.46058475 84.98205678 0.00000000 0.00000000 0.00000000 0.00000000 
269452590 0.00000000 0.00000000 -59.68422154 93.61085109 0.00000000 0.00000000 0.00000000 0.00000000 
271370108 0.00000000 0.00000000 -62.88132584 82.54951075 0.00000000 0.00000000 0.00000000 0.00000000 
273287626 0.00000000 0.00000000 -60.63204833 90.82352467 0.00000000 0.00000000 0.00000000 0.00000000 
275205144 0.00000000 0.00000000 -58.79291015 101.78988051 0.00000000 0.00000000 0.00000000 0.00000000 
277122664 0.00000000 0.00000000 -63.39167020 102.33439549 0.00000000 0.00000000 0.00000000 0.00000000 
279040182 0.00000000 0.00000000 -61.31403218 83.39891028 0.00000000 0.00000000 0.00000000 0.00000000 
280957700 0.00000000 0.00000000 -60.09804099 127.45378412 0.00000000 0.00000000 0.00000000 0.00000000 
282875218 0.00000000 0.00000000 -66.86568281 102.20872467 0.00000000 0.00000000 0.00000000 0.00000000 
284792738 0.00000000 0.00000000 -66.69836860 106.99822791 0.00000000 0.00000000 0.00000000 0.00000000 
286710256 0.00000000 0.00000000 -80.00000000 -0.05980028 0.00000000 0.00000000 0.00000000 0.00000000 
288627774 0.00000000 0.00000000 -79.41556502 101.28682076 0.00000000 0.00000000 0.00000000 0.00000000 
290545292 0.00000000 0.00000000 -65.43133489 -25.95059427 0.00000000 0.00000000 0.00000000 0.00000000 
292462812 0.00000000 0.00000000 -65.71168675 15.48403021 0.00000000 0.00000000 0.00000000 0.00000000 
294380330 0.00000000 0.00000000 -77.96049535 -125.16343004 0.00000000 0.00000000 0.00000000 0.00000000 
296297848 0.00000000 0.00000000 -64.17654398 -34.65894137 0.00000000 0.00000000 0.00000000 0.00000000 
298215366 0.00000000 0.00000000 -80.00000000 81.09946649 0.00000000 0.00000000 0.00000000 0.00000000 
300132886 0.00000000 0.00000000 -80.00000000 39.68756391 0.00000000 0.00000000 0.00000000 0.00000000 
302050404 0.00000000 0.00000000 -76.75090245 2.64052754 0.00000000 0.00000000 0.00000000 0.00000000 
303967922 0.00000000 0.00000000 -75.82986142 -11.09532791 0.00000000 0.00000000 0.00000000 0.00000000 
305885440 0.00000000 0.00000000 -78.38514017 88.84116233 0.00000000 0.00000000 0.00000000 0.00000000 
307802960 0.00000000 0.00000000 -75.72487429 -17.71347169 0.00000000 0.00000000 0.00000000 0.00000000 
309720478 0.00000000 0.00000000 -68.61515619 57.19763033 0.00000000 0.00000000 0.00000000 0.00000000 
311637996 0.00000000 0.00000000 -67.12428589 65.99537674 0.00000000 0.00000000 0.00000000 0.00000000 
313555514 0.00000000 0.00000000 -63.70792647 63.65106982 0.00000000 0.00000000 0.00000000 0.00000000 
315473034 0.00000000 0.00000000 -64.12516421 84.30871254 0.00000000 0.00000000 0.00000000 0.00000000 
317390552 0.00000000 0.00000000 -66.74449014 59.10927408 0.00000000 0.00000000 0.00000000 0.00000000 
319308070 0.00000000 0.00000000 -65.02366099 81.11511590 0.00000000 0.00000000 0.00000000 0.00000000 
321225588 0.00000000 0.00000000 -60.58465692 61.81274814 0.00000000 0.00000000 0.00000000 0.00000000 
323143108 0.00000000 0.00000000 -64.48785791 84.45770585 0.00000000 0.00000000 0.00000000 0.00000000 
325060626 0.00000000 0.00000000 -61.77826843 93.75007215 0.00000000 0.00000000 0.00000000 0.00000000 
326978144 0.00000000 0.00000000 -62.36236903 76.44179702 0.00000000 0.00000000 0.00000000 0.00000000 
328895662 0.00000000 0.00000000 -61.29504766 60.66534738 0.00000000 0.00000000 0.00000000 0.00000000 
330813182 0.00000000 0.00000000 -60.52913954 78.09002932 0.00000000 0.00000000 0.00000000 0.00000000 
332730700 0.00000000 0.00000000 -62.98318599 90.48593108 0.00000000 0.00000000 0.00000000 0.00000000 
334648218 0.00000000 0.00000000 -63.26087139 101.10660338 0.00000000 0.00000000 0.00000000 0.00000000 
336565736 0.00000000 0.00000000 -60.98777126 86.54615704 0.00000000 0.00000000 0.00000000 0.00000000 
338483256 0.00000000 0.00000000 -61.63906661 113.93878163 0.00000000 0.00000000 0.00000000 0.00000000 
340400774 0.00000000 0.00000000 -61.70004744 121.99871845 0.00000000 0.00000000 0.00000000 0.00000000 
342318292 0.00000000 0.00000000 -61.33143294 131.72533942 0.00000000 0.00000000 0.00000000 0.00000000 
344235810 0.00000000 0.00000000 -64.99382070 96.24774415 0.00000000 0.00000000 0.00000000 0.00000000 
346153330 0.00000000 0.00000000 -63.24325442 116.15607159 0.00000000 0.00000000 0.00000000 0.00000000 
348070848 0.00000000 0.00000000 -63.01762457 84.05046917 0.00000000 0.00000000 0.00000000 0.00000000 
349988366 0.00000000 0.00000000 -63.06188293 101.13370360 0.00000000 0.00000000 0.00000000 0.00000000 
351905884 0.00000000 0.00000000 -63.97153011 96.53084478 0.00000000 0.00000000 0.00000000 0.00000000 
353823404 0.00000000 0.00000000 -65.10297386 118.43528291 0.00000000 0.00000000 0.00000000 0.00000000 
355740922 0.00000000 0.00000000 -62.63968651 93.33171029 0.00000000 0.00000000 0.00000000 0.00000000 
357658440 0.00000000 0.00000000 -58.75098195 100.97834060 0.00000000 0.00000000 0.00000000 0.00000000 
359575958 0.00000000 0.00000000 -58.70795877 127.90481103 0.00000000 0.00000000 0.00000000 0.00000000 
361493478 0.00000000 0.00000000 -56.44014414 132.89473264 0.00000000 0.00000000 0.00000000 0.00000000 
363410996 0.00000000 0.00000000 -57.92893697 116.24714391 0.00000000 0.00000000 0.00000000 0.00000000 
365328514 0.00000000 0.00000000 -58.93146413 107.78262015 0.00000000 0.00000000 0.00000000 0.00000000 
367246032 0.00000000 0.00000000 -57.28531392 119.07006467 0.00000000 0.00000000 0.00000000 0.00000000 
369163552 0.00000000 0.00000000 -57.32032744 103.11234371 0.00000000 0.00000000 0.00000000 0.00000000 
371081070 0.00000000 0.00000000 -59.07501329 86.76757515 0.00000000 0.00000000 0.00000000 0.00000000 
