! created by ADMIN at Mon Apr 20 19:11:55 IST 2026
! generated using vna/J Version 3.2.10
# Hz S DB R 50
001000000 0.00000000 0.00000000 -70.39331528 78.33835993 0.00000000 0.00000000 0.00000000 0.00000000 
002917518 0.00000000 0.00000000 -75.67370142 125.48995672 0.00000000 0.00000000 0.00000000 0.00000000 
004835036 0.00000000 0.00000000 -79.11854972 122.30976686 0.00000000 0.00000000 0.00000000 0.00000000 
006752554 0.00000000 0.00000000 -72.40961193 -1.41022674 0.00000000 0.00000000 0.00000000 0.00000000 
008670074 0.00000000 0.00000000 -80.00000000 124.12091316 0.00000000 0.00000000 0.00000000 0.00000000 
010587592 0.00000000 0.00000000 -73.85752532 31.93083512 0.00000000 0.00000000 0.00000000 0.00000000 
012505110 0.00000000 0.00000000 -71.45076637 7.68684847 0.00000000 0.00000000 0.00000000 0.00000000 
014422628 0.00000000 0.00000000 -69.16578661 -6.30235897 0.00000000 0.00000000 0.00000000 0.00000000 
016340148 0.00000000 0.00000000 -65.68420767 -11.60687023 0.00000000 0.00000000 0.00000000 0.00000000 
018257666 0.00000000 0.00000000 -64.72522907 15.93501545 0.00000000 0.00000000 0.00000000 0.00000000 
020175184 0.00000000 0.00000000 -64.56251702 36.63731287 0.00000000 0.00000000 0.00000000 0.00000000 
022092702 0.00000000 0.00000000 -64.20709308 51.06480902 0.00000000 0.00000000 0.00000000 0.00000000 
024010222 0.00000000 0.00000000 -67.10703162 99.20020901 0.00000000 0.00000000 0.00000000 0.00000000 
025927740 0.00000000 0.00000000 -64.47870969 46.27261887 0.00000000 0.00000000 0.00000000 0.00000000 
027845258 0.00000000 0.00000000 -64.77479182 65.58337536 0.00000000 0.00000000 0.00000000 0.00000000 
029762776 0.00000000 0.00000000 -64.11872254 65.01912244 0.00000000 0.00000000 0.00000000 0.00000000 
031680296 0.00000000 0.00000000 -59.33152478 52.88810337 0.00000000 0.00000000 0.00000000 0.00000000 
033597814 0.00000000 0.00000000 -63.51271361 45.05613636 0.00000000 0.00000000 0.00000000 0.00000000 
035515332 0.00000000 0.00000000 -62.99217570 38.70875475 0.00000000 0.00000000 0.00000000 0.00000000 
037432850 0.00000000 0.00000000 -65.94916219 20.15384747 0.00000000 0.00000000 0.00000000 0.00000000 
039350370 0.00000000 0.00000000 -61.62359458 15.20066754 0.00000000 0.00000000 0.00000000 0.00000000 
041267888 0.00000000 0.00000000 -61.12042049 -5.97815320 0.00000000 0.00000000 0.00000000 0.00000000 
043185406 0.00000000 0.00000000 -59.56940327 -20.37877975 0.00000000 0.00000000 0.00000000 0.00000000 
045102924 0.00000000 0.00000000 -57.32295829 -11.15006634 0.00000000 0.00000000 0.00000000 0.00000000 
047020444 0.00000000 0.00000000 -54.70587410 -17.84924796 0.00000000 0.00000000 0.00000000 0.00000000 
048937962 0.00000000 0.00000000 -56.78615813 -12.21572644 0.00000000 0.00000000 0.00000000 0.00000000 
050855480 0.00000000 0.00000000 -57.32556950 -5.97823305 0.00000000 0.00000000 0.00000000 0.00000000 
052772998 0.00000000 0.00000000 -57.74044147 -4.25606969 0.00000000 0.00000000 0.00000000 0.00000000 
054690518 0.00000000 0.00000000 -58.48496838 4.92109452 0.00000000 0.00000000 0.00000000 0.00000000 
056608036 0.00000000 0.00000000 -60.47511115 20.92960674 0.00000000 0.00000000 0.00000000 0.00000000 
058525554 0.00000000 0.00000000 -62.61061273 4.34028746 0.00000000 0.00000000 0.00000000 0.00000000 
060443072 0.00000000 0.00000000 -61.02622467 -5.86269805 0.00000000 0.00000000 0.00000000 0.00000000 
062360592 0.00000000 0.00000000 -62.74125328 -17.32965459 0.00000000 0.00000000 0.00000000 0.00000000 
064278110 0.00000000 0.00000000 -66.47334770 -9.00089518 0.00000000 0.00000000 0.00000000 0.00000000 
066195628 0.00000000 0.00000000 -66.45004307 -72.85211060 0.00000000 0.00000000 0.00000000 0.00000000 
068113146 0.00000000 0.00000000 -67.24410558 -70.42315463 0.00000000 0.00000000 0.00000000 0.00000000 
070030666 0.00000000 0.00000000 -68.51294119 -78.46105736 0.00000000 0.00000000 0.00000000 0.00000000 
071948184 0.00000000 0.00000000 -63.84269712 -53.34261487 0.00000000 0.00000000 0.00000000 0.00000000 
073865702 0.00000000 0.00000000 -64.22870930 -26.64589202 0.00000000 0.00000000 0.00000000 0.00000000 
075783220 0.00000000 0.00000000 -62.56100783 4.56273864 0.00000000 0.00000000 0.00000000 0.00000000 
077700740 0.00000000 0.00000000 -59.84199523 26.40936576 0.00000000 0.00000000 0.00000000 0.00000000 
079618258 0.00000000 0.00000000 -61.11637706 12.85471847 0.00000000 0.00000000 0.00000000 0.00000000 
081535776 0.00000000 0.00000000 -60.51072747 22.62764192 0.00000000 0.00000000 0.00000000 0.00000000 
083453294 0.00000000 0.00000000 -60.76609044 6.75052419 0.00000000 0.00000000 0.00000000 0.00000000 
085370814 0.00000000 0.00000000 -62.59930827 3.19402234 0.00000000 0.00000000 0.00000000 0.00000000 
087288332 0.00000000 0.00000000 -62.33390213 -21.34055776 0.00000000 0.00000000 0.00000000 0.00000000 
089205850 0.00000000 0.00000000 -61.92868868 0.78178610 0.00000000 0.00000000 0.00000000 0.00000000 
091123368 0.00000000 0.00000000 -61.14015163 -8.84620580 0.00000000 0.00000000 0.00000000 0.00000000 
093040888 0.00000000 0.00000000 -61.73225370 -17.09445307 0.00000000 0.00000000 0.00000000 0.00000000 
094958406 0.00000000 0.00000000 -62.96550965 -15.96493540 0.00000000 0.00000000 0.00000000 0.00000000 
096875924 0.00000000 0.00000000 -63.33214380 -12.83422771 0.00000000 0.00000000 0.00000000 0.00000000 
098793442 0.00000000 0.00000000 -63.79153063 -16.91068338 0.00000000 0.00000000 0.00000000 0.00000000 
100710962 0.00000000 0.00000000 -64.45725305 -28.48994166 0.00000000 0.00000000 0.00000000 0.00000000 
102628480 0.00000000 0.00000000 -65.51975868 13.61634269 0.00000000 0.00000000 0.00000000 0.00000000 
104545998 0.00000000 0.00000000 -72.45230999 54.19755492 0.00000000 0.00000000 0.00000000 0.00000000 
106463516 0.00000000 0.00000000 -69.85648504 106.57567678 0.00000000 0.00000000 0.00000000 0.00000000 
108381036 0.00000000 0.00000000 -65.01267552 75.11817493 0.00000000 0.00000000 0.00000000 0.00000000 
110298554 0.00000000 0.00000000 -70.12629816 74.74351271 0.00000000 0.00000000 0.00000000 0.00000000 
112216072 0.00000000 0.00000000 -62.96338559 62.62403872 0.00000000 0.00000000 0.00000000 0.00000000 
114133590 0.00000000 0.00000000 -63.25027195 54.26044866 0.00000000 0.00000000 0.00000000 0.00000000 
116051110 0.00000000 0.00000000 -57.59556870 40.08275168 0.00000000 0.00000000 0.00000000 0.00000000 
117968628 0.00000000 0.00000000 -58.75961119 48.15417765 0.00000000 0.00000000 0.00000000 0.00000000 
119886146 0.00000000 0.00000000 -59.79452823 47.12313694 0.00000000 0.00000000 0.00000000 0.00000000 
121803664 0.00000000 0.00000000 -61.09216749 48.10837951 0.00000000 0.00000000 0.00000000 0.00000000 
123721184 0.00000000 0.00000000 -60.33628614 73.23453200 0.00000000 0.00000000 0.00000000 0.00000000 
125638702 0.00000000 0.00000000 -62.11751505 50.30796283 0.00000000 0.00000000 0.00000000 0.00000000 
127556220 0.00000000 0.00000000 -58.95835865 39.94621056 0.00000000 0.00000000 0.00000000 0.00000000 
129473738 0.00000000 0.00000000 -58.29178545 43.80276623 0.00000000 0.00000000 0.00000000 0.00000000 
131391258 0.00000000 0.00000000 -56.96942137 49.78961216 0.00000000 0.00000000 0.00000000 0.00000000 
133308776 0.00000000 0.00000000 -58.12938240 56.42460952 0.00000000 0.00000000 0.00000000 0.00000000 
135226294 0.00000000 0.00000000 -54.31434062 54.30737297 0.00000000 0.00000000 0.00000000 0.00000000 
137143812 0.00000000 0.00000000 -53.46813726 46.68251906 0.00000000 0.00000000 0.00000000 0.00000000 
139061332 0.00000000 0.00000000 -52.82609249 51.42825648 0.00000000 0.00000000 0.00000000 0.00000000 
140978850 0.00000000 0.00000000 -52.36434222 50.65852202 0.00000000 0.00000000 0.00000000 0.00000000 
142896368 0.00000000 0.00000000 -51.43285665 50.53008941 0.00000000 0.00000000 0.00000000 0.00000000 
144813886 0.00000000 0.00000000 -52.29045192 47.50537951 0.00000000 0.00000000 0.00000000 0.00000000 
146731406 0.00000000 0.00000000 -51.83032882 50.54397483 0.00000000 0.00000000 0.00000000 0.00000000 
148648924 0.00000000 0.00000000 -50.07024125 48.86234307 0.00000000 0.00000000 0.00000000 0.00000000 
150566442 0.00000000 0.00000000 -49.07255743 47.88598164 0.00000000 0.00000000 0.00000000 0.00000000 
152483960 0.00000000 0.00000000 -47.68959892 47.30002539 0.00000000 0.00000000 0.00000000 0.00000000 
154401480 0.00000000 0.00000000 -47.04457266 52.80115027 0.00000000 0.00000000 0.00000000 0.00000000 
156318998 0.00000000 0.00000000 -45.83612949 44.84002032 0.00000000 0.00000000 0.00000000 0.00000000 
158236516 0.00000000 0.00000000 -43.98914126 39.32157301 0.00000000 0.00000000 0.00000000 0.00000000 
160154034 0.00000000 0.00000000 -42.24158583 41.51488068 0.00000000 0.00000000 0.00000000 0.00000000 
162071554 0.00000000 0.00000000 -40.86500500 44.73562434 0.00000000 0.00000000 0.00000000 0.00000000 
163989072 0.00000000 0.00000000 -39.64060899 19.72195966 0.00000000 0.00000000 0.00000000 0.00000000 
165906590 0.00000000 0.00000000 -36.61464948 9.34257208 0.00000000 0.00000000 0.00000000 0.00000000 
167824108 0.00000000 0.00000000 -34.39455457 6.20000714 0.00000000 0.00000000 0.00000000 0.00000000 
169741628 0.00000000 0.00000000 -32.24594514 9.06609284 0.00000000 0.00000000 0.00000000 0.00000000 
171659146 0.00000000 0.00000000 -36.32736718 -1.25433486 0.00000000 0.00000000 0.00000000 0.00000000 
173576664 0.00000000 0.00000000 -39.21916045 -38.73704991 0.00000000 0.00000000 0.00000000 0.00000000 
175494182 0.00000000 0.00000000 -36.13999402 -74.31037973 0.00000000 0.00000000 0.00000000 0.00000000 
177411702 0.00000000 0.00000000 -32.15659635 -84.22519793 0.00000000 0.00000000 0.00000000 0.00000000 
179329220 0.00000000 0.00000000 -34.26929273 -84.46592530 0.00000000 0.00000000 0.00000000 0.00000000 
181246738 0.00000000 0.00000000 -36.48187337 -91.04416234 0.00000000 0.00000000 0.00000000 0.00000000 
183164256 0.00000000 0.00000000 -38.37728340 -109.12127524 0.00000000 0.00000000 0.00000000 0.00000000 
185081776 0.00000000 0.00000000 -38.05657671 -129.05642099 0.00000000 0.00000000 0.00000000 0.00000000 
186999294 0.00000000 0.00000000 -39.49120220 -126.77402366 0.00000000 0.00000000 0.00000000 0.00000000 
188916812 0.00000000 0.00000000 -40.81507377 -129.88306983 0.00000000 0.00000000 0.00000000 0.00000000 
190834330 0.00000000 0.00000000 -41.88345354 -134.14071274 0.00000000 0.00000000 0.00000000 0.00000000 
192751850 0.00000000 0.00000000 -42.65611249 -143.92880846 0.00000000 0.00000000 0.00000000 0.00000000 
194669368 0.00000000 0.00000000 -43.93764652 -139.71452793 0.00000000 0.00000000 0.00000000 0.00000000 
196586886 0.00000000 0.00000000 -45.00882606 -138.43888415 0.00000000 0.00000000 0.00000000 0.00000000 
198504404 0.00000000 0.00000000 -46.20396434 -139.34770869 0.00000000 0.00000000 0.00000000 0.00000000 
200421924 0.00000000 0.00000000 -47.65958041 -144.01880421 0.00000000 0.00000000 0.00000000 0.00000000 
202339442 0.00000000 0.00000000 -47.82677941 -141.98308064 0.00000000 0.00000000 0.00000000 0.00000000 
204256960 0.00000000 0.00000000 -48.10762600 -140.17467943 0.00000000 0.00000000 0.00000000 0.00000000 
206174478 0.00000000 0.00000000 -49.51973329 -141.61321744 0.00000000 0.00000000 0.00000000 0.00000000 
208091998 0.00000000 0.00000000 -49.34047853 -143.49851823 0.00000000 0.00000000 0.00000000 0.00000000 
210009516 0.00000000 0.00000000 -50.53685005 -147.70205764 0.00000000 0.00000000 0.00000000 0.00000000 
211927034 0.00000000 0.00000000 -49.83820273 -156.77367388 0.00000000 0.00000000 0.00000000 0.00000000 
213844552 0.00000000 0.00000000 -49.79818342 -162.57896366 0.00000000 0.00000000 0.00000000 0.00000000 
215762072 0.00000000 0.00000000 -49.16493753 -160.99467520 0.00000000 0.00000000 0.00000000 0.00000000 
217679590 0.00000000 0.00000000 -50.13966276 -161.92670562 0.00000000 0.00000000 0.00000000 0.00000000 
219597108 0.00000000 0.00000000 -52.00523664 -163.16528491 0.00000000 0.00000000 0.00000000 0.00000000 
221514626 0.00000000 0.00000000 -54.30888852 -156.67505441 0.00000000 0.00000000 0.00000000 0.00000000 
223432146 0.00000000 0.00000000 -55.92621618 -166.88048028 0.00000000 0.00000000 0.00000000 0.00000000 
225349664 0.00000000 0.00000000 -55.60737908 -174.17177023 0.00000000 0.00000000 0.00000000 0.00000000 
227267182 0.00000000 0.00000000 -57.08722318 178.60835409 0.00000000 0.00000000 0.00000000 0.00000000 
229184700 0.00000000 0.00000000 -57.48789385 178.03062536 0.00000000 0.00000000 0.00000000 0.00000000 
231102220 0.00000000 0.00000000 -58.58739991 160.06823911 0.00000000 0.00000000 0.00000000 0.00000000 
233019738 0.00000000 0.00000000 -59.07121124 -174.40997181 0.00000000 0.00000000 0.00000000 0.00000000 
234937256 0.00000000 0.00000000 -60.97158517 -166.60375741 0.00000000 0.00000000 0.00000000 0.00000000 
236854774 0.00000000 0.00000000 -59.13500359 -164.59344137 0.00000000 0.00000000 0.00000000 0.00000000 
238772294 0.00000000 0.00000000 -59.80944673 -129.07613329 0.00000000 0.00000000 0.00000000 0.00000000 
240689812 0.00000000 0.00000000 -61.13029881 -128.32107178 0.00000000 0.00000000 0.00000000 0.00000000 
242607330 0.00000000 0.00000000 -62.51158195 -104.34122870 0.00000000 0.00000000 0.00000000 0.00000000 
244524848 0.00000000 0.00000000 -64.01568879 -107.31677597 0.00000000 0.00000000 0.00000000 0.00000000 
246442368 0.00000000 0.00000000 -68.80863595 -101.01300538 0.00000000 0.00000000 0.00000000 0.00000000 
248359886 0.00000000 0.00000000 -65.07934716 -60.20422378 0.00000000 0.00000000 0.00000000 0.00000000 
250277404 0.00000000 0.00000000 -61.23533199 -77.75552567 0.00000000 0.00000000 0.00000000 0.00000000 
252194922 0.00000000 0.00000000 -65.38773977 -62.58516809 0.00000000 0.00000000 0.00000000 0.00000000 
254112442 0.00000000 0.00000000 -64.57438669 -75.38440475 0.00000000 0.00000000 0.00000000 0.00000000 
256029960 0.00000000 0.00000000 -67.41215727 -85.64364641 0.00000000 0.00000000 0.00000000 0.00000000 
257947478 0.00000000 0.00000000 -66.07139876 -74.94339809 0.00000000 0.00000000 0.00000000 0.00000000 
259864996 0.00000000 0.00000000 -67.63348727 -58.61913052 0.00000000 0.00000000 0.00000000 0.00000000 
261782516 0.00000000 0.00000000 -76.54229970 -75.82211862 0.00000000 0.00000000 0.00000000 0.00000000 
263700034 0.00000000 0.00000000 -65.76309468 -71.02574854 0.00000000 0.00000000 0.00000000 0.00000000 
265617552 0.00000000 0.00000000 -67.62254745 -71.34291899 0.00000000 0.00000000 0.00000000 0.00000000 
267535070 0.00000000 0.00000000 -63.13842557 -35.25909516 0.00000000 0.00000000 0.00000000 0.00000000 
269452590 0.00000000 0.00000000 -61.23952915 -32.48452290 0.00000000 0.00000000 0.00000000 0.00000000 
271370108 0.00000000 0.00000000 -55.38508137 -53.80865682 0.00000000 0.00000000 0.00000000 0.00000000 
273287626 0.00000000 0.00000000 -53.56629264 -54.44808566 0.00000000 0.00000000 0.00000000 0.00000000 
275205144 0.00000000 0.00000000 -52.05497475 -53.13076080 0.00000000 0.00000000 0.00000000 0.00000000 
277122664 0.00000000 0.00000000 -48.80901670 -51.96648389 0.00000000 0.00000000 0.00000000 0.00000000 
279040182 0.00000000 0.00000000 -49.55312435 -50.51771705 0.00000000 0.00000000 0.00000000 0.00000000 
280957700 0.00000000 0.00000000 -50.76040197 -67.87548445 0.00000000 0.00000000 0.00000000 0.00000000 
282875218 0.00000000 0.00000000 -49.01472199 -67.79334017 0.00000000 0.00000000 0.00000000 0.00000000 
284792738 0.00000000 0.00000000 -48.32116775 -72.14815025 0.00000000 0.00000000 0.00000000 0.00000000 
286710256 0.00000000 0.00000000 -48.19551737 -72.26162960 0.00000000 0.00000000 0.00000000 0.00000000 
288627774 0.00000000 0.00000000 -49.23685858 -76.01741339 0.00000000 0.00000000 0.00000000 0.00000000 
290545292 0.00000000 0.00000000 -48.49182957 -74.18099015 0.00000000 0.00000000 0.00000000 0.00000000 
292462812 0.00000000 0.00000000 -49.35821715 -77.07266623 0.00000000 0.00000000 0.00000000 0.00000000 
294380330 0.00000000 0.00000000 -49.44389565 -88.88166240 0.00000000 0.00000000 0.00000000 0.00000000 
296297848 0.00000000 0.00000000 -48.84605824 -82.25451244 0.00000000 0.00000000 0.00000000 0.00000000 
298215366 0.00000000 0.00000000 -49.82461931 -92.85171235 0.00000000 0.00000000 0.00000000 0.00000000 
300132886 0.00000000 0.00000000 -49.49246223 -93.89542533 0.00000000 0.00000000 0.00000000 0.00000000 
302050404 0.00000000 0.00000000 -49.84945800 -98.55046745 0.00000000 0.00000000 0.00000000 0.00000000 
303967922 0.00000000 0.00000000 -49.73395258 -104.85858382 0.00000000 0.00000000 0.00000000 0.00000000 
305885440 0.00000000 0.00000000 -49.41986372 -113.97641415 0.00000000 0.00000000 0.00000000 0.00000000 
307802960 0.00000000 0.00000000 -48.25913571 -114.33181254 0.00000000 0.00000000 0.00000000 0.00000000 
309720478 0.00000000 0.00000000 -48.79309841 -117.32335544 0.00000000 0.00000000 0.00000000 0.00000000 
311637996 0.00000000 0.00000000 -48.46274938 -118.82576763 0.00000000 0.00000000 0.00000000 0.00000000 
313555514 0.00000000 0.00000000 -48.28304236 -117.98752270 0.00000000 0.00000000 0.00000000 0.00000000 
315473034 0.00000000 0.00000000 -47.37761847 -119.13733869 0.00000000 0.00000000 0.00000000 0.00000000 
317390552 0.00000000 0.00000000 -47.46377303 -115.29517196 0.00000000 0.00000000 0.00000000 0.00000000 
319308070 0.00000000 0.00000000 -47.81172461 -117.87860282 0.00000000 0.00000000 0.00000000 0.00000000 
321225588 0.00000000 0.00000000 -48.67205011 -114.48622509 0.00000000 0.00000000 0.00000000 0.00000000 
323143108 0.00000000 0.00000000 -47.64577872 -117.65646967 0.00000000 0.00000000 0.00000000 0.00000000 
325060626 0.00000000 0.00000000 -48.25186375 -127.60352086 0.00000000 0.00000000 0.00000000 0.00000000 
326978144 0.00000000 0.00000000 -48.09329928 -131.05901180 0.00000000 0.00000000 0.00000000 0.00000000 
328895662 0.00000000 0.00000000 -47.59001975 -133.41776546 0.00000000 0.00000000 0.00000000 0.00000000 
330813182 0.00000000 0.00000000 -46.35085172 -138.90702142 0.00000000 0.00000000 0.00000000 0.00000000 
332730700 0.00000000 0.00000000 -46.90408413 -139.83845375 0.00000000 0.00000000 0.00000000 0.00000000 
334648218 0.00000000 0.00000000 -47.47414690 -143.80314259 0.00000000 0.00000000 0.00000000 0.00000000 
336565736 0.00000000 0.00000000 -48.48072663 -149.79768531 0.00000000 0.00000000 0.00000000 0.00000000 
338483256 0.00000000 0.00000000 -47.45390258 -156.06491155 0.00000000 0.00000000 0.00000000 0.00000000 
340400774 0.00000000 0.00000000 -47.66618687 -158.02951591 0.00000000 0.00000000 0.00000000 0.00000000 
342318292 0.00000000 0.00000000 -47.50146709 -160.72050980 0.00000000 0.00000000 0.00000000 0.00000000 
344235810 0.00000000 0.00000000 -48.28917555 -159.54928103 0.00000000 0.00000000 0.00000000 0.00000000 
346153330 0.00000000 0.00000000 -47.39108396 -163.49678674 0.00000000 0.00000000 0.00000000 0.00000000 
348070848 0.00000000 0.00000000 -49.27334049 -166.88036439 0.00000000 0.00000000 0.00000000 0.00000000 
349988366 0.00000000 0.00000000 -49.39325785 -173.83745772 0.00000000 0.00000000 0.00000000 0.00000000 
351905884 0.00000000 0.00000000 -49.62302806 -360.16458154 0.00000000 0.00000000 0.00000000 0.00000000 
353823404 0.00000000 0.00000000 -48.66136121 175.56738301 0.00000000 0.00000000 0.00000000 0.00000000 
355740922 0.00000000 0.00000000 -51.19493678 173.73960628 0.00000000 0.00000000 0.00000000 0.00000000 
357658440 0.00000000 0.00000000 -52.75432862 163.18887529 0.00000000 0.00000000 0.00000000 0.00000000 
359575958 0.00000000 0.00000000 -53.36516068 163.57827392 0.00000000 0.00000000 0.00000000 0.00000000 
361493478 0.00000000 0.00000000 -53.49432100 148.32977996 0.00000000 0.00000000 0.00000000 0.00000000 
363410996 0.00000000 0.00000000 -56.75178804 138.19968164 0.00000000 0.00000000 0.00000000 0.00000000 
365328514 0.00000000 0.00000000 -59.93273559 126.20812052 0.00000000 0.00000000 0.00000000 0.00000000 
367246032 0.00000000 0.00000000 -58.98346652 123.92660153 0.00000000 0.00000000 0.00000000 0.00000000 
369163552 0.00000000 0.00000000 -59.06908857 89.73164166 0.00000000 0.00000000 0.00000000 0.00000000 
