! created by ADMIN at Tue Apr 21 15:44:59 IST 2026
! generated using vna/J Version 3.2.10
# Hz S DB R 50
001000000 0.00000000 0.00000000 -66.88592295 63.16836111 0.00000000 0.00000000 0.00000000 0.00000000 
002917518 0.00000000 0.00000000 -76.62085994 78.55578443 0.00000000 0.00000000 0.00000000 0.00000000 
004835036 0.00000000 0.00000000 -79.12352724 9.00808741 0.00000000 0.00000000 0.00000000 0.00000000 
006752554 0.00000000 0.00000000 -65.87071818 -15.94726163 0.00000000 0.00000000 0.00000000 0.00000000 
008670074 0.00000000 0.00000000 -68.55117112 -26.13777876 0.00000000 0.00000000 0.00000000 0.00000000 
010587592 0.00000000 0.00000000 -67.81650899 28.88417689 0.00000000 0.00000000 0.00000000 0.00000000 
012505110 0.00000000 0.00000000 -67.91972334 57.74889880 0.00000000 0.00000000 0.00000000 0.00000000 
014422628 0.00000000 0.00000000 -67.78272568 88.89689090 0.00000000 0.00000000 0.00000000 0.00000000 
016340148 0.00000000 0.00000000 -67.29476873 110.47607981 0.00000000 0.00000000 0.00000000 0.00000000 
018257666 0.00000000 0.00000000 -68.81557147 80.00532653 0.00000000 0.00000000 0.00000000 0.00000000 
020175184 0.00000000 0.00000000 -68.54365471 54.04222084 0.00000000 0.00000000 0.00000000 0.00000000 
022092702 0.00000000 0.00000000 -65.90959143 31.38473546 0.00000000 0.00000000 0.00000000 0.00000000 
024010222 0.00000000 0.00000000 -69.13901345 22.54181015 0.00000000 0.00000000 0.00000000 0.00000000 
025927740 0.00000000 0.00000000 -63.30537829 4.76546405 0.00000000 0.00000000 0.00000000 0.00000000 
027845258 0.00000000 0.00000000 -67.50531482 0.87931091 0.00000000 0.00000000 0.00000000 0.00000000 
029762776 0.00000000 0.00000000 -67.37384519 -16.89330224 0.00000000 0.00000000 0.00000000 0.00000000 
031680296 0.00000000 0.00000000 -61.80650243 -0.00975974 0.00000000 0.00000000 0.00000000 0.00000000 
033597814 0.00000000 0.00000000 -63.13040115 -24.40157586 0.00000000 0.00000000 0.00000000 0.00000000 
035515332 0.00000000 0.00000000 -62.88858374 -18.97316420 0.00000000 0.00000000 0.00000000 0.00000000 
037432850 0.00000000 0.00000000 -62.90807631 -39.59402106 0.00000000 0.00000000 0.00000000 0.00000000 
039350370 0.00000000 0.00000000 -60.96963273 -25.48614593 0.00000000 0.00000000 0.00000000 0.00000000 
041267888 0.00000000 0.00000000 -61.80111451 -29.48986256 0.00000000 0.00000000 0.00000000 0.00000000 
043185406 0.00000000 0.00000000 -62.85162873 -38.94446589 0.00000000 0.00000000 0.00000000 0.00000000 
045102924 0.00000000 0.00000000 -64.28635411 -19.85869203 0.00000000 0.00000000 0.00000000 0.00000000 
047020444 0.00000000 0.00000000 -62.16230971 -36.35902167 0.00000000 0.00000000 0.00000000 0.00000000 
048937962 0.00000000 0.00000000 -66.36382237 -43.62420909 0.00000000 0.00000000 0.00000000 0.00000000 
050855480 0.00000000 0.00000000 -67.10677472 -36.58982088 0.00000000 0.00000000 0.00000000 0.00000000 
052772998 0.00000000 0.00000000 -66.48139273 -38.48329173 0.00000000 0.00000000 0.00000000 0.00000000 
054690518 0.00000000 0.00000000 -68.63518481 -25.37292970 0.00000000 0.00000000 0.00000000 0.00000000 
056608036 0.00000000 0.00000000 -77.03557727 35.77459235 0.00000000 0.00000000 0.00000000 0.00000000 
058525554 0.00000000 0.00000000 -75.05227501 -74.31700060 0.00000000 0.00000000 0.00000000 0.00000000 
060443072 0.00000000 0.00000000 -68.89369465 -47.39570696 0.00000000 0.00000000 0.00000000 0.00000000 
062360592 0.00000000 0.00000000 -68.97416176 -77.50832475 0.00000000 0.00000000 0.00000000 0.00000000 
064278110 0.00000000 0.00000000 -73.66663432 -122.98216034 0.00000000 0.00000000 0.00000000 0.00000000 
066195628 0.00000000 0.00000000 -63.58987310 -127.96472180 0.00000000 0.00000000 0.00000000 0.00000000 
068113146 0.00000000 0.00000000 -64.52435979 -133.69560823 0.00000000 0.00000000 0.00000000 0.00000000 
070030666 0.00000000 0.00000000 -64.11229939 -145.78827117 0.00000000 0.00000000 0.00000000 0.00000000 
071948184 0.00000000 0.00000000 -64.41687928 -129.50891422 0.00000000 0.00000000 0.00000000 0.00000000 
073865702 0.00000000 0.00000000 -66.11443524 -149.20495610 0.00000000 0.00000000 0.00000000 0.00000000 
075783220 0.00000000 0.00000000 -66.99405788 0.97836749 0.00000000 0.00000000 0.00000000 0.00000000 
077700740 0.00000000 0.00000000 -65.39061274 154.17832329 0.00000000 0.00000000 0.00000000 0.00000000 
079618258 0.00000000 0.00000000 -67.65742520 0.06775164 0.00000000 0.00000000 0.00000000 0.00000000 
081535776 0.00000000 0.00000000 -67.98707574 146.91217185 0.00000000 0.00000000 0.00000000 0.00000000 
083453294 0.00000000 0.00000000 -71.77967652 173.89692390 0.00000000 0.00000000 0.00000000 0.00000000 
085370814 0.00000000 0.00000000 -67.13741326 177.35021909 0.00000000 0.00000000 0.00000000 0.00000000 
087288332 0.00000000 0.00000000 -64.81700847 -148.18769281 0.00000000 0.00000000 0.00000000 0.00000000 
089205850 0.00000000 0.00000000 -66.53967870 -177.12293408 0.00000000 0.00000000 0.00000000 0.00000000 
091123368 0.00000000 0.00000000 -65.69419436 -157.56604814 0.00000000 0.00000000 0.00000000 0.00000000 
093040888 0.00000000 0.00000000 -62.47243244 -151.19213750 0.00000000 0.00000000 0.00000000 0.00000000 
094958406 0.00000000 0.00000000 -57.86097222 -168.71503897 0.00000000 0.00000000 0.00000000 0.00000000 
096875924 0.00000000 0.00000000 -54.72108204 -171.33373288 0.00000000 0.00000000 0.00000000 0.00000000 
098793442 0.00000000 0.00000000 -52.12045936 -167.47219285 0.00000000 0.00000000 0.00000000 0.00000000 
100710962 0.00000000 0.00000000 -49.85509380 -161.53625845 0.00000000 0.00000000 0.00000000 0.00000000 
102628480 0.00000000 0.00000000 -54.38025575 132.58781328 0.00000000 0.00000000 0.00000000 0.00000000 
104545998 0.00000000 0.00000000 -47.99412158 97.62480043 0.00000000 0.00000000 0.00000000 0.00000000 
106463516 0.00000000 0.00000000 -43.24958346 93.09839601 0.00000000 0.00000000 0.00000000 0.00000000 
108381036 0.00000000 0.00000000 -39.91560714 93.25201681 0.00000000 0.00000000 0.00000000 0.00000000 
110298554 0.00000000 0.00000000 -42.00004600 95.07184176 0.00000000 0.00000000 0.00000000 0.00000000 
112216072 0.00000000 0.00000000 -43.72550027 90.23809219 0.00000000 0.00000000 0.00000000 0.00000000 
114133590 0.00000000 0.00000000 -45.85760005 79.23186817 0.00000000 0.00000000 0.00000000 0.00000000 
116051110 0.00000000 0.00000000 -45.79007597 56.68034874 0.00000000 0.00000000 0.00000000 0.00000000 
117968628 0.00000000 0.00000000 -46.92477688 59.26874697 0.00000000 0.00000000 0.00000000 0.00000000 
119886146 0.00000000 0.00000000 -48.05277051 57.79607158 0.00000000 0.00000000 0.00000000 0.00000000 
121803664 0.00000000 0.00000000 -49.05538010 54.90147179 0.00000000 0.00000000 0.00000000 0.00000000 
123721184 0.00000000 0.00000000 -49.37082195 56.85929432 0.00000000 0.00000000 0.00000000 0.00000000 
125638702 0.00000000 0.00000000 -50.02214871 52.82875202 0.00000000 0.00000000 0.00000000 0.00000000 
127556220 0.00000000 0.00000000 -49.45619128 51.00963073 0.00000000 0.00000000 0.00000000 0.00000000 
129473738 0.00000000 0.00000000 -49.42299846 53.25302758 0.00000000 0.00000000 0.00000000 0.00000000 
131391258 0.00000000 0.00000000 -49.01607436 56.02502719 0.00000000 0.00000000 0.00000000 0.00000000 
133308776 0.00000000 0.00000000 -49.23293977 59.45741346 0.00000000 0.00000000 0.00000000 0.00000000 
135226294 0.00000000 0.00000000 -47.42590781 59.31713753 0.00000000 0.00000000 0.00000000 0.00000000 
137143812 0.00000000 0.00000000 -46.80797825 57.01878285 0.00000000 0.00000000 0.00000000 0.00000000 
139061332 0.00000000 0.00000000 -46.16669035 60.73100656 0.00000000 0.00000000 0.00000000 0.00000000 
140978850 0.00000000 0.00000000 -45.44598396 57.65573639 0.00000000 0.00000000 0.00000000 0.00000000 
142896368 0.00000000 0.00000000 -44.37761385 56.15599835 0.00000000 0.00000000 0.00000000 0.00000000 
144813886 0.00000000 0.00000000 -44.01132606 55.20612291 0.00000000 0.00000000 0.00000000 0.00000000 
146731406 0.00000000 0.00000000 -43.05838538 57.55267977 0.00000000 0.00000000 0.00000000 0.00000000 
148648924 0.00000000 0.00000000 -42.00372204 48.61552732 0.00000000 0.00000000 0.00000000 0.00000000 
150566442 0.00000000 0.00000000 -40.75894834 42.70198621 0.00000000 0.00000000 0.00000000 0.00000000 
152483960 0.00000000 0.00000000 -39.19792731 40.02339246 0.00000000 0.00000000 0.00000000 0.00000000 
154401480 0.00000000 0.00000000 -37.96227338 41.54304318 0.00000000 0.00000000 0.00000000 0.00000000 
156318998 0.00000000 0.00000000 -38.48753128 10.15441679 0.00000000 0.00000000 0.00000000 0.00000000 
158236516 0.00000000 0.00000000 -35.63643475 -11.31667262 0.00000000 0.00000000 0.00000000 0.00000000 
160154034 0.00000000 0.00000000 -32.73604453 -17.27097816 0.00000000 0.00000000 0.00000000 0.00000000 
162071554 0.00000000 0.00000000 -30.33126800 -17.02280313 0.00000000 0.00000000 0.00000000 0.00000000 
163989072 0.00000000 0.00000000 -33.18686235 -19.14668718 0.00000000 0.00000000 0.00000000 0.00000000 
165906590 0.00000000 0.00000000 -36.41480408 -29.42033794 0.00000000 0.00000000 0.00000000 0.00000000 
167824108 0.00000000 0.00000000 -38.38813900 -62.08565566 0.00000000 0.00000000 0.00000000 0.00000000 
169741628 0.00000000 0.00000000 -36.33471926 -89.89024672 0.00000000 0.00000000 0.00000000 0.00000000 
171659146 0.00000000 0.00000000 -37.97639354 -90.08732030 0.00000000 0.00000000 0.00000000 0.00000000 
173576664 0.00000000 0.00000000 -39.59552999 -92.98182971 0.00000000 0.00000000 0.00000000 0.00000000 
175494182 0.00000000 0.00000000 -41.10339937 -100.33775413 0.00000000 0.00000000 0.00000000 0.00000000 
177411702 0.00000000 0.00000000 -41.75380069 -112.38790325 0.00000000 0.00000000 0.00000000 0.00000000 
179329220 0.00000000 0.00000000 -43.45630325 -112.29905839 0.00000000 0.00000000 0.00000000 0.00000000 
181246738 0.00000000 0.00000000 -44.80289248 -116.15986854 0.00000000 0.00000000 0.00000000 0.00000000 
183164256 0.00000000 0.00000000 -45.88483490 -130.26048544 0.00000000 0.00000000 0.00000000 0.00000000 
185081776 0.00000000 0.00000000 -45.95564202 -136.82905744 0.00000000 0.00000000 0.00000000 0.00000000 
186999294 0.00000000 0.00000000 -47.55547274 -131.26757289 0.00000000 0.00000000 0.00000000 0.00000000 
188916812 0.00000000 0.00000000 -48.76401467 -133.81975030 0.00000000 0.00000000 0.00000000 0.00000000 
190834330 0.00000000 0.00000000 -49.79401952 -132.90740008 0.00000000 0.00000000 0.00000000 0.00000000 
192751850 0.00000000 0.00000000 -51.11224274 -140.26888864 0.00000000 0.00000000 0.00000000 0.00000000 
194669368 0.00000000 0.00000000 -53.06248525 -131.24842025 0.00000000 0.00000000 0.00000000 0.00000000 
196586886 0.00000000 0.00000000 -54.52094929 -127.48685874 0.00000000 0.00000000 0.00000000 0.00000000 
198504404 0.00000000 0.00000000 -56.63091028 -125.64755838 0.00000000 0.00000000 0.00000000 0.00000000 
200421924 0.00000000 0.00000000 -60.86624329 -130.16793871 0.00000000 0.00000000 0.00000000 0.00000000 
202339442 0.00000000 0.00000000 -59.78022818 -132.89180655 0.00000000 0.00000000 0.00000000 0.00000000 
204256960 0.00000000 0.00000000 -59.29526875 -132.87705383 0.00000000 0.00000000 0.00000000 0.00000000 
206174478 0.00000000 0.00000000 -63.68491954 -143.31211237 0.00000000 0.00000000 0.00000000 0.00000000 
208091998 0.00000000 0.00000000 -61.21657234 -151.83220493 0.00000000 0.00000000 0.00000000 0.00000000 
210009516 0.00000000 0.00000000 -62.73325992 -138.14556209 0.00000000 0.00000000 0.00000000 0.00000000 
211927034 0.00000000 0.00000000 -59.58178185 -141.36085568 0.00000000 0.00000000 0.00000000 0.00000000 
213844552 0.00000000 0.00000000 -60.33454577 -130.22808091 0.00000000 0.00000000 0.00000000 0.00000000 
215762072 0.00000000 0.00000000 -58.36893142 -106.88694450 0.00000000 0.00000000 0.00000000 0.00000000 
217679590 0.00000000 0.00000000 -58.32846737 -119.83744232 0.00000000 0.00000000 0.00000000 0.00000000 
219597108 0.00000000 0.00000000 -58.79171100 -118.21971141 0.00000000 0.00000000 0.00000000 0.00000000 
221514626 0.00000000 0.00000000 -57.13848447 -101.25576214 0.00000000 0.00000000 0.00000000 0.00000000 
223432146 0.00000000 0.00000000 -56.94850768 -102.16734026 0.00000000 0.00000000 0.00000000 0.00000000 
225349664 0.00000000 0.00000000 -58.67249732 -121.70469830 0.00000000 0.00000000 0.00000000 0.00000000 
227267182 0.00000000 0.00000000 -60.99340257 -133.02308526 0.00000000 0.00000000 0.00000000 0.00000000 
229184700 0.00000000 0.00000000 -60.08783600 -143.19693227 0.00000000 0.00000000 0.00000000 0.00000000 
231102220 0.00000000 0.00000000 -61.29371960 -161.88849900 0.00000000 0.00000000 0.00000000 0.00000000 
233019738 0.00000000 0.00000000 -60.04598679 -141.51461665 0.00000000 0.00000000 0.00000000 0.00000000 
234937256 0.00000000 0.00000000 -62.07892117 -134.77875999 0.00000000 0.00000000 0.00000000 0.00000000 
236854774 0.00000000 0.00000000 -60.42403525 -146.97738781 0.00000000 0.00000000 0.00000000 0.00000000 
238772294 0.00000000 0.00000000 -60.05095593 -116.50277965 0.00000000 0.00000000 0.00000000 0.00000000 
240689812 0.00000000 0.00000000 -61.08873105 -114.02475223 0.00000000 0.00000000 0.00000000 0.00000000 
242607330 0.00000000 0.00000000 -61.33921450 -89.98690247 0.00000000 0.00000000 0.00000000 0.00000000 
244524848 0.00000000 0.00000000 -62.34469951 -89.69940926 0.00000000 0.00000000 0.00000000 0.00000000 
246442368 0.00000000 0.00000000 -65.05160429 -76.16588850 0.00000000 0.00000000 0.00000000 0.00000000 
248359886 0.00000000 0.00000000 -63.72784682 -64.51547900 0.00000000 0.00000000 0.00000000 0.00000000 
250277404 0.00000000 0.00000000 -60.45969086 -90.84612088 0.00000000 0.00000000 0.00000000 0.00000000 
252194922 0.00000000 0.00000000 -63.66680422 -105.83728444 0.00000000 0.00000000 0.00000000 0.00000000 
254112442 0.00000000 0.00000000 -60.29101913 -119.11196115 0.00000000 0.00000000 0.00000000 0.00000000 
256029960 0.00000000 0.00000000 -58.39772987 -124.65478894 0.00000000 0.00000000 0.00000000 0.00000000 
257947478 0.00000000 0.00000000 -56.58982978 -114.13578572 0.00000000 0.00000000 0.00000000 0.00000000 
259864996 0.00000000 0.00000000 -55.84632413 -106.97306884 0.00000000 0.00000000 0.00000000 0.00000000 
261782516 0.00000000 0.00000000 -55.18845225 -107.79505148 0.00000000 0.00000000 0.00000000 0.00000000 
263700034 0.00000000 0.00000000 -54.74800995 -114.67757327 0.00000000 0.00000000 0.00000000 0.00000000 
265617552 0.00000000 0.00000000 -54.54659899 -132.46765766 0.00000000 0.00000000 0.00000000 0.00000000 
267535070 0.00000000 0.00000000 -54.42570168 -135.03500971 0.00000000 0.00000000 0.00000000 0.00000000 
269452590 0.00000000 0.00000000 -52.75502957 -138.10230966 0.00000000 0.00000000 0.00000000 0.00000000 
271370108 0.00000000 0.00000000 -53.37779943 -136.05326015 0.00000000 0.00000000 0.00000000 0.00000000 
273287626 0.00000000 0.00000000 -53.93969581 -151.44276769 0.00000000 0.00000000 0.00000000 0.00000000 
275205144 0.00000000 0.00000000 -52.84763974 -166.09291250 0.00000000 0.00000000 0.00000000 0.00000000 
277122664 0.00000000 0.00000000 -51.70003412 -159.39649494 0.00000000 0.00000000 0.00000000 0.00000000 
279040182 0.00000000 0.00000000 -53.60127146 -165.80540558 0.00000000 0.00000000 0.00000000 0.00000000 
280957700 0.00000000 0.00000000 -51.38623658 -172.07207837 0.00000000 0.00000000 0.00000000 0.00000000 
282875218 0.00000000 0.00000000 -52.86198526 -166.55553967 0.00000000 0.00000000 0.00000000 0.00000000 
284792738 0.00000000 0.00000000 -52.29647253 -170.69068971 0.00000000 0.00000000 0.00000000 0.00000000 
286710256 0.00000000 0.00000000 -52.89982497 -166.42348574 0.00000000 0.00000000 0.00000000 0.00000000 
288627774 0.00000000 0.00000000 -52.20066276 -176.36883628 0.00000000 0.00000000 0.00000000 0.00000000 
290545292 0.00000000 0.00000000 -52.98636466 -172.57079727 0.00000000 0.00000000 0.00000000 0.00000000 
292462812 0.00000000 0.00000000 -51.71534340 175.62898398 0.00000000 0.00000000 0.00000000 0.00000000 
294380330 0.00000000 0.00000000 -50.98873110 177.10203247 0.00000000 0.00000000 0.00000000 0.00000000 
296297848 0.00000000 0.00000000 -53.89035537 175.18218865 0.00000000 0.00000000 0.00000000 0.00000000 
298215366 0.00000000 0.00000000 -51.73386657 159.87574862 0.00000000 0.00000000 0.00000000 0.00000000 
300132886 0.00000000 0.00000000 -51.25700929 152.03558327 0.00000000 0.00000000 0.00000000 0.00000000 
302050404 0.00000000 0.00000000 -51.25098107 154.76168877 0.00000000 0.00000000 0.00000000 0.00000000 
303967922 0.00000000 0.00000000 -50.97819512 158.12920279 0.00000000 0.00000000 0.00000000 0.00000000 
305885440 0.00000000 0.00000000 -49.99553167 159.59809146 0.00000000 0.00000000 0.00000000 0.00000000 
307802960 0.00000000 0.00000000 -50.11118748 165.26128332 0.00000000 0.00000000 0.00000000 0.00000000 
309720478 0.00000000 0.00000000 -50.36889882 156.83577838 0.00000000 0.00000000 0.00000000 0.00000000 
311637996 0.00000000 0.00000000 -50.38813140 152.98159948 0.00000000 0.00000000 0.00000000 0.00000000 
313555514 0.00000000 0.00000000 -50.29199788 146.63010426 0.00000000 0.00000000 0.00000000 0.00000000 
315473034 0.00000000 0.00000000 -49.38308023 146.96264084 0.00000000 0.00000000 0.00000000 0.00000000 
317390552 0.00000000 0.00000000 -50.36270685 143.74376313 0.00000000 0.00000000 0.00000000 0.00000000 
319308070 0.00000000 0.00000000 -49.59985784 138.65896557 0.00000000 0.00000000 0.00000000 0.00000000 
321225588 0.00000000 0.00000000 -49.18002330 128.21404306 0.00000000 0.00000000 0.00000000 0.00000000 
323143108 0.00000000 0.00000000 -48.24148861 134.11376419 0.00000000 0.00000000 0.00000000 0.00000000 
325060626 0.00000000 0.00000000 -47.70533081 128.80676284 0.00000000 0.00000000 0.00000000 0.00000000 
326978144 0.00000000 0.00000000 -47.71582724 123.35232793 0.00000000 0.00000000 0.00000000 0.00000000 
328895662 0.00000000 0.00000000 -47.25301884 118.80567136 0.00000000 0.00000000 0.00000000 0.00000000 
330813182 0.00000000 0.00000000 -45.94455446 120.51228802 0.00000000 0.00000000 0.00000000 0.00000000 
332730700 0.00000000 0.00000000 -45.97923366 118.58587062 0.00000000 0.00000000 0.00000000 0.00000000 
334648218 0.00000000 0.00000000 -45.41522446 115.92634565 0.00000000 0.00000000 0.00000000 0.00000000 
336565736 0.00000000 0.00000000 -44.42682392 111.17842075 0.00000000 0.00000000 0.00000000 0.00000000 
338483256 0.00000000 0.00000000 -43.45442089 114.62422591 0.00000000 0.00000000 0.00000000 0.00000000 
340400774 0.00000000 0.00000000 -43.97016855 111.07910690 0.00000000 0.00000000 0.00000000 0.00000000 
342318292 0.00000000 0.00000000 -44.04425142 106.84009101 0.00000000 0.00000000 0.00000000 0.00000000 
344235810 0.00000000 0.00000000 -43.86176723 97.30984170 0.00000000 0.00000000 0.00000000 0.00000000 
346153330 0.00000000 0.00000000 -42.93405758 95.82325058 0.00000000 0.00000000 0.00000000 0.00000000 
348070848 0.00000000 0.00000000 -43.48608418 85.22294834 0.00000000 0.00000000 0.00000000 0.00000000 
349988366 0.00000000 0.00000000 -43.51020407 78.15084454 0.00000000 0.00000000 0.00000000 0.00000000 
351905884 0.00000000 0.00000000 -42.87741941 69.77485908 0.00000000 0.00000000 0.00000000 0.00000000 
353823404 0.00000000 0.00000000 -41.96872656 65.76371160 0.00000000 0.00000000 0.00000000 0.00000000 
355740922 0.00000000 0.00000000 -43.14555430 57.07090549 0.00000000 0.00000000 0.00000000 0.00000000 
357658440 0.00000000 0.00000000 -43.71969302 47.49310634 0.00000000 0.00000000 0.00000000 0.00000000 
359575958 0.00000000 0.00000000 -44.12373161 34.22643249 0.00000000 0.00000000 0.00000000 0.00000000 
361493478 0.00000000 0.00000000 -42.97975439 25.30923016 0.00000000 0.00000000 0.00000000 0.00000000 
363410996 0.00000000 0.00000000 -44.39515209 25.79277900 0.00000000 0.00000000 0.00000000 0.00000000 
365328514 0.00000000 0.00000000 -46.33884663 21.71471205 0.00000000 0.00000000 0.00000000 0.00000000 
367246032 0.00000000 0.00000000 -49.19313612 14.59046767 0.00000000 0.00000000 0.00000000 0.00000000 
369163552 0.00000000 0.00000000 -49.56427528 -3.08649117 0.00000000 0.00000000 0.00000000 0.00000000 
