! created by ADMIN at Tue Apr 21 15:36:33 IST 2026
! generated using vna/J Version 3.2.10
# Hz S DB R 50
001000000 0.00000000 0.00000000 -69.37811959 49.93944445 0.00000000 0.00000000 0.00000000 0.00000000 
002917518 0.00000000 0.00000000 -80.00000000 76.76189211 0.00000000 0.00000000 0.00000000 0.00000000 
004835036 0.00000000 0.00000000 -80.00000000 25.29096266 0.00000000 0.00000000 0.00000000 0.00000000 
006752554 0.00000000 0.00000000 -69.01623433 -18.58654623 0.00000000 0.00000000 0.00000000 0.00000000 
008670074 0.00000000 0.00000000 -75.50906384 -57.06243088 0.00000000 0.00000000 0.00000000 0.00000000 
010587592 0.00000000 0.00000000 -70.78091820 13.75480826 0.00000000 0.00000000 0.00000000 0.00000000 
012505110 0.00000000 0.00000000 -68.75499809 18.56984103 0.00000000 0.00000000 0.00000000 0.00000000 
014422628 0.00000000 0.00000000 -68.01929276 21.84130039 0.00000000 0.00000000 0.00000000 0.00000000 
016340148 0.00000000 0.00000000 -66.40380043 21.12035427 0.00000000 0.00000000 0.00000000 0.00000000 
018257666 0.00000000 0.00000000 -65.53714210 37.09166610 0.00000000 0.00000000 0.00000000 0.00000000 
020175184 0.00000000 0.00000000 -66.28885468 51.40882215 0.00000000 0.00000000 0.00000000 0.00000000 
022092702 0.00000000 0.00000000 -67.36055957 59.33518426 0.00000000 0.00000000 0.00000000 0.00000000 
024010222 0.00000000 0.00000000 -71.75784006 137.23086787 0.00000000 0.00000000 0.00000000 0.00000000 
025927740 0.00000000 0.00000000 -73.52326254 13.92311860 0.00000000 0.00000000 0.00000000 0.00000000 
027845258 0.00000000 0.00000000 -80.00000000 -114.63854539 0.00000000 0.00000000 0.00000000 0.00000000 
029762776 0.00000000 0.00000000 -74.13513263 -87.90318104 0.00000000 0.00000000 0.00000000 0.00000000 
031680296 0.00000000 0.00000000 -66.87243420 -11.03547283 0.00000000 0.00000000 0.00000000 0.00000000 
033597814 0.00000000 0.00000000 -69.18077299 -54.05781001 0.00000000 0.00000000 0.00000000 0.00000000 
035515332 0.00000000 0.00000000 -73.46312273 -47.23370380 0.00000000 0.00000000 0.00000000 0.00000000 
037432850 0.00000000 0.00000000 -68.84005936 -108.41860946 0.00000000 0.00000000 0.00000000 0.00000000 
039350370 0.00000000 0.00000000 -71.29397397 -92.76930228 0.00000000 0.00000000 0.00000000 0.00000000 
041267888 0.00000000 0.00000000 -71.38078122 -76.88333398 0.00000000 0.00000000 0.00000000 0.00000000 
043185406 0.00000000 0.00000000 -72.22764670 -75.78857324 0.00000000 0.00000000 0.00000000 0.00000000 
045102924 0.00000000 0.00000000 -73.04911756 36.10423099 0.00000000 0.00000000 0.00000000 0.00000000 
047020444 0.00000000 0.00000000 -70.55520949 6.55813150 0.00000000 0.00000000 0.00000000 0.00000000 
048937962 0.00000000 0.00000000 -76.60577920 36.65808388 0.00000000 0.00000000 0.00000000 0.00000000 
050855480 0.00000000 0.00000000 -71.35868378 26.89607266 0.00000000 0.00000000 0.00000000 0.00000000 
052772998 0.00000000 0.00000000 -68.17667353 14.40150827 0.00000000 0.00000000 0.00000000 0.00000000 
054690518 0.00000000 0.00000000 -65.43969733 31.79007925 0.00000000 0.00000000 0.00000000 0.00000000 
056608036 0.00000000 0.00000000 -66.38089249 66.57512061 0.00000000 0.00000000 0.00000000 0.00000000 
058525554 0.00000000 0.00000000 -76.43037812 43.68554898 0.00000000 0.00000000 0.00000000 0.00000000 
060443072 0.00000000 0.00000000 -69.90226555 -12.41646156 0.00000000 0.00000000 0.00000000 0.00000000 
062360592 0.00000000 0.00000000 -70.89676983 -51.60515876 0.00000000 0.00000000 0.00000000 0.00000000 
064278110 0.00000000 0.00000000 -75.76203058 17.41454481 0.00000000 0.00000000 0.00000000 0.00000000 
066195628 0.00000000 0.00000000 -76.52172948 -88.92724610 0.00000000 0.00000000 0.00000000 0.00000000 
068113146 0.00000000 0.00000000 -75.47092651 55.27750212 0.00000000 0.00000000 0.00000000 0.00000000 
070030666 0.00000000 0.00000000 -66.94707668 85.48143006 0.00000000 0.00000000 0.00000000 0.00000000 
071948184 0.00000000 0.00000000 -80.00000000 63.13067649 0.00000000 0.00000000 0.00000000 0.00000000 
073865702 0.00000000 0.00000000 -80.00000000 135.36755594 0.00000000 0.00000000 0.00000000 0.00000000 
075783220 0.00000000 0.00000000 -80.00000000 108.45717259 0.00000000 0.00000000 0.00000000 0.00000000 
077700740 0.00000000 0.00000000 -80.00000000 26.31289480 0.00000000 0.00000000 0.00000000 0.00000000 
079618258 0.00000000 0.00000000 -75.86313938 -70.23325162 0.00000000 0.00000000 0.00000000 0.00000000 
081535776 0.00000000 0.00000000 -80.00000000 65.41197638 0.00000000 0.00000000 0.00000000 0.00000000 
083453294 0.00000000 0.00000000 -76.56084021 -81.13079886 0.00000000 0.00000000 0.00000000 0.00000000 
085370814 0.00000000 0.00000000 -70.06000616 -137.47436086 0.00000000 0.00000000 0.00000000 0.00000000 
087288332 0.00000000 0.00000000 -66.23122539 -108.17031310 0.00000000 0.00000000 0.00000000 0.00000000 
089205850 0.00000000 0.00000000 -80.00000000 -108.34708674 0.00000000 0.00000000 0.00000000 0.00000000 
091123368 0.00000000 0.00000000 -77.21953632 -68.76722307 0.00000000 0.00000000 0.00000000 0.00000000 
093040888 0.00000000 0.00000000 -75.93290705 -115.77011041 0.00000000 0.00000000 0.00000000 0.00000000 
094958406 0.00000000 0.00000000 -77.64372313 -123.82701213 0.00000000 0.00000000 0.00000000 0.00000000 
096875924 0.00000000 0.00000000 -80.00000000 -105.28615173 0.00000000 0.00000000 0.00000000 0.00000000 
098793442 0.00000000 0.00000000 -80.00000000 -82.77323933 0.00000000 0.00000000 0.00000000 0.00000000 
100710962 0.00000000 0.00000000 -80.00000000 -124.73867990 0.00000000 0.00000000 0.00000000 0.00000000 
102628480 0.00000000 0.00000000 -75.90097051 72.28173653 0.00000000 0.00000000 0.00000000 0.00000000 
104545998 0.00000000 0.00000000 -75.31547439 160.12322186 0.00000000 0.00000000 0.00000000 0.00000000 
106463516 0.00000000 0.00000000 -73.63153071 161.89824026 0.00000000 0.00000000 0.00000000 0.00000000 
108381036 0.00000000 0.00000000 -68.78022074 46.97733729 0.00000000 0.00000000 0.00000000 0.00000000 
110298554 0.00000000 0.00000000 -80.00000000 -146.53712055 0.00000000 0.00000000 0.00000000 0.00000000 
112216072 0.00000000 0.00000000 -75.70824164 128.22164205 0.00000000 0.00000000 0.00000000 0.00000000 
114133590 0.00000000 0.00000000 -70.89249867 -141.61242252 0.00000000 0.00000000 0.00000000 0.00000000 
116051110 0.00000000 0.00000000 -70.86620764 -34.20802303 0.00000000 0.00000000 0.00000000 0.00000000 
117968628 0.00000000 0.00000000 -80.00000000 -1.64818966 0.00000000 0.00000000 0.00000000 0.00000000 
119886146 0.00000000 0.00000000 -80.00000000 147.38196744 0.00000000 0.00000000 0.00000000 0.00000000 
121803664 0.00000000 0.00000000 -72.88773429 168.90233144 0.00000000 0.00000000 0.00000000 0.00000000 
123721184 0.00000000 0.00000000 -62.43531193 151.27125917 0.00000000 0.00000000 0.00000000 0.00000000 
125638702 0.00000000 0.00000000 -66.12425187 -172.79754824 0.00000000 0.00000000 0.00000000 0.00000000 
127556220 0.00000000 0.00000000 -74.22121835 -157.69080510 0.00000000 0.00000000 0.00000000 0.00000000 
129473738 0.00000000 0.00000000 -72.56431624 -145.79606683 0.00000000 0.00000000 0.00000000 0.00000000 
131391258 0.00000000 0.00000000 -74.54116381 -149.91069078 0.00000000 0.00000000 0.00000000 0.00000000 
133308776 0.00000000 0.00000000 -65.18382692 -153.82414973 0.00000000 0.00000000 0.00000000 0.00000000 
135226294 0.00000000 0.00000000 -72.24493316 138.67297628 0.00000000 0.00000000 0.00000000 0.00000000 
137143812 0.00000000 0.00000000 -80.00000000 -34.20719190 0.00000000 0.00000000 0.00000000 0.00000000 
139061332 0.00000000 0.00000000 -80.00000000 -113.60430577 0.00000000 0.00000000 0.00000000 0.00000000 
140978850 0.00000000 0.00000000 -80.00000000 43.30550577 0.00000000 0.00000000 0.00000000 0.00000000 
142896368 0.00000000 0.00000000 -71.92773528 58.04077221 0.00000000 0.00000000 0.00000000 0.00000000 
144813886 0.00000000 0.00000000 -75.96922957 -91.28073144 0.00000000 0.00000000 0.00000000 0.00000000 
146731406 0.00000000 0.00000000 -75.24880401 -132.74161558 0.00000000 0.00000000 0.00000000 0.00000000 
148648924 0.00000000 0.00000000 -78.94337179 14.23831496 0.00000000 0.00000000 0.00000000 0.00000000 
150566442 0.00000000 0.00000000 -72.01393904 -13.43116959 0.00000000 0.00000000 0.00000000 0.00000000 
152483960 0.00000000 0.00000000 -64.67609299 -4.55323124 0.00000000 0.00000000 0.00000000 0.00000000 
154401480 0.00000000 0.00000000 -66.72005672 -6.51708755 0.00000000 0.00000000 0.00000000 0.00000000 
156318998 0.00000000 0.00000000 -73.43220435 -9.34709221 0.00000000 0.00000000 0.00000000 0.00000000 
158236516 0.00000000 0.00000000 -70.35033902 -13.94942002 0.00000000 0.00000000 0.00000000 0.00000000 
160154034 0.00000000 0.00000000 -73.49813841 63.50593691 0.00000000 0.00000000 0.00000000 0.00000000 
162071554 0.00000000 0.00000000 -71.97291339 128.42797587 0.00000000 0.00000000 0.00000000 0.00000000 
163989072 0.00000000 0.00000000 -70.75081692 -169.17765085 0.00000000 0.00000000 0.00000000 0.00000000 
165906590 0.00000000 0.00000000 -70.57241955 50.62705118 0.00000000 0.00000000 0.00000000 0.00000000 
167824108 0.00000000 0.00000000 -73.88759617 -140.30442814 0.00000000 0.00000000 0.00000000 0.00000000 
169741628 0.00000000 0.00000000 -72.82024587 64.17438490 0.00000000 0.00000000 0.00000000 0.00000000 
171659146 0.00000000 0.00000000 -72.57394506 136.79940367 0.00000000 0.00000000 0.00000000 0.00000000 
173576664 0.00000000 0.00000000 -73.58205902 -176.33668893 0.00000000 0.00000000 0.00000000 0.00000000 
175494182 0.00000000 0.00000000 -76.35243404 -147.67947350 0.00000000 0.00000000 0.00000000 0.00000000 
177411702 0.00000000 0.00000000 -71.60840875 -100.36620998 0.00000000 0.00000000 0.00000000 0.00000000 
179329220 0.00000000 0.00000000 -73.05625662 -71.80018148 0.00000000 0.00000000 0.00000000 0.00000000 
181246738 0.00000000 0.00000000 -67.82258457 -80.55333038 0.00000000 0.00000000 0.00000000 0.00000000 
183164256 0.00000000 0.00000000 -68.76494077 -142.90261087 0.00000000 0.00000000 0.00000000 0.00000000 
185081776 0.00000000 0.00000000 -63.28835312 -84.10083556 0.00000000 0.00000000 0.00000000 0.00000000 
186999294 0.00000000 0.00000000 -64.18763250 -50.17065352 0.00000000 0.00000000 0.00000000 0.00000000 
188916812 0.00000000 0.00000000 -73.07453506 -45.09223410 0.00000000 0.00000000 0.00000000 0.00000000 
190834330 0.00000000 0.00000000 -73.31854429 -57.07610112 0.00000000 0.00000000 0.00000000 0.00000000 
192751850 0.00000000 0.00000000 -80.00000000 122.17753431 0.00000000 0.00000000 0.00000000 0.00000000 
194669368 0.00000000 0.00000000 -78.73076147 46.80344854 0.00000000 0.00000000 0.00000000 0.00000000 
196586886 0.00000000 0.00000000 -80.00000000 148.22043065 0.00000000 0.00000000 0.00000000 0.00000000 
198504404 0.00000000 0.00000000 -74.56953190 171.75437598 0.00000000 0.00000000 0.00000000 0.00000000 
200421924 0.00000000 0.00000000 -72.51891576 143.74795425 0.00000000 0.00000000 0.00000000 0.00000000 
202339442 0.00000000 0.00000000 -69.49423045 -148.91081859 0.00000000 0.00000000 0.00000000 0.00000000 
204256960 0.00000000 0.00000000 -65.98536311 -117.77987362 0.00000000 0.00000000 0.00000000 0.00000000 
206174478 0.00000000 0.00000000 -71.62025018 -58.73644856 0.00000000 0.00000000 0.00000000 0.00000000 
208091998 0.00000000 0.00000000 -68.15225463 -73.53546852 0.00000000 0.00000000 0.00000000 0.00000000 
210009516 0.00000000 0.00000000 -68.87308984 -41.91964683 0.00000000 0.00000000 0.00000000 0.00000000 
211927034 0.00000000 0.00000000 -72.16019775 -117.18733925 0.00000000 0.00000000 0.00000000 0.00000000 
213844552 0.00000000 0.00000000 -76.70423901 -112.40876768 0.00000000 0.00000000 0.00000000 0.00000000 
215762072 0.00000000 0.00000000 -67.43804372 -83.74809883 0.00000000 0.00000000 0.00000000 0.00000000 
217679590 0.00000000 0.00000000 -71.17710915 -168.00530207 0.00000000 0.00000000 0.00000000 0.00000000 
219597108 0.00000000 0.00000000 -67.64118774 145.26281867 0.00000000 0.00000000 0.00000000 0.00000000 
221514626 0.00000000 0.00000000 -70.76922925 155.28391595 0.00000000 0.00000000 0.00000000 0.00000000 
223432146 0.00000000 0.00000000 -64.12244902 151.49729279 0.00000000 0.00000000 0.00000000 0.00000000 
225349664 0.00000000 0.00000000 -62.02146675 166.42840011 0.00000000 0.00000000 0.00000000 0.00000000 
227267182 0.00000000 0.00000000 -65.16741949 170.99605315 0.00000000 0.00000000 0.00000000 0.00000000 
229184700 0.00000000 0.00000000 -67.14118259 -152.98668022 0.00000000 0.00000000 0.00000000 0.00000000 
231102220 0.00000000 0.00000000 -79.69831758 -82.91048876 0.00000000 0.00000000 0.00000000 0.00000000 
233019738 0.00000000 0.00000000 -72.03230407 -63.66408845 0.00000000 0.00000000 0.00000000 0.00000000 
234937256 0.00000000 0.00000000 -69.06149923 14.07945694 0.00000000 0.00000000 0.00000000 0.00000000 
236854774 0.00000000 0.00000000 -68.27887444 82.42761587 0.00000000 0.00000000 0.00000000 0.00000000 
238772294 0.00000000 0.00000000 -67.80044917 41.72113737 0.00000000 0.00000000 0.00000000 0.00000000 
240689812 0.00000000 0.00000000 -67.64309064 72.35888889 0.00000000 0.00000000 0.00000000 0.00000000 
242607330 0.00000000 0.00000000 -67.85132989 55.67682806 0.00000000 0.00000000 0.00000000 0.00000000 
244524848 0.00000000 0.00000000 -68.70409488 91.58551302 0.00000000 0.00000000 0.00000000 0.00000000 
246442368 0.00000000 0.00000000 -66.15678477 101.65267557 0.00000000 0.00000000 0.00000000 0.00000000 
248359886 0.00000000 0.00000000 -68.33380330 53.03914105 0.00000000 0.00000000 0.00000000 0.00000000 
250277404 0.00000000 0.00000000 -74.51855298 -37.68845216 0.00000000 0.00000000 0.00000000 0.00000000 
252194922 0.00000000 0.00000000 -70.51384321 47.17889422 0.00000000 0.00000000 0.00000000 0.00000000 
254112442 0.00000000 0.00000000 -76.11953043 37.71873288 0.00000000 0.00000000 0.00000000 0.00000000 
256029960 0.00000000 0.00000000 -77.21006076 110.35854602 0.00000000 0.00000000 0.00000000 0.00000000 
257947478 0.00000000 0.00000000 -80.00000000 -43.18864764 0.00000000 0.00000000 0.00000000 0.00000000 
259864996 0.00000000 0.00000000 -78.62816635 0.50947129 0.00000000 0.00000000 0.00000000 0.00000000 
261782516 0.00000000 0.00000000 -78.32388096 110.33468415 0.00000000 0.00000000 0.00000000 0.00000000 
263700034 0.00000000 0.00000000 -79.18842920 177.67119352 0.00000000 0.00000000 0.00000000 0.00000000 
265617552 0.00000000 0.00000000 -66.08981152 148.00433307 0.00000000 0.00000000 0.00000000 0.00000000 
267535070 0.00000000 0.00000000 -66.38292721 129.45932192 0.00000000 0.00000000 0.00000000 0.00000000 
269452590 0.00000000 0.00000000 -64.53876954 146.25411694 0.00000000 0.00000000 0.00000000 0.00000000 
271370108 0.00000000 0.00000000 -73.69417615 -167.31093199 0.00000000 0.00000000 0.00000000 0.00000000 
273287626 0.00000000 0.00000000 -73.07183229 140.11867834 0.00000000 0.00000000 0.00000000 0.00000000 
275205144 0.00000000 0.00000000 -67.64153520 127.31725249 0.00000000 0.00000000 0.00000000 0.00000000 
277122664 0.00000000 0.00000000 -78.58166449 -98.21353155 0.00000000 0.00000000 0.00000000 0.00000000 
279040182 0.00000000 0.00000000 -67.55680135 41.01461828 0.00000000 0.00000000 0.00000000 0.00000000 
280957700 0.00000000 0.00000000 -65.43865986 130.39871541 0.00000000 0.00000000 0.00000000 0.00000000 
282875218 0.00000000 0.00000000 -70.37549176 61.89437199 0.00000000 0.00000000 0.00000000 0.00000000 
284792738 0.00000000 0.00000000 -66.91157237 85.64228096 0.00000000 0.00000000 0.00000000 0.00000000 
286710256 0.00000000 0.00000000 -73.17953908 -7.64999359 0.00000000 0.00000000 0.00000000 0.00000000 
288627774 0.00000000 0.00000000 -79.11433599 15.84530786 0.00000000 0.00000000 0.00000000 0.00000000 
290545292 0.00000000 0.00000000 -62.99378432 -30.13302699 0.00000000 0.00000000 0.00000000 0.00000000 
292462812 0.00000000 0.00000000 -63.76123859 -2.77890494 0.00000000 0.00000000 0.00000000 0.00000000 
294380330 0.00000000 0.00000000 -71.03510171 -84.75968915 0.00000000 0.00000000 0.00000000 0.00000000 
296297848 0.00000000 0.00000000 -62.10848927 -44.23336701 0.00000000 0.00000000 0.00000000 0.00000000 
298215366 0.00000000 0.00000000 -73.76438523 -84.36584004 0.00000000 0.00000000 0.00000000 0.00000000 
300132886 0.00000000 0.00000000 -72.65812798 -73.39412326 0.00000000 0.00000000 0.00000000 0.00000000 
302050404 0.00000000 0.00000000 -69.85470627 -43.55190714 0.00000000 0.00000000 0.00000000 0.00000000 
303967922 0.00000000 0.00000000 -68.54805081 -29.13918288 0.00000000 0.00000000 0.00000000 0.00000000 
305885440 0.00000000 0.00000000 -72.48895355 15.14709566 0.00000000 0.00000000 0.00000000 0.00000000 
307802960 0.00000000 0.00000000 -67.53205026 -0.40889685 0.00000000 0.00000000 0.00000000 0.00000000 
309720478 0.00000000 0.00000000 -68.53129209 25.91270404 0.00000000 0.00000000 0.00000000 0.00000000 
311637996 0.00000000 0.00000000 -72.04171797 6.88547049 0.00000000 0.00000000 0.00000000 0.00000000 
313555514 0.00000000 0.00000000 -68.92647148 -4.26673516 0.00000000 0.00000000 0.00000000 0.00000000 
315473034 0.00000000 0.00000000 -70.23605298 -50.22495962 0.00000000 0.00000000 0.00000000 0.00000000 
317390552 0.00000000 0.00000000 -65.24271748 -44.75731185 0.00000000 0.00000000 0.00000000 0.00000000 
319308070 0.00000000 0.00000000 -70.72485091 -34.36010166 0.00000000 0.00000000 0.00000000 0.00000000 
321225588 0.00000000 0.00000000 -64.36534231 14.68799057 0.00000000 0.00000000 0.00000000 0.00000000 
323143108 0.00000000 0.00000000 -74.29538037 -15.00412065 0.00000000 0.00000000 0.00000000 0.00000000 
325060626 0.00000000 0.00000000 -70.79973617 77.58410321 0.00000000 0.00000000 0.00000000 0.00000000 
326978144 0.00000000 0.00000000 -68.05098349 49.89631945 0.00000000 0.00000000 0.00000000 0.00000000 
328895662 0.00000000 0.00000000 -64.71394300 41.07322797 0.00000000 0.00000000 0.00000000 0.00000000 
330813182 0.00000000 0.00000000 -64.38284888 77.08408164 0.00000000 0.00000000 0.00000000 0.00000000 
332730700 0.00000000 0.00000000 -69.71439405 85.30230575 0.00000000 0.00000000 0.00000000 0.00000000 
334648218 0.00000000 0.00000000 -71.70520520 88.96308694 0.00000000 0.00000000 0.00000000 0.00000000 
336565736 0.00000000 0.00000000 -65.05095847 57.29838278 0.00000000 0.00000000 0.00000000 0.00000000 
338483256 0.00000000 0.00000000 -69.05441148 85.35385221 0.00000000 0.00000000 0.00000000 0.00000000 
340400774 0.00000000 0.00000000 -71.38308231 150.77093621 0.00000000 0.00000000 0.00000000 0.00000000 
342318292 0.00000000 0.00000000 -66.05967074 -163.84936056 0.00000000 0.00000000 0.00000000 0.00000000 
344235810 0.00000000 0.00000000 -66.57847121 -90.97587966 0.00000000 0.00000000 0.00000000 0.00000000 
346153330 0.00000000 0.00000000 -62.84503750 -107.49529920 0.00000000 0.00000000 0.00000000 0.00000000 
348070848 0.00000000 0.00000000 -67.83100420 -56.06870854 0.00000000 0.00000000 0.00000000 0.00000000 
349988366 0.00000000 0.00000000 -80.00000000 -81.80975616 0.00000000 0.00000000 0.00000000 0.00000000 
351905884 0.00000000 0.00000000 -80.00000000 83.87648792 0.00000000 0.00000000 0.00000000 0.00000000 
353823404 0.00000000 0.00000000 -69.41352556 157.67481439 0.00000000 0.00000000 0.00000000 0.00000000 
355740922 0.00000000 0.00000000 -76.73982496 35.34203529 0.00000000 0.00000000 0.00000000 0.00000000 
357658440 0.00000000 0.00000000 -69.54985299 46.62158213 0.00000000 0.00000000 0.00000000 0.00000000 
359575958 0.00000000 0.00000000 -75.35566578 -57.28697977 0.00000000 0.00000000 0.00000000 0.00000000 
361493478 0.00000000 0.00000000 -74.51499624 -10.83085036 0.00000000 0.00000000 0.00000000 0.00000000 
363410996 0.00000000 0.00000000 -69.98581921 32.14257890 0.00000000 0.00000000 0.00000000 0.00000000 
365328514 0.00000000 0.00000000 -75.12465097 58.08205101 0.00000000 0.00000000 0.00000000 0.00000000 
367246032 0.00000000 0.00000000 -64.09992009 163.37170117 0.00000000 0.00000000 0.00000000 0.00000000 
369163552 0.00000000 0.00000000 -64.83128552 169.43072819 0.00000000 0.00000000 0.00000000 0.00000000 
