! created by ADMIN at Mon Apr 20 18:32:22 IST 2026
! generated using vna/J Version 3.2.10
# Hz S DB R 50
001000000 0.00000000 0.00000000 -67.80750853 46.63420636 0.00000000 0.00000000 0.00000000 0.00000000 
002917518 0.00000000 0.00000000 -75.98219661 64.33524629 0.00000000 0.00000000 0.00000000 0.00000000 
004835036 0.00000000 0.00000000 -78.90735824 40.96225639 0.00000000 0.00000000 0.00000000 0.00000000 
006752554 0.00000000 0.00000000 -68.24123241 -10.00351037 0.00000000 0.00000000 0.00000000 0.00000000 
008670074 0.00000000 0.00000000 -76.15689035 -24.41892508 0.00000000 0.00000000 0.00000000 0.00000000 
010587592 0.00000000 0.00000000 -71.69627943 48.14140335 0.00000000 0.00000000 0.00000000 0.00000000 
012505110 0.00000000 0.00000000 -71.93542818 77.14501767 0.00000000 0.00000000 0.00000000 0.00000000 
014422628 0.00000000 0.00000000 -71.73426488 114.32990911 0.00000000 0.00000000 0.00000000 0.00000000 
016340148 0.00000000 0.00000000 -71.66091874 141.40251400 0.00000000 0.00000000 0.00000000 0.00000000 
018257666 0.00000000 0.00000000 -74.01535050 122.39819954 0.00000000 0.00000000 0.00000000 0.00000000 
020175184 0.00000000 0.00000000 -76.23865316 123.83518576 0.00000000 0.00000000 0.00000000 0.00000000 
022092702 0.00000000 0.00000000 -80.00000000 107.68877945 0.00000000 0.00000000 0.00000000 0.00000000 
024010222 0.00000000 0.00000000 -70.23696811 -153.14640546 0.00000000 0.00000000 0.00000000 0.00000000 
025927740 0.00000000 0.00000000 -72.80771201 -42.94845981 0.00000000 0.00000000 0.00000000 0.00000000 
027845258 0.00000000 0.00000000 -79.95576169 -118.72502028 0.00000000 0.00000000 0.00000000 0.00000000 
029762776 0.00000000 0.00000000 -78.11998067 -122.06702105 0.00000000 0.00000000 0.00000000 0.00000000 
031680296 0.00000000 0.00000000 -69.89736364 18.24220138 0.00000000 0.00000000 0.00000000 0.00000000 
033597814 0.00000000 0.00000000 -77.43804345 -33.41737790 0.00000000 0.00000000 0.00000000 0.00000000 
035515332 0.00000000 0.00000000 -76.81253841 34.79272315 0.00000000 0.00000000 0.00000000 0.00000000 
037432850 0.00000000 0.00000000 -78.95727004 -161.08104450 0.00000000 0.00000000 0.00000000 0.00000000 
039350370 0.00000000 0.00000000 -80.00000000 73.31081815 0.00000000 0.00000000 0.00000000 0.00000000 
041267888 0.00000000 0.00000000 -80.00000000 31.80842597 0.00000000 0.00000000 0.00000000 0.00000000 
043185406 0.00000000 0.00000000 -80.00000000 16.09270619 0.00000000 0.00000000 0.00000000 0.00000000 
045102924 0.00000000 0.00000000 -68.17411892 57.05098211 0.00000000 0.00000000 0.00000000 0.00000000 
047020444 0.00000000 0.00000000 -68.30691330 28.04602135 0.00000000 0.00000000 0.00000000 0.00000000 
048937962 0.00000000 0.00000000 -75.49686919 50.55351255 0.00000000 0.00000000 0.00000000 0.00000000 
050855480 0.00000000 0.00000000 -73.65476113 6.98934640 0.00000000 0.00000000 0.00000000 0.00000000 
052772998 0.00000000 0.00000000 -68.40674579 -22.24007243 0.00000000 0.00000000 0.00000000 0.00000000 
054690518 0.00000000 0.00000000 -66.05344360 -11.16860578 0.00000000 0.00000000 0.00000000 0.00000000 
056608036 0.00000000 0.00000000 -67.65603206 37.28262207 0.00000000 0.00000000 0.00000000 0.00000000 
058525554 0.00000000 0.00000000 -70.75231471 22.18267088 0.00000000 0.00000000 0.00000000 0.00000000 
060443072 0.00000000 0.00000000 -66.62030060 14.59166289 0.00000000 0.00000000 0.00000000 0.00000000 
062360592 0.00000000 0.00000000 -70.59373154 33.86328287 0.00000000 0.00000000 0.00000000 0.00000000 
064278110 0.00000000 0.00000000 -70.17954015 72.47829355 0.00000000 0.00000000 0.00000000 0.00000000 
066195628 0.00000000 0.00000000 -74.36769807 -159.55040609 0.00000000 0.00000000 0.00000000 0.00000000 
068113146 0.00000000 0.00000000 -78.34583818 173.24787620 0.00000000 0.00000000 0.00000000 0.00000000 
070030666 0.00000000 0.00000000 -74.21399028 143.68222213 0.00000000 0.00000000 0.00000000 0.00000000 
071948184 0.00000000 0.00000000 -78.95335455 -122.75165168 0.00000000 0.00000000 0.00000000 0.00000000 
073865702 0.00000000 0.00000000 -80.00000000 158.03693301 0.00000000 0.00000000 0.00000000 0.00000000 
075783220 0.00000000 0.00000000 -73.35657162 104.18187352 0.00000000 0.00000000 0.00000000 0.00000000 
077700740 0.00000000 0.00000000 -67.96348547 90.97461803 0.00000000 0.00000000 0.00000000 0.00000000 
079618258 0.00000000 0.00000000 -77.40271486 93.93251872 0.00000000 0.00000000 0.00000000 0.00000000 
081535776 0.00000000 0.00000000 -70.13427629 81.24280787 0.00000000 0.00000000 0.00000000 0.00000000 
083453294 0.00000000 0.00000000 -78.60830579 34.51569627 0.00000000 0.00000000 0.00000000 0.00000000 
085370814 0.00000000 0.00000000 -80.00000000 164.32524927 0.00000000 0.00000000 0.00000000 0.00000000 
087288332 0.00000000 0.00000000 -71.09221025 -98.14746977 0.00000000 0.00000000 0.00000000 0.00000000 
089205850 0.00000000 0.00000000 -78.42103283 25.88693689 0.00000000 0.00000000 0.00000000 0.00000000 
091123368 0.00000000 0.00000000 -74.12148462 -11.21114333 0.00000000 0.00000000 0.00000000 0.00000000 
093040888 0.00000000 0.00000000 -78.01530041 -38.41183017 0.00000000 0.00000000 0.00000000 0.00000000 
094958406 0.00000000 0.00000000 -79.53097431 -70.59157210 0.00000000 0.00000000 0.00000000 0.00000000 
096875924 0.00000000 0.00000000 -78.10053168 -62.18565896 0.00000000 0.00000000 0.00000000 0.00000000 
098793442 0.00000000 0.00000000 -74.19673158 -73.75449255 0.00000000 0.00000000 0.00000000 0.00000000 
100710962 0.00000000 0.00000000 -70.14862968 -89.42634074 0.00000000 0.00000000 0.00000000 0.00000000 
102628480 0.00000000 0.00000000 -80.00000000 -44.09562936 0.00000000 0.00000000 0.00000000 0.00000000 
104545998 0.00000000 0.00000000 -72.14428926 -148.29191123 0.00000000 0.00000000 0.00000000 0.00000000 
106463516 0.00000000 0.00000000 -69.52691717 -157.23963794 0.00000000 0.00000000 0.00000000 0.00000000 
108381036 0.00000000 0.00000000 -80.00000000 6.58580896 0.00000000 0.00000000 0.00000000 0.00000000 
110298554 0.00000000 0.00000000 -75.36325625 -108.90560120 0.00000000 0.00000000 0.00000000 0.00000000 
112216072 0.00000000 0.00000000 -73.08440822 62.95399224 0.00000000 0.00000000 0.00000000 0.00000000 
114133590 0.00000000 0.00000000 -77.27532891 60.54387167 0.00000000 0.00000000 0.00000000 0.00000000 
116051110 0.00000000 0.00000000 -63.42256406 31.44474498 0.00000000 0.00000000 0.00000000 0.00000000 
117968628 0.00000000 0.00000000 -67.08316998 50.52046231 0.00000000 0.00000000 0.00000000 0.00000000 
119886146 0.00000000 0.00000000 -72.49436172 49.74955371 0.00000000 0.00000000 0.00000000 0.00000000 
121803664 0.00000000 0.00000000 -80.00000000 97.26351544 0.00000000 0.00000000 0.00000000 0.00000000 
123721184 0.00000000 0.00000000 -68.42954675 152.49474830 0.00000000 0.00000000 0.00000000 0.00000000 
125638702 0.00000000 0.00000000 -75.14653931 -130.30174296 0.00000000 0.00000000 0.00000000 0.00000000 
127556220 0.00000000 0.00000000 -72.18347724 -5.23489829 0.00000000 0.00000000 0.00000000 0.00000000 
129473738 0.00000000 0.00000000 -71.96092774 17.20424730 0.00000000 0.00000000 0.00000000 0.00000000 
131391258 0.00000000 0.00000000 -68.60470885 46.45592604 0.00000000 0.00000000 0.00000000 0.00000000 
133308776 0.00000000 0.00000000 -71.14997825 149.18141840 0.00000000 0.00000000 0.00000000 0.00000000 
135226294 0.00000000 0.00000000 -66.25546039 94.67426303 0.00000000 0.00000000 0.00000000 0.00000000 
137143812 0.00000000 0.00000000 -73.79537455 68.95552329 0.00000000 0.00000000 0.00000000 0.00000000 
139061332 0.00000000 0.00000000 -76.54689632 145.81714604 0.00000000 0.00000000 0.00000000 0.00000000 
140978850 0.00000000 0.00000000 -71.87617656 117.79688761 0.00000000 0.00000000 0.00000000 0.00000000 
142896368 0.00000000 0.00000000 -67.05514420 101.59085297 0.00000000 0.00000000 0.00000000 0.00000000 
144813886 0.00000000 0.00000000 -68.91283688 165.77379101 0.00000000 0.00000000 0.00000000 0.00000000 
146731406 0.00000000 0.00000000 -64.78947712 167.59280940 0.00000000 0.00000000 0.00000000 0.00000000 
148648924 0.00000000 0.00000000 -66.71258275 127.71351973 0.00000000 0.00000000 0.00000000 0.00000000 
150566442 0.00000000 0.00000000 -67.60792936 110.94019303 0.00000000 0.00000000 0.00000000 0.00000000 
152483960 0.00000000 0.00000000 -65.58496348 72.98756791 0.00000000 0.00000000 0.00000000 0.00000000 
154401480 0.00000000 0.00000000 -64.01676331 94.55302744 0.00000000 0.00000000 0.00000000 0.00000000 
156318998 0.00000000 0.00000000 -64.67683898 119.46853518 0.00000000 0.00000000 0.00000000 0.00000000 
158236516 0.00000000 0.00000000 -68.78253300 116.72400437 0.00000000 0.00000000 0.00000000 0.00000000 
160154034 0.00000000 0.00000000 -65.06324177 119.44425691 0.00000000 0.00000000 0.00000000 0.00000000 
162071554 0.00000000 0.00000000 -64.34252552 135.36360993 0.00000000 0.00000000 0.00000000 0.00000000 
163989072 0.00000000 0.00000000 -65.73756730 172.41552632 0.00000000 0.00000000 0.00000000 0.00000000 
165906590 0.00000000 0.00000000 -72.50934276 72.88730098 0.00000000 0.00000000 0.00000000 0.00000000 
167824108 0.00000000 0.00000000 -71.94443832 -138.43598765 0.00000000 0.00000000 0.00000000 0.00000000 
169741628 0.00000000 0.00000000 -72.34875943 29.65896028 0.00000000 0.00000000 0.00000000 0.00000000 
171659146 0.00000000 0.00000000 -76.71143332 103.79883548 0.00000000 0.00000000 0.00000000 0.00000000 
173576664 0.00000000 0.00000000 -80.00000000 160.43013669 0.00000000 0.00000000 0.00000000 0.00000000 
175494182 0.00000000 0.00000000 -80.00000000 33.22990687 0.00000000 0.00000000 0.00000000 0.00000000 
177411702 0.00000000 0.00000000 -77.29472374 -58.87082578 0.00000000 0.00000000 0.00000000 0.00000000 
179329220 0.00000000 0.00000000 -77.59629482 11.83977570 0.00000000 0.00000000 0.00000000 0.00000000 
181246738 0.00000000 0.00000000 -80.00000000 -70.51945819 0.00000000 0.00000000 0.00000000 0.00000000 
183164256 0.00000000 0.00000000 -66.44257431 154.51241434 0.00000000 0.00000000 0.00000000 0.00000000 
185081776 0.00000000 0.00000000 -69.56083550 -134.90859438 0.00000000 0.00000000 0.00000000 0.00000000 
186999294 0.00000000 0.00000000 -76.22649724 -38.48867832 0.00000000 0.00000000 0.00000000 0.00000000 
188916812 0.00000000 0.00000000 -73.15842359 108.85486455 0.00000000 0.00000000 0.00000000 0.00000000 
190834330 0.00000000 0.00000000 -74.34890019 116.24371455 0.00000000 0.00000000 0.00000000 0.00000000 
192751850 0.00000000 0.00000000 -66.36455053 114.59756745 0.00000000 0.00000000 0.00000000 0.00000000 
194669368 0.00000000 0.00000000 -71.19016035 107.25042709 0.00000000 0.00000000 0.00000000 0.00000000 
196586886 0.00000000 0.00000000 -73.36526862 161.40747282 0.00000000 0.00000000 0.00000000 0.00000000 
198504404 0.00000000 0.00000000 -72.11719294 -155.71031705 0.00000000 0.00000000 0.00000000 0.00000000 
200421924 0.00000000 0.00000000 -76.19237717 -129.71788403 0.00000000 0.00000000 0.00000000 0.00000000 
202339442 0.00000000 0.00000000 -69.58456036 -136.21682762 0.00000000 0.00000000 0.00000000 0.00000000 
204256960 0.00000000 0.00000000 -67.37550226 -130.85213343 0.00000000 0.00000000 0.00000000 0.00000000 
206174478 0.00000000 0.00000000 -80.00000000 123.55679841 0.00000000 0.00000000 0.00000000 0.00000000 
208091998 0.00000000 0.00000000 -73.41433227 -178.78247639 0.00000000 0.00000000 0.00000000 0.00000000 
210009516 0.00000000 0.00000000 -75.71384838 -66.72116477 0.00000000 0.00000000 0.00000000 0.00000000 
211927034 0.00000000 0.00000000 -68.99940421 -112.71877983 0.00000000 0.00000000 0.00000000 0.00000000 
213844552 0.00000000 0.00000000 -67.06513468 -69.52857188 0.00000000 0.00000000 0.00000000 0.00000000 
215762072 0.00000000 0.00000000 -60.39277442 -58.06105904 0.00000000 0.00000000 0.00000000 0.00000000 
217679590 0.00000000 0.00000000 -65.24693611 -59.32890059 0.00000000 0.00000000 0.00000000 0.00000000 
219597108 0.00000000 0.00000000 -68.53304645 -33.03149454 0.00000000 0.00000000 0.00000000 0.00000000 
221514626 0.00000000 0.00000000 -64.51664479 -34.72431557 0.00000000 0.00000000 0.00000000 0.00000000 
223432146 0.00000000 0.00000000 -68.76878937 -21.74626512 0.00000000 0.00000000 0.00000000 0.00000000 
225349664 0.00000000 0.00000000 -76.91494058 64.68645701 0.00000000 0.00000000 0.00000000 0.00000000 
227267182 0.00000000 0.00000000 -68.47868217 66.52775717 0.00000000 0.00000000 0.00000000 0.00000000 
229184700 0.00000000 0.00000000 -69.11912438 76.90138311 0.00000000 0.00000000 0.00000000 0.00000000 
231102220 0.00000000 0.00000000 -63.33259626 71.17180933 0.00000000 0.00000000 0.00000000 0.00000000 
233019738 0.00000000 0.00000000 -70.42202860 71.04879372 0.00000000 0.00000000 0.00000000 0.00000000 
234937256 0.00000000 0.00000000 -68.65147724 55.15081890 0.00000000 0.00000000 0.00000000 0.00000000 
236854774 0.00000000 0.00000000 -69.38882311 110.26305065 0.00000000 0.00000000 0.00000000 0.00000000 
238772294 0.00000000 0.00000000 -74.13227555 -38.89865283 0.00000000 0.00000000 0.00000000 0.00000000 
240689812 0.00000000 0.00000000 -73.21408474 73.17913929 0.00000000 0.00000000 0.00000000 0.00000000 
242607330 0.00000000 0.00000000 -68.09729913 62.74233544 0.00000000 0.00000000 0.00000000 0.00000000 
244524848 0.00000000 0.00000000 -64.21815326 99.17664121 0.00000000 0.00000000 0.00000000 0.00000000 
246442368 0.00000000 0.00000000 -60.31303150 106.93633019 0.00000000 0.00000000 0.00000000 0.00000000 
248359886 0.00000000 0.00000000 -63.99964158 85.28434519 0.00000000 0.00000000 0.00000000 0.00000000 
250277404 0.00000000 0.00000000 -77.34583983 99.21185655 0.00000000 0.00000000 0.00000000 0.00000000 
252194922 0.00000000 0.00000000 -67.62448754 74.49328273 0.00000000 0.00000000 0.00000000 0.00000000 
254112442 0.00000000 0.00000000 -71.73049965 69.15811636 0.00000000 0.00000000 0.00000000 0.00000000 
256029960 0.00000000 0.00000000 -71.70111952 117.07139030 0.00000000 0.00000000 0.00000000 0.00000000 
257947478 0.00000000 0.00000000 -80.00000000 176.04527747 0.00000000 0.00000000 0.00000000 0.00000000 
259864996 0.00000000 0.00000000 -80.00000000 -88.69405917 0.00000000 0.00000000 0.00000000 0.00000000 
261782516 0.00000000 0.00000000 -76.78869429 173.01816361 0.00000000 0.00000000 0.00000000 0.00000000 
263700034 0.00000000 0.00000000 -80.00000000 6.65679903 0.00000000 0.00000000 0.00000000 0.00000000 
265617552 0.00000000 0.00000000 -66.81434629 86.53535095 0.00000000 0.00000000 0.00000000 0.00000000 
267535070 0.00000000 0.00000000 -61.27031415 65.83855649 0.00000000 0.00000000 0.00000000 0.00000000 
269452590 0.00000000 0.00000000 -59.22536996 73.86806501 0.00000000 0.00000000 0.00000000 0.00000000 
271370108 0.00000000 0.00000000 -63.47903100 55.22284386 0.00000000 0.00000000 0.00000000 0.00000000 
273287626 0.00000000 0.00000000 -63.57074595 64.32520272 0.00000000 0.00000000 0.00000000 0.00000000 
275205144 0.00000000 0.00000000 -63.82885141 78.11905879 0.00000000 0.00000000 0.00000000 0.00000000 
277122664 0.00000000 0.00000000 -70.38069788 -0.76743450 0.00000000 0.00000000 0.00000000 0.00000000 
279040182 0.00000000 0.00000000 -62.27548333 34.11961338 0.00000000 0.00000000 0.00000000 0.00000000 
280957700 0.00000000 0.00000000 -63.39138275 94.46361569 0.00000000 0.00000000 0.00000000 0.00000000 
282875218 0.00000000 0.00000000 -63.46673923 56.10749155 0.00000000 0.00000000 0.00000000 0.00000000 
284792738 0.00000000 0.00000000 -61.70386473 74.69349629 0.00000000 0.00000000 0.00000000 0.00000000 
286710256 0.00000000 0.00000000 -67.46771738 52.98941323 0.00000000 0.00000000 0.00000000 0.00000000 
288627774 0.00000000 0.00000000 -67.59336824 85.58847679 0.00000000 0.00000000 0.00000000 0.00000000 
290545292 0.00000000 0.00000000 -68.11893547 -2.94559160 0.00000000 0.00000000 0.00000000 0.00000000 
292462812 0.00000000 0.00000000 -67.38593878 37.59506485 0.00000000 0.00000000 0.00000000 0.00000000 
294380330 0.00000000 0.00000000 -71.45897403 -178.07401739 0.00000000 0.00000000 0.00000000 0.00000000 
296297848 0.00000000 0.00000000 -66.60182604 -51.06945042 0.00000000 0.00000000 0.00000000 0.00000000 
298215366 0.00000000 0.00000000 -75.32791261 -175.46067862 0.00000000 0.00000000 0.00000000 0.00000000 
300132886 0.00000000 0.00000000 -80.00000000 -145.04756855 0.00000000 0.00000000 0.00000000 0.00000000 
302050404 0.00000000 0.00000000 -73.86589399 -34.97463301 0.00000000 0.00000000 0.00000000 0.00000000 
303967922 0.00000000 0.00000000 -68.81071624 -18.84374085 0.00000000 0.00000000 0.00000000 0.00000000 
305885440 0.00000000 0.00000000 -68.57241127 19.45544839 0.00000000 0.00000000 0.00000000 0.00000000 
307802960 0.00000000 0.00000000 -64.01996819 5.72067283 0.00000000 0.00000000 0.00000000 0.00000000 
309720478 0.00000000 0.00000000 -63.01631281 31.72941341 0.00000000 0.00000000 0.00000000 0.00000000 
311637996 0.00000000 0.00000000 -63.77695099 37.44877482 0.00000000 0.00000000 0.00000000 0.00000000 
313555514 0.00000000 0.00000000 -62.33827653 39.20390687 0.00000000 0.00000000 0.00000000 0.00000000 
315473034 0.00000000 0.00000000 -65.01183593 51.15628454 0.00000000 0.00000000 0.00000000 0.00000000 
317390552 0.00000000 0.00000000 -67.25147170 21.33605317 0.00000000 0.00000000 0.00000000 0.00000000 
319308070 0.00000000 0.00000000 -70.20347515 54.50722133 0.00000000 0.00000000 0.00000000 0.00000000 
321225588 0.00000000 0.00000000 -63.98490822 38.70465124 0.00000000 0.00000000 0.00000000 0.00000000 
323143108 0.00000000 0.00000000 -80.00000000 44.34858739 0.00000000 0.00000000 0.00000000 0.00000000 
325060626 0.00000000 0.00000000 -69.97747674 96.63508221 0.00000000 0.00000000 0.00000000 0.00000000 
326978144 0.00000000 0.00000000 -70.70146326 52.91310302 0.00000000 0.00000000 0.00000000 0.00000000 
328895662 0.00000000 0.00000000 -66.73098575 28.10989261 0.00000000 0.00000000 0.00000000 0.00000000 
330813182 0.00000000 0.00000000 -67.56795589 64.21496112 0.00000000 0.00000000 0.00000000 0.00000000 
332730700 0.00000000 0.00000000 -73.40786928 110.92592221 0.00000000 0.00000000 0.00000000 0.00000000 
334648218 0.00000000 0.00000000 -70.36966009 146.64374683 0.00000000 0.00000000 0.00000000 0.00000000 
336565736 0.00000000 0.00000000 -69.05040937 106.37567587 0.00000000 0.00000000 0.00000000 0.00000000 
338483256 0.00000000 0.00000000 -64.97132928 162.19236331 0.00000000 0.00000000 0.00000000 0.00000000 
340400774 0.00000000 0.00000000 -62.08853576 164.45390062 0.00000000 0.00000000 0.00000000 0.00000000 
342318292 0.00000000 0.00000000 -59.47371571 168.87875634 0.00000000 0.00000000 0.00000000 0.00000000 
344235810 0.00000000 0.00000000 -63.01983008 173.59993743 0.00000000 0.00000000 0.00000000 0.00000000 
346153330 0.00000000 0.00000000 -59.07609199 175.58882569 0.00000000 0.00000000 0.00000000 0.00000000 
348070848 0.00000000 0.00000000 -64.60444930 158.83163040 0.00000000 0.00000000 0.00000000 0.00000000 
349988366 0.00000000 0.00000000 -63.17718371 152.74707889 0.00000000 0.00000000 0.00000000 0.00000000 
351905884 0.00000000 0.00000000 -64.46141647 139.90145762 0.00000000 0.00000000 0.00000000 0.00000000 
353823404 0.00000000 0.00000000 -62.70501767 146.05453481 0.00000000 0.00000000 0.00000000 0.00000000 
355740922 0.00000000 0.00000000 -66.62799835 110.40334588 0.00000000 0.00000000 0.00000000 0.00000000 
357658440 0.00000000 0.00000000 -63.09770317 94.84510754 0.00000000 0.00000000 0.00000000 0.00000000 
359575958 0.00000000 0.00000000 -65.78762536 122.66124469 0.00000000 0.00000000 0.00000000 0.00000000 
361493478 0.00000000 0.00000000 -63.23851156 112.93709027 0.00000000 0.00000000 0.00000000 0.00000000 
363410996 0.00000000 0.00000000 -62.11479022 74.87220996 0.00000000 0.00000000 0.00000000 0.00000000 
365328514 0.00000000 0.00000000 -61.01872904 62.97497236 0.00000000 0.00000000 0.00000000 0.00000000 
367246032 0.00000000 0.00000000 -59.71030516 86.33128526 0.00000000 0.00000000 0.00000000 0.00000000 
369163552 0.00000000 0.00000000 -57.81195841 72.47928527 0.00000000 0.00000000 0.00000000 0.00000000 
