! created by ADMIN at Mon Apr 20 18:36:19 IST 2026
! generated using vna/J Version 3.2.10
# Hz S DB R 50
001000000 0.00000000 0.00000000 -61.67696928 9.84591315 0.00000000 0.00000000 0.00000000 0.00000000 
002917518 0.00000000 0.00000000 -67.10141685 29.35561170 0.00000000 0.00000000 0.00000000 0.00000000 
004835036 0.00000000 0.00000000 -71.13836291 51.41513589 0.00000000 0.00000000 0.00000000 0.00000000 
006752554 0.00000000 0.00000000 -72.01892409 13.43152440 0.00000000 0.00000000 0.00000000 0.00000000 
008670074 0.00000000 0.00000000 -73.72744731 -173.24295504 0.00000000 0.00000000 0.00000000 0.00000000 
010587592 0.00000000 0.00000000 -76.10535904 126.29023191 0.00000000 0.00000000 0.00000000 0.00000000 
012505110 0.00000000 0.00000000 -76.73049379 137.06559670 0.00000000 0.00000000 0.00000000 0.00000000 
014422628 0.00000000 0.00000000 -76.09934497 165.49722248 0.00000000 0.00000000 0.00000000 0.00000000 
016340148 0.00000000 0.00000000 -77.60557287 -157.78784682 0.00000000 0.00000000 0.00000000 0.00000000 
018257666 0.00000000 0.00000000 -80.00000000 60.72967330 0.00000000 0.00000000 0.00000000 0.00000000 
020175184 0.00000000 0.00000000 -80.00000000 34.88803021 0.00000000 0.00000000 0.00000000 0.00000000 
022092702 0.00000000 0.00000000 -78.67417226 8.22812576 0.00000000 0.00000000 0.00000000 0.00000000 
024010222 0.00000000 0.00000000 -74.18603574 -142.57748927 0.00000000 0.00000000 0.00000000 0.00000000 
025927740 0.00000000 0.00000000 -74.14677876 -23.01070350 0.00000000 0.00000000 0.00000000 0.00000000 
027845258 0.00000000 0.00000000 -76.10972844 174.08263358 0.00000000 0.00000000 0.00000000 0.00000000 
029762776 0.00000000 0.00000000 -70.48115321 -177.95708865 0.00000000 0.00000000 0.00000000 0.00000000 
031680296 0.00000000 0.00000000 -76.06662676 110.21197913 0.00000000 0.00000000 0.00000000 0.00000000 
033597814 0.00000000 0.00000000 -71.94757072 -163.23370265 0.00000000 0.00000000 0.00000000 0.00000000 
035515332 0.00000000 0.00000000 -72.76515610 169.93439756 0.00000000 0.00000000 0.00000000 0.00000000 
037432850 0.00000000 0.00000000 -66.87014807 -164.70503219 0.00000000 0.00000000 0.00000000 0.00000000 
039350370 0.00000000 0.00000000 -70.89407929 -175.26285682 0.00000000 0.00000000 0.00000000 0.00000000 
041267888 0.00000000 0.00000000 -71.40072146 -159.00676374 0.00000000 0.00000000 0.00000000 0.00000000 
043185406 0.00000000 0.00000000 -70.04363581 -150.81081570 0.00000000 0.00000000 0.00000000 0.00000000 
045102924 0.00000000 0.00000000 -74.81540019 138.19023931 0.00000000 0.00000000 0.00000000 0.00000000 
047020444 0.00000000 0.00000000 -80.00000000 -102.98751991 0.00000000 0.00000000 0.00000000 0.00000000 
048937962 0.00000000 0.00000000 -78.09883510 -171.01065900 0.00000000 0.00000000 0.00000000 0.00000000 
050855480 0.00000000 0.00000000 -80.00000000 4.17091608 0.00000000 0.00000000 0.00000000 0.00000000 
052772998 0.00000000 0.00000000 -71.79294810 -3.60139372 0.00000000 0.00000000 0.00000000 0.00000000 
054690518 0.00000000 0.00000000 -67.15477271 25.79277077 0.00000000 0.00000000 0.00000000 0.00000000 
056608036 0.00000000 0.00000000 -66.09415351 67.10896869 0.00000000 0.00000000 0.00000000 0.00000000 
058525554 0.00000000 0.00000000 -71.90747042 64.17329676 0.00000000 0.00000000 0.00000000 0.00000000 
060443072 0.00000000 0.00000000 -69.63414928 26.83650607 0.00000000 0.00000000 0.00000000 0.00000000 
062360592 0.00000000 0.00000000 -76.13026683 44.91291209 0.00000000 0.00000000 0.00000000 0.00000000 
064278110 0.00000000 0.00000000 -75.31034098 87.29966551 0.00000000 0.00000000 0.00000000 0.00000000 
066195628 0.00000000 0.00000000 -70.01543931 -128.55335710 0.00000000 0.00000000 0.00000000 0.00000000 
068113146 0.00000000 0.00000000 -73.50165404 -105.65454629 0.00000000 0.00000000 0.00000000 0.00000000 
070030666 0.00000000 0.00000000 -78.47817659 -91.18055107 0.00000000 0.00000000 0.00000000 0.00000000 
071948184 0.00000000 0.00000000 -67.45139263 -69.52248240 0.00000000 0.00000000 0.00000000 0.00000000 
073865702 0.00000000 0.00000000 -68.35937576 -57.82986044 0.00000000 0.00000000 0.00000000 0.00000000 
075783220 0.00000000 0.00000000 -68.37261653 -29.00265403 0.00000000 0.00000000 0.00000000 0.00000000 
077700740 0.00000000 0.00000000 -66.11414067 -0.76901744 0.00000000 0.00000000 0.00000000 0.00000000 
079618258 0.00000000 0.00000000 -65.91358616 -15.42200313 0.00000000 0.00000000 0.00000000 0.00000000 
081535776 0.00000000 0.00000000 -65.42116387 17.71167546 0.00000000 0.00000000 0.00000000 0.00000000 
083453294 0.00000000 0.00000000 -65.97009635 3.30748376 0.00000000 0.00000000 0.00000000 0.00000000 
085370814 0.00000000 0.00000000 -71.83114569 15.81556853 0.00000000 0.00000000 0.00000000 0.00000000 
087288332 0.00000000 0.00000000 -74.67922984 -34.08659195 0.00000000 0.00000000 0.00000000 0.00000000 
089205850 0.00000000 0.00000000 -69.35314162 66.15470009 0.00000000 0.00000000 0.00000000 0.00000000 
091123368 0.00000000 0.00000000 -71.46856829 80.94375241 0.00000000 0.00000000 0.00000000 0.00000000 
093040888 0.00000000 0.00000000 -69.64488076 137.86062902 0.00000000 0.00000000 0.00000000 0.00000000 
094958406 0.00000000 0.00000000 -70.08672515 150.16249939 0.00000000 0.00000000 0.00000000 0.00000000 
096875924 0.00000000 0.00000000 -72.46810360 150.44002724 0.00000000 0.00000000 0.00000000 0.00000000 
098793442 0.00000000 0.00000000 -75.37998629 170.09758701 0.00000000 0.00000000 0.00000000 0.00000000 
100710962 0.00000000 0.00000000 -74.05280311 -153.65484687 0.00000000 0.00000000 0.00000000 0.00000000 
102628480 0.00000000 0.00000000 -73.51248485 84.40098710 0.00000000 0.00000000 0.00000000 0.00000000 
104545998 0.00000000 0.00000000 -71.32620615 120.07251843 0.00000000 0.00000000 0.00000000 0.00000000 
106463516 0.00000000 0.00000000 -68.11993756 111.46655623 0.00000000 0.00000000 0.00000000 0.00000000 
108381036 0.00000000 0.00000000 -62.66662985 65.16326777 0.00000000 0.00000000 0.00000000 0.00000000 
110298554 0.00000000 0.00000000 -67.00238893 101.62142581 0.00000000 0.00000000 0.00000000 0.00000000 
112216072 0.00000000 0.00000000 -63.10889164 103.60762891 0.00000000 0.00000000 0.00000000 0.00000000 
114133590 0.00000000 0.00000000 -64.69597692 132.32580676 0.00000000 0.00000000 0.00000000 0.00000000 
116051110 0.00000000 0.00000000 -66.96598047 94.07565020 0.00000000 0.00000000 0.00000000 0.00000000 
117968628 0.00000000 0.00000000 -69.16784574 97.74385100 0.00000000 0.00000000 0.00000000 0.00000000 
119886146 0.00000000 0.00000000 -73.59601493 57.61700567 0.00000000 0.00000000 0.00000000 0.00000000 
121803664 0.00000000 0.00000000 -72.20838659 19.05029244 0.00000000 0.00000000 0.00000000 0.00000000 
123721184 0.00000000 0.00000000 -67.43670095 70.67850866 0.00000000 0.00000000 0.00000000 0.00000000 
125638702 0.00000000 0.00000000 -78.76313324 1.14490586 0.00000000 0.00000000 0.00000000 0.00000000 
127556220 0.00000000 0.00000000 -71.37244955 -8.83506043 0.00000000 0.00000000 0.00000000 0.00000000 
129473738 0.00000000 0.00000000 -74.47529714 -54.09352011 0.00000000 0.00000000 0.00000000 0.00000000 
131391258 0.00000000 0.00000000 -73.45878013 -80.06647656 0.00000000 0.00000000 0.00000000 0.00000000 
133308776 0.00000000 0.00000000 -65.05688725 -150.49600620 0.00000000 0.00000000 0.00000000 0.00000000 
135226294 0.00000000 0.00000000 -68.92611135 161.92154539 0.00000000 0.00000000 0.00000000 0.00000000 
137143812 0.00000000 0.00000000 -69.41473177 -150.78910915 0.00000000 0.00000000 0.00000000 0.00000000 
139061332 0.00000000 0.00000000 -63.91626178 -153.83487584 0.00000000 0.00000000 0.00000000 0.00000000 
140978850 0.00000000 0.00000000 -66.14621433 -163.10635218 0.00000000 0.00000000 0.00000000 0.00000000 
142896368 0.00000000 0.00000000 -68.78717963 166.98389298 0.00000000 0.00000000 0.00000000 0.00000000 
144813886 0.00000000 0.00000000 -64.68242148 -156.52640048 0.00000000 0.00000000 0.00000000 0.00000000 
146731406 0.00000000 0.00000000 -63.04323126 -167.76172925 0.00000000 0.00000000 0.00000000 0.00000000 
148648924 0.00000000 0.00000000 -67.59400403 -160.10426428 0.00000000 0.00000000 0.00000000 0.00000000 
150566442 0.00000000 0.00000000 -68.06596313 -116.88284588 0.00000000 0.00000000 0.00000000 0.00000000 
152483960 0.00000000 0.00000000 -65.51375837 -59.60679525 0.00000000 0.00000000 0.00000000 0.00000000 
154401480 0.00000000 0.00000000 -64.59037428 -62.65163327 0.00000000 0.00000000 0.00000000 0.00000000 
156318998 0.00000000 0.00000000 -66.81183006 -87.26612915 0.00000000 0.00000000 0.00000000 0.00000000 
158236516 0.00000000 0.00000000 -66.26641436 -79.39611899 0.00000000 0.00000000 0.00000000 0.00000000 
160154034 0.00000000 0.00000000 -73.01305903 -121.05754823 0.00000000 0.00000000 0.00000000 0.00000000 
162071554 0.00000000 0.00000000 -67.37464086 -156.51341373 0.00000000 0.00000000 0.00000000 0.00000000 
163989072 0.00000000 0.00000000 -65.17438964 -141.39383103 0.00000000 0.00000000 0.00000000 0.00000000 
165906590 0.00000000 0.00000000 -76.99152379 -1.79404557 0.00000000 0.00000000 0.00000000 0.00000000 
167824108 0.00000000 0.00000000 -70.67793760 -126.62261797 0.00000000 0.00000000 0.00000000 0.00000000 
169741628 0.00000000 0.00000000 -72.85457556 57.64460248 0.00000000 0.00000000 0.00000000 0.00000000 
171659146 0.00000000 0.00000000 -72.45771822 146.95415236 0.00000000 0.00000000 0.00000000 0.00000000 
173576664 0.00000000 0.00000000 -70.45750312 -162.36481384 0.00000000 0.00000000 0.00000000 0.00000000 
175494182 0.00000000 0.00000000 -69.81172997 -136.07365159 0.00000000 0.00000000 0.00000000 0.00000000 
177411702 0.00000000 0.00000000 -65.95853658 -109.80449622 0.00000000 0.00000000 0.00000000 0.00000000 
179329220 0.00000000 0.00000000 -71.20744803 -93.31982192 0.00000000 0.00000000 0.00000000 0.00000000 
181246738 0.00000000 0.00000000 -70.36563525 -98.46075059 0.00000000 0.00000000 0.00000000 0.00000000 
183164256 0.00000000 0.00000000 -66.86306035 172.01497840 0.00000000 0.00000000 0.00000000 0.00000000 
185081776 0.00000000 0.00000000 -68.84220147 -129.40432617 0.00000000 0.00000000 0.00000000 0.00000000 
186999294 0.00000000 0.00000000 -71.27603888 -55.12751075 0.00000000 0.00000000 0.00000000 0.00000000 
188916812 0.00000000 0.00000000 -80.00000000 6.16454616 0.00000000 0.00000000 0.00000000 0.00000000 
190834330 0.00000000 0.00000000 -77.86772428 -50.75436858 0.00000000 0.00000000 0.00000000 0.00000000 
192751850 0.00000000 0.00000000 -77.52399492 62.58466687 0.00000000 0.00000000 0.00000000 0.00000000 
194669368 0.00000000 0.00000000 -75.01290879 41.64305351 0.00000000 0.00000000 0.00000000 0.00000000 
196586886 0.00000000 0.00000000 -79.17202190 135.96048092 0.00000000 0.00000000 0.00000000 0.00000000 
198504404 0.00000000 0.00000000 -72.68503974 172.51699100 0.00000000 0.00000000 0.00000000 0.00000000 
200421924 0.00000000 0.00000000 -70.99000873 159.02694155 0.00000000 0.00000000 0.00000000 0.00000000 
202339442 0.00000000 0.00000000 -68.27947942 -166.29103221 0.00000000 0.00000000 0.00000000 0.00000000 
204256960 0.00000000 0.00000000 -67.01246161 -145.31900108 0.00000000 0.00000000 0.00000000 0.00000000 
206174478 0.00000000 0.00000000 -80.00000000 133.35620689 0.00000000 0.00000000 0.00000000 0.00000000 
208091998 0.00000000 0.00000000 -75.65983417 -173.74689612 0.00000000 0.00000000 0.00000000 0.00000000 
210009516 0.00000000 0.00000000 -75.87373565 2.16482734 0.00000000 0.00000000 0.00000000 0.00000000 
211927034 0.00000000 0.00000000 -80.00000000 171.81838170 0.00000000 0.00000000 0.00000000 0.00000000 
213844552 0.00000000 0.00000000 -73.06214557 24.90100373 0.00000000 0.00000000 0.00000000 0.00000000 
215762072 0.00000000 0.00000000 -66.40141399 -16.74920927 0.00000000 0.00000000 0.00000000 0.00000000 
217679590 0.00000000 0.00000000 -66.39119544 -55.57168836 0.00000000 0.00000000 0.00000000 0.00000000 
219597108 0.00000000 0.00000000 -61.38140109 -53.54991669 0.00000000 0.00000000 0.00000000 0.00000000 
221514626 0.00000000 0.00000000 -55.57226832 -51.62994751 0.00000000 0.00000000 0.00000000 0.00000000 
223432146 0.00000000 0.00000000 -53.88400965 -47.40347755 0.00000000 0.00000000 0.00000000 0.00000000 
225349664 0.00000000 0.00000000 -58.23626109 -46.88738776 0.00000000 0.00000000 0.00000000 0.00000000 
227267182 0.00000000 0.00000000 -62.43098484 -36.44224792 0.00000000 0.00000000 0.00000000 0.00000000 
229184700 0.00000000 0.00000000 -68.35147816 -62.07831239 0.00000000 0.00000000 0.00000000 0.00000000 
231102220 0.00000000 0.00000000 -80.00000000 -146.84104330 0.00000000 0.00000000 0.00000000 0.00000000 
233019738 0.00000000 0.00000000 -72.74039330 -89.04177584 0.00000000 0.00000000 0.00000000 0.00000000 
234937256 0.00000000 0.00000000 -72.20751948 -1.93414231 0.00000000 0.00000000 0.00000000 0.00000000 
236854774 0.00000000 0.00000000 -72.59292991 93.97982165 0.00000000 0.00000000 0.00000000 0.00000000 
238772294 0.00000000 0.00000000 -71.77625677 7.44903061 0.00000000 0.00000000 0.00000000 0.00000000 
240689812 0.00000000 0.00000000 -71.39232108 30.12647814 0.00000000 0.00000000 0.00000000 0.00000000 
242607330 0.00000000 0.00000000 -66.18991558 8.34189442 0.00000000 0.00000000 0.00000000 0.00000000 
244524848 0.00000000 0.00000000 -67.25258528 22.06010087 0.00000000 0.00000000 0.00000000 0.00000000 
246442368 0.00000000 0.00000000 -64.57790537 38.14619584 0.00000000 0.00000000 0.00000000 0.00000000 
248359886 0.00000000 0.00000000 -63.55956082 22.76160436 0.00000000 0.00000000 0.00000000 0.00000000 
250277404 0.00000000 0.00000000 -69.32643153 -20.24558700 0.00000000 0.00000000 0.00000000 0.00000000 
252194922 0.00000000 0.00000000 -70.63158134 42.65743849 0.00000000 0.00000000 0.00000000 0.00000000 
254112442 0.00000000 0.00000000 -80.00000000 153.87869171 0.00000000 0.00000000 0.00000000 0.00000000 
256029960 0.00000000 0.00000000 -74.65670018 155.30043644 0.00000000 0.00000000 0.00000000 0.00000000 
257947478 0.00000000 0.00000000 -80.00000000 -134.98828563 0.00000000 0.00000000 0.00000000 0.00000000 
259864996 0.00000000 0.00000000 -80.00000000 -13.05061810 0.00000000 0.00000000 0.00000000 0.00000000 
261782516 0.00000000 0.00000000 -75.48005452 119.23270208 0.00000000 0.00000000 0.00000000 0.00000000 
263700034 0.00000000 0.00000000 -80.00000000 84.73644951 0.00000000 0.00000000 0.00000000 0.00000000 
265617552 0.00000000 0.00000000 -68.02507832 109.66774473 0.00000000 0.00000000 0.00000000 0.00000000 
267535070 0.00000000 0.00000000 -64.75921595 77.07123825 0.00000000 0.00000000 0.00000000 0.00000000 
269452590 0.00000000 0.00000000 -63.49920884 85.25549025 0.00000000 0.00000000 0.00000000 0.00000000 
271370108 0.00000000 0.00000000 -72.34389371 80.06726158 0.00000000 0.00000000 0.00000000 0.00000000 
273287626 0.00000000 0.00000000 -68.86258514 117.73990290 0.00000000 0.00000000 0.00000000 0.00000000 
275205144 0.00000000 0.00000000 -64.92856549 142.58667594 0.00000000 0.00000000 0.00000000 0.00000000 
277122664 0.00000000 0.00000000 -65.44427558 -140.27478510 0.00000000 0.00000000 0.00000000 0.00000000 
279040182 0.00000000 0.00000000 -80.00000000 82.84951989 0.00000000 0.00000000 0.00000000 0.00000000 
280957700 0.00000000 0.00000000 -64.08826754 164.29489848 0.00000000 0.00000000 0.00000000 0.00000000 
282875218 0.00000000 0.00000000 -80.00000000 -173.72947682 0.00000000 0.00000000 0.00000000 0.00000000 
284792738 0.00000000 0.00000000 -72.91629177 125.30098639 0.00000000 0.00000000 0.00000000 0.00000000 
286710256 0.00000000 0.00000000 -80.00000000 -85.08868237 0.00000000 0.00000000 0.00000000 0.00000000 
288627774 0.00000000 0.00000000 -72.41730601 136.39868143 0.00000000 0.00000000 0.00000000 0.00000000 
290545292 0.00000000 0.00000000 -74.41418010 -27.09771096 0.00000000 0.00000000 0.00000000 0.00000000 
292462812 0.00000000 0.00000000 -68.73430128 83.96825078 0.00000000 0.00000000 0.00000000 0.00000000 
294380330 0.00000000 0.00000000 -66.20753975 166.36998350 0.00000000 0.00000000 0.00000000 0.00000000 
296297848 0.00000000 0.00000000 -72.05661518 -49.23087357 0.00000000 0.00000000 0.00000000 0.00000000 
298215366 0.00000000 0.00000000 -69.43084853 136.40030386 0.00000000 0.00000000 0.00000000 0.00000000 
300132886 0.00000000 0.00000000 -70.20077983 110.88555988 0.00000000 0.00000000 0.00000000 0.00000000 
302050404 0.00000000 0.00000000 -79.24565986 115.32331306 0.00000000 0.00000000 0.00000000 0.00000000 
303967922 0.00000000 0.00000000 -80.00000000 -95.73958553 0.00000000 0.00000000 0.00000000 0.00000000 
305885440 0.00000000 0.00000000 -80.00000000 -170.77443950 0.00000000 0.00000000 0.00000000 0.00000000 
307802960 0.00000000 0.00000000 -69.87831960 -65.43083013 0.00000000 0.00000000 0.00000000 0.00000000 
309720478 0.00000000 0.00000000 -77.10612440 -37.20327889 0.00000000 0.00000000 0.00000000 0.00000000 
311637996 0.00000000 0.00000000 -75.09060903 -74.06599333 0.00000000 0.00000000 0.00000000 0.00000000 
313555514 0.00000000 0.00000000 -71.90906552 -47.47683068 0.00000000 0.00000000 0.00000000 0.00000000 
315473034 0.00000000 0.00000000 -69.39631967 -89.93851398 0.00000000 0.00000000 0.00000000 0.00000000 
317390552 0.00000000 0.00000000 -64.34695274 -59.59332341 0.00000000 0.00000000 0.00000000 0.00000000 
319308070 0.00000000 0.00000000 -67.71012752 -43.12906124 0.00000000 0.00000000 0.00000000 0.00000000 
321225588 0.00000000 0.00000000 -62.07200441 4.06697689 0.00000000 0.00000000 0.00000000 0.00000000 
323143108 0.00000000 0.00000000 -66.34771114 -5.09200561 0.00000000 0.00000000 0.00000000 0.00000000 
325060626 0.00000000 0.00000000 -67.43979984 60.41584260 0.00000000 0.00000000 0.00000000 0.00000000 
326978144 0.00000000 0.00000000 -66.77823694 60.72800378 0.00000000 0.00000000 0.00000000 0.00000000 
328895662 0.00000000 0.00000000 -66.10201915 61.92715773 0.00000000 0.00000000 0.00000000 0.00000000 
330813182 0.00000000 0.00000000 -64.06872892 110.85967636 0.00000000 0.00000000 0.00000000 0.00000000 
332730700 0.00000000 0.00000000 -67.49416790 138.03883722 0.00000000 0.00000000 0.00000000 0.00000000 
334648218 0.00000000 0.00000000 -69.10445973 149.08197172 0.00000000 0.00000000 0.00000000 0.00000000 
336565736 0.00000000 0.00000000 -69.19565945 81.28961793 0.00000000 0.00000000 0.00000000 0.00000000 
338483256 0.00000000 0.00000000 -70.61114597 129.60308522 0.00000000 0.00000000 0.00000000 0.00000000 
340400774 0.00000000 0.00000000 -66.48469268 137.50512865 0.00000000 0.00000000 0.00000000 0.00000000 
342318292 0.00000000 0.00000000 -63.08534081 146.55510838 0.00000000 0.00000000 0.00000000 0.00000000 
344235810 0.00000000 0.00000000 -67.82965096 120.75951747 0.00000000 0.00000000 0.00000000 0.00000000 
346153330 0.00000000 0.00000000 -62.51621146 142.34734923 0.00000000 0.00000000 0.00000000 0.00000000 
348070848 0.00000000 0.00000000 -66.23428188 93.14985439 0.00000000 0.00000000 0.00000000 0.00000000 
349988366 0.00000000 0.00000000 -65.89550724 95.88153221 0.00000000 0.00000000 0.00000000 0.00000000 
351905884 0.00000000 0.00000000 -65.42684540 70.05544505 0.00000000 0.00000000 0.00000000 0.00000000 
353823404 0.00000000 0.00000000 -65.97079122 74.09693149 0.00000000 0.00000000 0.00000000 0.00000000 
355740922 0.00000000 0.00000000 -64.55298573 49.11833984 0.00000000 0.00000000 0.00000000 0.00000000 
357658440 0.00000000 0.00000000 -63.35925670 60.98066891 0.00000000 0.00000000 0.00000000 0.00000000 
359575958 0.00000000 0.00000000 -75.23552398 91.56483155 0.00000000 0.00000000 0.00000000 0.00000000 
361493478 0.00000000 0.00000000 -74.08492488 108.00137665 0.00000000 0.00000000 0.00000000 0.00000000 
363410996 0.00000000 0.00000000 -67.36498388 52.74391450 0.00000000 0.00000000 0.00000000 0.00000000 
365328514 0.00000000 0.00000000 -66.55864043 49.17062698 0.00000000 0.00000000 0.00000000 0.00000000 
367246032 0.00000000 0.00000000 -65.20204470 107.89976819 0.00000000 0.00000000 0.00000000 0.00000000 
369163552 0.00000000 0.00000000 -64.40725509 86.06589353 0.00000000 0.00000000 0.00000000 0.00000000 
