! created by ADMIN at Tue Apr 21 15:35:39 IST 2026
! generated using vna/J Version 3.2.10
# Hz S DB R 50
001000000 0.00000000 0.00000000 -71.31870104 30.34927879 0.00000000 0.00000000 0.00000000 0.00000000 
002917518 0.00000000 0.00000000 -80.00000000 20.12454563 0.00000000 0.00000000 0.00000000 0.00000000 
004835036 0.00000000 0.00000000 -80.00000000 1.78856027 0.00000000 0.00000000 0.00000000 0.00000000 
006752554 0.00000000 0.00000000 -68.26657393 -12.35306701 0.00000000 0.00000000 0.00000000 0.00000000 
008670074 0.00000000 0.00000000 -77.74631659 -33.89922030 0.00000000 0.00000000 0.00000000 0.00000000 
010587592 0.00000000 0.00000000 -70.16050490 20.52343447 0.00000000 0.00000000 0.00000000 0.00000000 
012505110 0.00000000 0.00000000 -68.38072222 19.60855990 0.00000000 0.00000000 0.00000000 0.00000000 
014422628 0.00000000 0.00000000 -67.63291206 18.75865849 0.00000000 0.00000000 0.00000000 0.00000000 
016340148 0.00000000 0.00000000 -65.86669386 15.55590804 0.00000000 0.00000000 0.00000000 0.00000000 
018257666 0.00000000 0.00000000 -63.18827786 29.07598332 0.00000000 0.00000000 0.00000000 0.00000000 
020175184 0.00000000 0.00000000 -62.13484710 38.94328283 0.00000000 0.00000000 0.00000000 0.00000000 
022092702 0.00000000 0.00000000 -61.19430201 44.65302712 0.00000000 0.00000000 0.00000000 0.00000000 
024010222 0.00000000 0.00000000 -63.83733722 64.99391800 0.00000000 0.00000000 0.00000000 0.00000000 
025927740 0.00000000 0.00000000 -61.71714476 37.08074609 0.00000000 0.00000000 0.00000000 0.00000000 
027845258 0.00000000 0.00000000 -64.21777411 46.93731722 0.00000000 0.00000000 0.00000000 0.00000000 
029762776 0.00000000 0.00000000 -65.16126765 38.39422968 0.00000000 0.00000000 0.00000000 0.00000000 
031680296 0.00000000 0.00000000 -60.09311774 30.98198657 0.00000000 0.00000000 0.00000000 0.00000000 
033597814 0.00000000 0.00000000 -64.50110625 -0.59821914 0.00000000 0.00000000 0.00000000 0.00000000 
035515332 0.00000000 0.00000000 -63.62295368 -16.32547313 0.00000000 0.00000000 0.00000000 0.00000000 
037432850 0.00000000 0.00000000 -61.37060486 -47.99757054 0.00000000 0.00000000 0.00000000 0.00000000 
039350370 0.00000000 0.00000000 -58.23736473 -38.53645973 0.00000000 0.00000000 0.00000000 0.00000000 
041267888 0.00000000 0.00000000 -59.24183579 -40.97298434 0.00000000 0.00000000 0.00000000 0.00000000 
043185406 0.00000000 0.00000000 -60.36797848 -49.12096926 0.00000000 0.00000000 0.00000000 0.00000000 
045102924 0.00000000 0.00000000 -62.62525059 -38.20450933 0.00000000 0.00000000 0.00000000 0.00000000 
047020444 0.00000000 0.00000000 -60.77934867 -51.18628302 0.00000000 0.00000000 0.00000000 0.00000000 
048937962 0.00000000 0.00000000 -62.79215152 -52.64362601 0.00000000 0.00000000 0.00000000 0.00000000 
050855480 0.00000000 0.00000000 -62.50458045 -38.26901004 0.00000000 0.00000000 0.00000000 0.00000000 
052772998 0.00000000 0.00000000 -61.44662414 -29.55276474 0.00000000 0.00000000 0.00000000 0.00000000 
054690518 0.00000000 0.00000000 -61.62450914 -11.83665732 0.00000000 0.00000000 0.00000000 0.00000000 
056608036 0.00000000 0.00000000 -66.50712507 5.70265866 0.00000000 0.00000000 0.00000000 0.00000000 
058525554 0.00000000 0.00000000 -67.95313227 -40.82909542 0.00000000 0.00000000 0.00000000 0.00000000 
060443072 0.00000000 0.00000000 -64.33009829 -46.22100682 0.00000000 0.00000000 0.00000000 0.00000000 
062360592 0.00000000 0.00000000 -63.57646547 -71.77266420 0.00000000 0.00000000 0.00000000 0.00000000 
064278110 0.00000000 0.00000000 -69.13699231 -71.06266826 0.00000000 0.00000000 0.00000000 0.00000000 
066195628 0.00000000 0.00000000 -65.28738072 -102.33076190 0.00000000 0.00000000 0.00000000 0.00000000 
068113146 0.00000000 0.00000000 -70.62471246 -109.31768458 0.00000000 0.00000000 0.00000000 0.00000000 
070030666 0.00000000 0.00000000 -72.96121384 -171.64508008 0.00000000 0.00000000 0.00000000 0.00000000 
071948184 0.00000000 0.00000000 -70.62593537 -109.08044051 0.00000000 0.00000000 0.00000000 0.00000000 
073865702 0.00000000 0.00000000 -73.29083189 -117.69270070 0.00000000 0.00000000 0.00000000 0.00000000 
075783220 0.00000000 0.00000000 -80.00000000 -129.88627092 0.00000000 0.00000000 0.00000000 0.00000000 
077700740 0.00000000 0.00000000 -78.29724315 71.71056524 0.00000000 0.00000000 0.00000000 0.00000000 
079618258 0.00000000 0.00000000 -75.16574917 -23.40730238 0.00000000 0.00000000 0.00000000 0.00000000 
081535776 0.00000000 0.00000000 -68.99318321 36.45692872 0.00000000 0.00000000 0.00000000 0.00000000 
083453294 0.00000000 0.00000000 -67.60635337 13.26418247 0.00000000 0.00000000 0.00000000 0.00000000 
085370814 0.00000000 0.00000000 -70.24625555 34.15789807 0.00000000 0.00000000 0.00000000 0.00000000 
087288332 0.00000000 0.00000000 -77.06481015 36.66708170 0.00000000 0.00000000 0.00000000 0.00000000 
089205850 0.00000000 0.00000000 -64.87260983 91.72620887 0.00000000 0.00000000 0.00000000 0.00000000 
091123368 0.00000000 0.00000000 -64.31912205 110.82391632 0.00000000 0.00000000 0.00000000 0.00000000 
093040888 0.00000000 0.00000000 -61.72727742 139.42605053 0.00000000 0.00000000 0.00000000 0.00000000 
094958406 0.00000000 0.00000000 -61.96928902 115.29365544 0.00000000 0.00000000 0.00000000 0.00000000 
096875924 0.00000000 0.00000000 -59.71398452 92.69343234 0.00000000 0.00000000 0.00000000 0.00000000 
098793442 0.00000000 0.00000000 -57.25563778 84.82520566 0.00000000 0.00000000 0.00000000 0.00000000 
100710962 0.00000000 0.00000000 -55.26803904 85.52210273 0.00000000 0.00000000 0.00000000 0.00000000 
102628480 0.00000000 0.00000000 -55.06574544 79.87574056 0.00000000 0.00000000 0.00000000 0.00000000 
104545998 0.00000000 0.00000000 -56.39564475 81.00168919 0.00000000 0.00000000 0.00000000 0.00000000 
106463516 0.00000000 0.00000000 -56.63020473 75.08638726 0.00000000 0.00000000 0.00000000 0.00000000 
108381036 0.00000000 0.00000000 -54.30474418 57.64532880 0.00000000 0.00000000 0.00000000 0.00000000 
110298554 0.00000000 0.00000000 -56.58514951 60.23092696 0.00000000 0.00000000 0.00000000 0.00000000 
112216072 0.00000000 0.00000000 -55.54095924 62.68010750 0.00000000 0.00000000 0.00000000 0.00000000 
114133590 0.00000000 0.00000000 -56.93583290 60.46279088 0.00000000 0.00000000 0.00000000 0.00000000 
116051110 0.00000000 0.00000000 -54.79328079 48.27735621 0.00000000 0.00000000 0.00000000 0.00000000 
117968628 0.00000000 0.00000000 -55.84912136 46.62348205 0.00000000 0.00000000 0.00000000 0.00000000 
119886146 0.00000000 0.00000000 -56.24211515 37.08075765 0.00000000 0.00000000 0.00000000 0.00000000 
121803664 0.00000000 0.00000000 -56.14299958 29.48407916 0.00000000 0.00000000 0.00000000 0.00000000 
123721184 0.00000000 0.00000000 -55.65330332 38.57485092 0.00000000 0.00000000 0.00000000 0.00000000 
125638702 0.00000000 0.00000000 -55.31975408 23.89353817 0.00000000 0.00000000 0.00000000 0.00000000 
127556220 0.00000000 0.00000000 -53.31758245 22.40268781 0.00000000 0.00000000 0.00000000 0.00000000 
129473738 0.00000000 0.00000000 -52.73385255 24.50862448 0.00000000 0.00000000 0.00000000 0.00000000 
131391258 0.00000000 0.00000000 -51.81397892 29.05126751 0.00000000 0.00000000 0.00000000 0.00000000 
133308776 0.00000000 0.00000000 -52.73461958 28.99922121 0.00000000 0.00000000 0.00000000 0.00000000 
135226294 0.00000000 0.00000000 -50.58604410 32.88366814 0.00000000 0.00000000 0.00000000 0.00000000 
137143812 0.00000000 0.00000000 -49.61780382 28.09111244 0.00000000 0.00000000 0.00000000 0.00000000 
139061332 0.00000000 0.00000000 -49.11557343 30.51472809 0.00000000 0.00000000 0.00000000 0.00000000 
140978850 0.00000000 0.00000000 -48.32123472 29.18516764 0.00000000 0.00000000 0.00000000 0.00000000 
142896368 0.00000000 0.00000000 -47.22057610 29.73349760 0.00000000 0.00000000 0.00000000 0.00000000 
144813886 0.00000000 0.00000000 -46.94389854 26.78977086 0.00000000 0.00000000 0.00000000 0.00000000 
146731406 0.00000000 0.00000000 -46.15823236 29.68974263 0.00000000 0.00000000 0.00000000 0.00000000 
148648924 0.00000000 0.00000000 -45.47839778 19.74778956 0.00000000 0.00000000 0.00000000 0.00000000 
150566442 0.00000000 0.00000000 -44.35096083 10.63194383 0.00000000 0.00000000 0.00000000 0.00000000 
152483960 0.00000000 0.00000000 -42.62284331 6.24222823 0.00000000 0.00000000 0.00000000 0.00000000 
154401480 0.00000000 0.00000000 -41.39881572 5.48441580 0.00000000 0.00000000 0.00000000 0.00000000 
156318998 0.00000000 0.00000000 -41.99347894 -8.21013966 0.00000000 0.00000000 0.00000000 0.00000000 
158236516 0.00000000 0.00000000 -41.01903944 -20.87194073 0.00000000 0.00000000 0.00000000 0.00000000 
160154034 0.00000000 0.00000000 -39.71719725 -27.44248649 0.00000000 0.00000000 0.00000000 0.00000000 
162071554 0.00000000 0.00000000 -38.15156178 -30.59782285 0.00000000 0.00000000 0.00000000 0.00000000 
163989072 0.00000000 0.00000000 -39.76892404 -39.30497204 0.00000000 0.00000000 0.00000000 0.00000000 
165906590 0.00000000 0.00000000 -40.61957504 -48.75755886 0.00000000 0.00000000 0.00000000 0.00000000 
167824108 0.00000000 0.00000000 -40.23817907 -65.72857841 0.00000000 0.00000000 0.00000000 0.00000000 
169741628 0.00000000 0.00000000 -39.10887165 -73.80639652 0.00000000 0.00000000 0.00000000 0.00000000 
171659146 0.00000000 0.00000000 -40.72935424 -77.71810682 0.00000000 0.00000000 0.00000000 0.00000000 
173576664 0.00000000 0.00000000 -41.93958857 -85.00339905 0.00000000 0.00000000 0.00000000 0.00000000 
175494182 0.00000000 0.00000000 -42.55834165 -95.35409609 0.00000000 0.00000000 0.00000000 0.00000000 
177411702 0.00000000 0.00000000 -42.05744524 -106.19050867 0.00000000 0.00000000 0.00000000 0.00000000 
179329220 0.00000000 0.00000000 -43.42480424 -107.06099025 0.00000000 0.00000000 0.00000000 0.00000000 
181246738 0.00000000 0.00000000 -44.27325943 -111.31469865 0.00000000 0.00000000 0.00000000 0.00000000 
183164256 0.00000000 0.00000000 -44.85089892 -123.15065022 0.00000000 0.00000000 0.00000000 0.00000000 
185081776 0.00000000 0.00000000 -44.47990963 -126.62000567 0.00000000 0.00000000 0.00000000 0.00000000 
186999294 0.00000000 0.00000000 -45.92286745 -125.18526745 0.00000000 0.00000000 0.00000000 0.00000000 
188916812 0.00000000 0.00000000 -46.88260275 -132.14770841 0.00000000 0.00000000 0.00000000 0.00000000 
190834330 0.00000000 0.00000000 -47.27380976 -136.82430906 0.00000000 0.00000000 0.00000000 0.00000000 
192751850 0.00000000 0.00000000 -47.34323076 -146.49492494 0.00000000 0.00000000 0.00000000 0.00000000 
194669368 0.00000000 0.00000000 -48.30833565 -142.66405511 0.00000000 0.00000000 0.00000000 0.00000000 
196586886 0.00000000 0.00000000 -48.69409247 -141.80394265 0.00000000 0.00000000 0.00000000 0.00000000 
198504404 0.00000000 0.00000000 -49.12720185 -141.93119699 0.00000000 0.00000000 0.00000000 0.00000000 
200421924 0.00000000 0.00000000 -49.85744698 -144.16257890 0.00000000 0.00000000 0.00000000 0.00000000 
202339442 0.00000000 0.00000000 -50.18730040 -140.03693552 0.00000000 0.00000000 0.00000000 0.00000000 
204256960 0.00000000 0.00000000 -50.76412393 -136.22334663 0.00000000 0.00000000 0.00000000 0.00000000 
206174478 0.00000000 0.00000000 -53.15477763 -136.70181454 0.00000000 0.00000000 0.00000000 0.00000000 
208091998 0.00000000 0.00000000 -53.43377072 -139.29776627 0.00000000 0.00000000 0.00000000 0.00000000 
210009516 0.00000000 0.00000000 -54.89740406 -132.93306500 0.00000000 0.00000000 0.00000000 0.00000000 
211927034 0.00000000 0.00000000 -54.34114962 -136.49530537 0.00000000 0.00000000 0.00000000 0.00000000 
213844552 0.00000000 0.00000000 -55.52302407 -133.02361207 0.00000000 0.00000000 0.00000000 0.00000000 
215762072 0.00000000 0.00000000 -55.32249559 -120.73237018 0.00000000 0.00000000 0.00000000 0.00000000 
217679590 0.00000000 0.00000000 -55.53763247 -130.44436600 0.00000000 0.00000000 0.00000000 0.00000000 
219597108 0.00000000 0.00000000 -56.34648510 -131.93911727 0.00000000 0.00000000 0.00000000 0.00000000 
221514626 0.00000000 0.00000000 -55.97151549 -119.14090745 0.00000000 0.00000000 0.00000000 0.00000000 
223432146 0.00000000 0.00000000 -55.96407577 -122.99908072 0.00000000 0.00000000 0.00000000 0.00000000 
225349664 0.00000000 0.00000000 -55.73554648 -129.78944087 0.00000000 0.00000000 0.00000000 0.00000000 
227267182 0.00000000 0.00000000 -56.76274085 -125.01310969 0.00000000 0.00000000 0.00000000 0.00000000 
229184700 0.00000000 0.00000000 -56.26793304 -118.75846988 0.00000000 0.00000000 0.00000000 0.00000000 
231102220 0.00000000 0.00000000 -58.08012545 -110.43228369 0.00000000 0.00000000 0.00000000 0.00000000 
233019738 0.00000000 0.00000000 -56.13313183 -108.52549345 0.00000000 0.00000000 0.00000000 0.00000000 
234937256 0.00000000 0.00000000 -56.62177758 -104.76152607 0.00000000 0.00000000 0.00000000 0.00000000 
236854774 0.00000000 0.00000000 -55.85492998 -116.28348996 0.00000000 0.00000000 0.00000000 0.00000000 
238772294 0.00000000 0.00000000 -54.14518355 -102.58481967 0.00000000 0.00000000 0.00000000 0.00000000 
240689812 0.00000000 0.00000000 -54.88080210 -100.53232476 0.00000000 0.00000000 0.00000000 0.00000000 
242607330 0.00000000 0.00000000 -54.98689194 -89.08639951 0.00000000 0.00000000 0.00000000 0.00000000 
244524848 0.00000000 0.00000000 -55.56536456 -89.31216233 0.00000000 0.00000000 0.00000000 0.00000000 
246442368 0.00000000 0.00000000 -56.76742874 -84.84350759 0.00000000 0.00000000 0.00000000 0.00000000 
248359886 0.00000000 0.00000000 -55.41819379 -75.70159615 0.00000000 0.00000000 0.00000000 0.00000000 
250277404 0.00000000 0.00000000 -53.33224870 -81.74782524 0.00000000 0.00000000 0.00000000 0.00000000 
252194922 0.00000000 0.00000000 -54.22738182 -79.32368448 0.00000000 0.00000000 0.00000000 0.00000000 
254112442 0.00000000 0.00000000 -53.14357185 -81.70328800 0.00000000 0.00000000 0.00000000 0.00000000 
256029960 0.00000000 0.00000000 -53.32937517 -86.96158200 0.00000000 0.00000000 0.00000000 0.00000000 
257947478 0.00000000 0.00000000 -52.50319408 -85.78053257 0.00000000 0.00000000 0.00000000 0.00000000 
259864996 0.00000000 0.00000000 -52.22283548 -83.73287626 0.00000000 0.00000000 0.00000000 0.00000000 
261782516 0.00000000 0.00000000 -52.17397282 -86.52255254 0.00000000 0.00000000 0.00000000 0.00000000 
263700034 0.00000000 0.00000000 -51.40693362 -91.12487023 0.00000000 0.00000000 0.00000000 0.00000000 
265617552 0.00000000 0.00000000 -51.46990411 -99.70913784 0.00000000 0.00000000 0.00000000 0.00000000 
267535070 0.00000000 0.00000000 -51.00299928 -97.09531699 0.00000000 0.00000000 0.00000000 0.00000000 
269452590 0.00000000 0.00000000 -49.91138091 -98.31092278 0.00000000 0.00000000 0.00000000 0.00000000 
271370108 0.00000000 0.00000000 -49.31765342 -99.15816037 0.00000000 0.00000000 0.00000000 0.00000000 
273287626 0.00000000 0.00000000 -49.53028574 -105.76849534 0.00000000 0.00000000 0.00000000 0.00000000 
275205144 0.00000000 0.00000000 -49.10716627 -112.84967010 0.00000000 0.00000000 0.00000000 0.00000000 
277122664 0.00000000 0.00000000 -47.31747513 -109.38752092 0.00000000 0.00000000 0.00000000 0.00000000 
279040182 0.00000000 0.00000000 -48.77387696 -111.08693766 0.00000000 0.00000000 0.00000000 0.00000000 
280957700 0.00000000 0.00000000 -48.19534563 -125.79140943 0.00000000 0.00000000 0.00000000 0.00000000 
282875218 0.00000000 0.00000000 -47.99193994 -122.46356594 0.00000000 0.00000000 0.00000000 0.00000000 
284792738 0.00000000 0.00000000 -47.31020813 -127.21323590 0.00000000 0.00000000 0.00000000 0.00000000 
286710256 0.00000000 0.00000000 -47.71800378 -125.31529154 0.00000000 0.00000000 0.00000000 0.00000000 
288627774 0.00000000 0.00000000 -48.22809559 -133.23392754 0.00000000 0.00000000 0.00000000 0.00000000 
290545292 0.00000000 0.00000000 -48.38073081 -131.02487820 0.00000000 0.00000000 0.00000000 0.00000000 
292462812 0.00000000 0.00000000 -48.38994672 -141.19423940 0.00000000 0.00000000 0.00000000 0.00000000 
294380330 0.00000000 0.00000000 -47.68447397 -143.25739222 0.00000000 0.00000000 0.00000000 0.00000000 
296297848 0.00000000 0.00000000 -48.76347920 -135.70677986 0.00000000 0.00000000 0.00000000 0.00000000 
298215366 0.00000000 0.00000000 -48.60680846 -147.05640797 0.00000000 0.00000000 0.00000000 0.00000000 
300132886 0.00000000 0.00000000 -48.72049426 -148.98136729 0.00000000 0.00000000 0.00000000 0.00000000 
302050404 0.00000000 0.00000000 -49.66091906 -148.23551754 0.00000000 0.00000000 0.00000000 0.00000000 
303967922 0.00000000 0.00000000 -50.35149643 -149.78789415 0.00000000 0.00000000 0.00000000 0.00000000 
305885440 0.00000000 0.00000000 -50.54132036 -157.50353400 0.00000000 0.00000000 0.00000000 0.00000000 
307802960 0.00000000 0.00000000 -50.81012713 -157.68766947 0.00000000 0.00000000 0.00000000 0.00000000 
309720478 0.00000000 0.00000000 -52.14260398 -162.29185745 0.00000000 0.00000000 0.00000000 0.00000000 
311637996 0.00000000 0.00000000 -52.96674154 -163.55087691 0.00000000 0.00000000 0.00000000 0.00000000 
313555514 0.00000000 0.00000000 -54.33132610 -168.08652284 0.00000000 0.00000000 0.00000000 0.00000000 
315473034 0.00000000 0.00000000 -53.89464375 -171.67371282 0.00000000 0.00000000 0.00000000 0.00000000 
317390552 0.00000000 0.00000000 -55.06444090 -156.26725886 0.00000000 0.00000000 0.00000000 0.00000000 
319308070 0.00000000 0.00000000 -55.38903723 -155.21558671 0.00000000 0.00000000 0.00000000 0.00000000 
321225588 0.00000000 0.00000000 -59.07672011 -149.47266198 0.00000000 0.00000000 0.00000000 0.00000000 
323143108 0.00000000 0.00000000 -56.97860548 -141.33199882 0.00000000 0.00000000 0.00000000 0.00000000 
325060626 0.00000000 0.00000000 -56.66810337 -153.64782329 0.00000000 0.00000000 0.00000000 0.00000000 
326978144 0.00000000 0.00000000 -56.91448011 -147.08314373 0.00000000 0.00000000 0.00000000 0.00000000 
328895662 0.00000000 0.00000000 -57.14436110 -140.32461990 0.00000000 0.00000000 0.00000000 0.00000000 
330813182 0.00000000 0.00000000 -55.55107263 -146.86286099 0.00000000 0.00000000 0.00000000 0.00000000 
332730700 0.00000000 0.00000000 -56.02233228 -144.06428621 0.00000000 0.00000000 0.00000000 0.00000000 
334648218 0.00000000 0.00000000 -57.13650669 -148.49768323 0.00000000 0.00000000 0.00000000 0.00000000 
336565736 0.00000000 0.00000000 -60.77010652 -163.99378103 0.00000000 0.00000000 0.00000000 0.00000000 
338483256 0.00000000 0.00000000 -58.02332402 -173.75942083 0.00000000 0.00000000 0.00000000 0.00000000 
340400774 0.00000000 0.00000000 -58.47389486 -162.34996267 0.00000000 0.00000000 0.00000000 0.00000000 
342318292 0.00000000 0.00000000 -58.64887925 -152.46120909 0.00000000 0.00000000 0.00000000 0.00000000 
344235810 0.00000000 0.00000000 -62.53842867 -111.50573452 0.00000000 0.00000000 0.00000000 0.00000000 
346153330 0.00000000 0.00000000 -62.93431093 -110.94467387 0.00000000 0.00000000 0.00000000 0.00000000 
348070848 0.00000000 0.00000000 -64.33123990 -80.85349552 0.00000000 0.00000000 0.00000000 0.00000000 
349988366 0.00000000 0.00000000 -63.37338576 -101.00868085 0.00000000 0.00000000 0.00000000 0.00000000 
351905884 0.00000000 0.00000000 -61.84441175 -94.74203810 0.00000000 0.00000000 0.00000000 0.00000000 
353823404 0.00000000 0.00000000 -59.33830351 -102.64154409 0.00000000 0.00000000 0.00000000 0.00000000 
355740922 0.00000000 0.00000000 -57.76107840 -84.82541514 0.00000000 0.00000000 0.00000000 0.00000000 
357658440 0.00000000 0.00000000 -57.21140554 -81.43298292 0.00000000 0.00000000 0.00000000 0.00000000 
359575958 0.00000000 0.00000000 -53.92913803 -86.65883546 0.00000000 0.00000000 0.00000000 0.00000000 
361493478 0.00000000 0.00000000 -53.17220229 -81.33896336 0.00000000 0.00000000 0.00000000 0.00000000 
363410996 0.00000000 0.00000000 -52.88607685 -76.00923603 0.00000000 0.00000000 0.00000000 0.00000000 
365328514 0.00000000 0.00000000 -51.98762433 -76.64316871 0.00000000 0.00000000 0.00000000 0.00000000 
367246032 0.00000000 0.00000000 -51.59804858 -86.13832230 0.00000000 0.00000000 0.00000000 0.00000000 
