! created by ADMIN at Tue Apr 21 15:15:08 IST 2026
! generated using vna/J Version 3.2.10
# Hz S DB R 50
001000000 0.00000000 0.00000000 -64.72146732 55.30117632 0.00000000 0.00000000 0.00000000 0.00000000 
002917518 0.00000000 0.00000000 -69.54749343 82.49172568 0.00000000 0.00000000 0.00000000 0.00000000 
004835036 0.00000000 0.00000000 -71.44594272 92.31393074 0.00000000 0.00000000 0.00000000 0.00000000 
006752554 0.00000000 0.00000000 -71.44410840 32.61309360 0.00000000 0.00000000 0.00000000 0.00000000 
008670074 0.00000000 0.00000000 -78.41470866 132.57254038 0.00000000 0.00000000 0.00000000 0.00000000 
010587592 0.00000000 0.00000000 -71.99845615 98.87986316 0.00000000 0.00000000 0.00000000 0.00000000 
012505110 0.00000000 0.00000000 -72.89243200 115.27049170 0.00000000 0.00000000 0.00000000 0.00000000 
014422628 0.00000000 0.00000000 -73.59815684 146.53201124 0.00000000 0.00000000 0.00000000 0.00000000 
016340148 0.00000000 0.00000000 -75.58463697 1.57007129 0.00000000 0.00000000 0.00000000 0.00000000 
018257666 0.00000000 0.00000000 -80.00000000 137.47284617 0.00000000 0.00000000 0.00000000 0.00000000 
020175184 0.00000000 0.00000000 -80.00000000 91.59766028 0.00000000 0.00000000 0.00000000 0.00000000 
022092702 0.00000000 0.00000000 -80.00000000 3.54485563 0.00000000 0.00000000 0.00000000 0.00000000 
024010222 0.00000000 0.00000000 -72.72268337 -129.13391619 0.00000000 0.00000000 0.00000000 0.00000000 
025927740 0.00000000 0.00000000 -70.41208377 -22.62868705 0.00000000 0.00000000 0.00000000 0.00000000 
027845258 0.00000000 0.00000000 -80.00000000 -56.17072055 0.00000000 0.00000000 0.00000000 0.00000000 
029762776 0.00000000 0.00000000 -80.00000000 -100.67251955 0.00000000 0.00000000 0.00000000 0.00000000 
031680296 0.00000000 0.00000000 -68.76311270 33.98895325 0.00000000 0.00000000 0.00000000 0.00000000 
033597814 0.00000000 0.00000000 -80.00000000 75.40658073 0.00000000 0.00000000 0.00000000 0.00000000 
035515332 0.00000000 0.00000000 -71.78659903 119.51937325 0.00000000 0.00000000 0.00000000 0.00000000 
037432850 0.00000000 0.00000000 -66.48593582 173.42163201 0.00000000 0.00000000 0.00000000 0.00000000 
039350370 0.00000000 0.00000000 -66.01895395 163.93440464 0.00000000 0.00000000 0.00000000 0.00000000 
041267888 0.00000000 0.00000000 -68.07530833 4.65954485 0.00000000 0.00000000 0.00000000 0.00000000 
043185406 0.00000000 0.00000000 -68.38953111 -152.88421577 0.00000000 0.00000000 0.00000000 0.00000000 
045102924 0.00000000 0.00000000 -76.37905603 158.03843796 0.00000000 0.00000000 0.00000000 0.00000000 
047020444 0.00000000 0.00000000 -74.79376956 -54.89678392 0.00000000 0.00000000 0.00000000 0.00000000 
048937962 0.00000000 0.00000000 -74.71322933 -123.19072686 0.00000000 0.00000000 0.00000000 0.00000000 
050855480 0.00000000 0.00000000 -75.04980918 -88.43277113 0.00000000 0.00000000 0.00000000 0.00000000 
052772998 0.00000000 0.00000000 -70.39734525 -62.18886216 0.00000000 0.00000000 0.00000000 0.00000000 
054690518 0.00000000 0.00000000 -71.26142974 -35.22417953 0.00000000 0.00000000 0.00000000 0.00000000 
056608036 0.00000000 0.00000000 -80.00000000 32.70981922 0.00000000 0.00000000 0.00000000 0.00000000 
058525554 0.00000000 0.00000000 -72.68723073 -59.86256502 0.00000000 0.00000000 0.00000000 0.00000000 
060443072 0.00000000 0.00000000 -66.40004702 -32.37754667 0.00000000 0.00000000 0.00000000 0.00000000 
062360592 0.00000000 0.00000000 -67.20571419 -42.41758584 0.00000000 0.00000000 0.00000000 0.00000000 
064278110 0.00000000 0.00000000 -73.21163064 -45.83479403 0.00000000 0.00000000 0.00000000 0.00000000 
066195628 0.00000000 0.00000000 -65.34371424 -98.87709012 0.00000000 0.00000000 0.00000000 0.00000000 
068113146 0.00000000 0.00000000 -67.01107979 -95.36799772 0.00000000 0.00000000 0.00000000 0.00000000 
070030666 0.00000000 0.00000000 -68.66358824 -104.87022625 0.00000000 0.00000000 0.00000000 0.00000000 
071948184 0.00000000 0.00000000 -66.12376913 -82.10390269 0.00000000 0.00000000 0.00000000 0.00000000 
073865702 0.00000000 0.00000000 -70.37910681 -79.35846837 0.00000000 0.00000000 0.00000000 0.00000000 
075783220 0.00000000 0.00000000 -80.00000000 -36.28852234 0.00000000 0.00000000 0.00000000 0.00000000 
077700740 0.00000000 0.00000000 -73.19559460 65.09463365 0.00000000 0.00000000 0.00000000 0.00000000 
079618258 0.00000000 0.00000000 -76.72927872 23.72012727 0.00000000 0.00000000 0.00000000 0.00000000 
081535776 0.00000000 0.00000000 -68.22501596 67.38917978 0.00000000 0.00000000 0.00000000 0.00000000 
083453294 0.00000000 0.00000000 -70.68471094 53.65735238 0.00000000 0.00000000 0.00000000 0.00000000 
085370814 0.00000000 0.00000000 -71.11768693 106.56798249 0.00000000 0.00000000 0.00000000 0.00000000 
087288332 0.00000000 0.00000000 -80.00000000 170.02620553 0.00000000 0.00000000 0.00000000 0.00000000 
089205850 0.00000000 0.00000000 -68.20363794 101.50714517 0.00000000 0.00000000 0.00000000 0.00000000 
091123368 0.00000000 0.00000000 -70.07620370 105.97054443 0.00000000 0.00000000 0.00000000 0.00000000 
093040888 0.00000000 0.00000000 -68.78439384 140.89771806 0.00000000 0.00000000 0.00000000 0.00000000 
094958406 0.00000000 0.00000000 -69.90820738 144.32910253 0.00000000 0.00000000 0.00000000 0.00000000 
096875924 0.00000000 0.00000000 -72.10033497 128.96320563 0.00000000 0.00000000 0.00000000 0.00000000 
098793442 0.00000000 0.00000000 -74.96910414 117.45476337 0.00000000 0.00000000 0.00000000 0.00000000 
100710962 0.00000000 0.00000000 -78.55871302 124.39752616 0.00000000 0.00000000 0.00000000 0.00000000 
102628480 0.00000000 0.00000000 -72.35855005 111.34599940 0.00000000 0.00000000 0.00000000 0.00000000 
104545998 0.00000000 0.00000000 -68.53228780 1.05632521 0.00000000 0.00000000 0.00000000 0.00000000 
106463516 0.00000000 0.00000000 -66.33210737 -161.74926808 0.00000000 0.00000000 0.00000000 0.00000000 
108381036 0.00000000 0.00000000 -80.00000000 -107.95534164 0.00000000 0.00000000 0.00000000 0.00000000 
110298554 0.00000000 0.00000000 -70.09271774 -151.76010083 0.00000000 0.00000000 0.00000000 0.00000000 
112216072 0.00000000 0.00000000 -66.89117109 135.06774238 0.00000000 0.00000000 0.00000000 0.00000000 
114133590 0.00000000 0.00000000 -64.40704714 151.97867919 0.00000000 0.00000000 0.00000000 0.00000000 
116051110 0.00000000 0.00000000 -64.18183154 114.72616498 0.00000000 0.00000000 0.00000000 0.00000000 
117968628 0.00000000 0.00000000 -64.96486743 125.24424904 0.00000000 0.00000000 0.00000000 0.00000000 
119886146 0.00000000 0.00000000 -68.67805695 126.02806192 0.00000000 0.00000000 0.00000000 0.00000000 
121803664 0.00000000 0.00000000 -72.40234571 130.04328408 0.00000000 0.00000000 0.00000000 0.00000000 
123721184 0.00000000 0.00000000 -65.01993788 127.90539445 0.00000000 0.00000000 0.00000000 0.00000000 
125638702 0.00000000 0.00000000 -72.94226563 -169.89489040 0.00000000 0.00000000 0.00000000 0.00000000 
127556220 0.00000000 0.00000000 -77.90708876 -67.64866866 0.00000000 0.00000000 0.00000000 0.00000000 
129473738 0.00000000 0.00000000 -71.48616976 -84.37159316 0.00000000 0.00000000 0.00000000 0.00000000 
131391258 0.00000000 0.00000000 -69.75167958 -76.23537277 0.00000000 0.00000000 0.00000000 0.00000000 
133308776 0.00000000 0.00000000 -65.00628789 -115.21795911 0.00000000 0.00000000 0.00000000 0.00000000 
135226294 0.00000000 0.00000000 -76.87514781 -58.42184491 0.00000000 0.00000000 0.00000000 0.00000000 
137143812 0.00000000 0.00000000 -65.86360480 -43.13413863 0.00000000 0.00000000 0.00000000 0.00000000 
139061332 0.00000000 0.00000000 -65.80695077 -50.27024213 0.00000000 0.00000000 0.00000000 0.00000000 
140978850 0.00000000 0.00000000 -66.16666377 -24.24170411 0.00000000 0.00000000 0.00000000 0.00000000 
142896368 0.00000000 0.00000000 -64.61948889 8.57904119 0.00000000 0.00000000 0.00000000 0.00000000 
144813886 0.00000000 0.00000000 -65.77306255 -20.51348564 0.00000000 0.00000000 0.00000000 0.00000000 
146731406 0.00000000 0.00000000 -68.68042096 -5.78729508 0.00000000 0.00000000 0.00000000 0.00000000 
148648924 0.00000000 0.00000000 -67.11490401 16.90725850 0.00000000 0.00000000 0.00000000 0.00000000 
150566442 0.00000000 0.00000000 -67.84020057 0.75989503 0.00000000 0.00000000 0.00000000 0.00000000 
152483960 0.00000000 0.00000000 -64.31068466 -4.87758051 0.00000000 0.00000000 0.00000000 0.00000000 
154401480 0.00000000 0.00000000 -67.58126480 -26.21953274 0.00000000 0.00000000 0.00000000 0.00000000 
156318998 0.00000000 0.00000000 -69.46197112 -28.77990091 0.00000000 0.00000000 0.00000000 0.00000000 
158236516 0.00000000 0.00000000 -65.05784306 -14.07185752 0.00000000 0.00000000 0.00000000 0.00000000 
160154034 0.00000000 0.00000000 -65.66807468 25.09543279 0.00000000 0.00000000 0.00000000 0.00000000 
162071554 0.00000000 0.00000000 -66.17172249 46.86958375 0.00000000 0.00000000 0.00000000 0.00000000 
163989072 0.00000000 0.00000000 -72.39064890 -36.87017001 0.00000000 0.00000000 0.00000000 0.00000000 
165906590 0.00000000 0.00000000 -62.97494845 -6.58810590 0.00000000 0.00000000 0.00000000 0.00000000 
167824108 0.00000000 0.00000000 -61.47224476 -52.86749176 0.00000000 0.00000000 0.00000000 0.00000000 
169741628 0.00000000 0.00000000 -59.35043379 -28.05676448 0.00000000 0.00000000 0.00000000 0.00000000 
171659146 0.00000000 0.00000000 -63.21342055 -55.76217836 0.00000000 0.00000000 0.00000000 0.00000000 
173576664 0.00000000 0.00000000 -61.34914714 -83.57214189 0.00000000 0.00000000 0.00000000 0.00000000 
175494182 0.00000000 0.00000000 -59.11500500 -91.79689835 0.00000000 0.00000000 0.00000000 0.00000000 
177411702 0.00000000 0.00000000 -56.19587137 -93.48091147 0.00000000 0.00000000 0.00000000 0.00000000 
179329220 0.00000000 0.00000000 -58.08165545 -91.26166594 0.00000000 0.00000000 0.00000000 0.00000000 
181246738 0.00000000 0.00000000 -58.12176786 -96.43426660 0.00000000 0.00000000 0.00000000 0.00000000 
183164256 0.00000000 0.00000000 -58.80848121 -126.37788299 0.00000000 0.00000000 0.00000000 0.00000000 
185081776 0.00000000 0.00000000 -57.13982910 -111.96556590 0.00000000 0.00000000 0.00000000 0.00000000 
186999294 0.00000000 0.00000000 -59.79174286 -101.26300843 0.00000000 0.00000000 0.00000000 0.00000000 
188916812 0.00000000 0.00000000 -61.88710572 -126.62157990 0.00000000 0.00000000 0.00000000 0.00000000 
190834330 0.00000000 0.00000000 -61.33910678 -131.91244272 0.00000000 0.00000000 0.00000000 0.00000000 
192751850 0.00000000 0.00000000 -60.84535247 -155.03264521 0.00000000 0.00000000 0.00000000 0.00000000 
194669368 0.00000000 0.00000000 -63.86224129 -145.32394571 0.00000000 0.00000000 0.00000000 0.00000000 
196586886 0.00000000 0.00000000 -63.83277961 -145.23693280 0.00000000 0.00000000 0.00000000 0.00000000 
198504404 0.00000000 0.00000000 -64.54149589 -147.45368685 0.00000000 0.00000000 0.00000000 0.00000000 
200421924 0.00000000 0.00000000 -67.53988159 -165.95264467 0.00000000 0.00000000 0.00000000 0.00000000 
202339442 0.00000000 0.00000000 -64.53892874 -160.61329119 0.00000000 0.00000000 0.00000000 0.00000000 
204256960 0.00000000 0.00000000 -63.29419194 -156.58942608 0.00000000 0.00000000 0.00000000 0.00000000 
206174478 0.00000000 0.00000000 -66.53196994 165.83144405 0.00000000 0.00000000 0.00000000 0.00000000 
208091998 0.00000000 0.00000000 -62.92580426 175.02793771 0.00000000 0.00000000 0.00000000 0.00000000 
210009516 0.00000000 0.00000000 -66.17173682 161.27945182 0.00000000 0.00000000 0.00000000 0.00000000 
211927034 0.00000000 0.00000000 -62.22695446 168.94358124 0.00000000 0.00000000 0.00000000 0.00000000 
213844552 0.00000000 0.00000000 -63.34953255 158.38583495 0.00000000 0.00000000 0.00000000 0.00000000 
215762072 0.00000000 0.00000000 -66.64735803 179.04068397 0.00000000 0.00000000 0.00000000 0.00000000 
217679590 0.00000000 0.00000000 -64.80936624 0.91982076 0.00000000 0.00000000 0.00000000 0.00000000 
219597108 0.00000000 0.00000000 -69.06782516 1.37811373 0.00000000 0.00000000 0.00000000 0.00000000 
221514626 0.00000000 0.00000000 -69.52902975 -71.84000917 0.00000000 0.00000000 0.00000000 0.00000000 
223432146 0.00000000 0.00000000 -69.37057235 -46.69090505 0.00000000 0.00000000 0.00000000 0.00000000 
225349664 0.00000000 0.00000000 -74.51335803 -140.09784533 0.00000000 0.00000000 0.00000000 0.00000000 
227267182 0.00000000 0.00000000 -78.04122429 -170.71533018 0.00000000 0.00000000 0.00000000 0.00000000 
229184700 0.00000000 0.00000000 -71.42137433 -139.31434366 0.00000000 0.00000000 0.00000000 0.00000000 
231102220 0.00000000 0.00000000 -80.00000000 -173.22652870 0.00000000 0.00000000 0.00000000 0.00000000 
233019738 0.00000000 0.00000000 -71.11413045 -122.99942511 0.00000000 0.00000000 0.00000000 0.00000000 
234937256 0.00000000 0.00000000 -79.06983594 -140.73355656 0.00000000 0.00000000 0.00000000 0.00000000 
236854774 0.00000000 0.00000000 -66.00787865 178.57168114 0.00000000 0.00000000 0.00000000 0.00000000 
238772294 0.00000000 0.00000000 -67.06821614 -133.18640253 0.00000000 0.00000000 0.00000000 0.00000000 
240689812 0.00000000 0.00000000 -67.43182660 -140.17490881 0.00000000 0.00000000 0.00000000 0.00000000 
242607330 0.00000000 0.00000000 -68.77689563 -98.70675786 0.00000000 0.00000000 0.00000000 0.00000000 
244524848 0.00000000 0.00000000 -68.89591566 -111.19082126 0.00000000 0.00000000 0.00000000 0.00000000 
246442368 0.00000000 0.00000000 -74.03729016 -109.42702620 0.00000000 0.00000000 0.00000000 0.00000000 
248359886 0.00000000 0.00000000 -69.47893225 -36.15432522 0.00000000 0.00000000 0.00000000 0.00000000 
250277404 0.00000000 0.00000000 -65.74776849 -70.99797738 0.00000000 0.00000000 0.00000000 0.00000000 
252194922 0.00000000 0.00000000 -77.16372077 -17.21720520 0.00000000 0.00000000 0.00000000 0.00000000 
254112442 0.00000000 0.00000000 -80.00000000 -116.86852234 0.00000000 0.00000000 0.00000000 0.00000000 
256029960 0.00000000 0.00000000 -69.38107207 1.21661974 0.00000000 0.00000000 0.00000000 0.00000000 
257947478 0.00000000 0.00000000 -67.57810482 -159.27890751 0.00000000 0.00000000 0.00000000 0.00000000 
259864996 0.00000000 0.00000000 -66.57065025 -162.41328350 0.00000000 0.00000000 0.00000000 0.00000000 
261782516 0.00000000 0.00000000 -62.41812014 -172.10956155 0.00000000 0.00000000 0.00000000 0.00000000 
263700034 0.00000000 0.00000000 -62.93285387 -153.09066043 0.00000000 0.00000000 0.00000000 0.00000000 
265617552 0.00000000 0.00000000 -62.12476015 -169.63756124 0.00000000 0.00000000 0.00000000 0.00000000 
267535070 0.00000000 0.00000000 -66.57278653 -174.31435317 0.00000000 0.00000000 0.00000000 0.00000000 
269452590 0.00000000 0.00000000 -66.56484481 -171.61129814 0.00000000 0.00000000 0.00000000 0.00000000 
271370108 0.00000000 0.00000000 -70.69357374 -123.75064204 0.00000000 0.00000000 0.00000000 0.00000000 
273287626 0.00000000 0.00000000 -72.79967134 148.28900415 0.00000000 0.00000000 0.00000000 0.00000000 
275205144 0.00000000 0.00000000 -64.47030655 130.35476257 0.00000000 0.00000000 0.00000000 0.00000000 
277122664 0.00000000 0.00000000 -70.16666371 153.70349236 0.00000000 0.00000000 0.00000000 0.00000000 
279040182 0.00000000 0.00000000 -67.86951817 107.52787329 0.00000000 0.00000000 0.00000000 0.00000000 
280957700 0.00000000 0.00000000 -60.42540086 162.24711794 0.00000000 0.00000000 0.00000000 0.00000000 
282875218 0.00000000 0.00000000 -66.35810403 -173.32959466 0.00000000 0.00000000 0.00000000 0.00000000 
284792738 0.00000000 0.00000000 -64.21099489 -168.18830051 0.00000000 0.00000000 0.00000000 0.00000000 
286710256 0.00000000 0.00000000 -63.39592298 -133.29429325 0.00000000 0.00000000 0.00000000 0.00000000 
288627774 0.00000000 0.00000000 -62.19392469 -151.70686962 0.00000000 0.00000000 0.00000000 0.00000000 
290545292 0.00000000 0.00000000 -62.30634169 -113.02083149 0.00000000 0.00000000 0.00000000 0.00000000 
292462812 0.00000000 0.00000000 -64.46479354 -137.37326353 0.00000000 0.00000000 0.00000000 0.00000000 
294380330 0.00000000 0.00000000 -59.34384271 -139.25892106 0.00000000 0.00000000 0.00000000 0.00000000 
296297848 0.00000000 0.00000000 -60.77177229 -93.40879660 0.00000000 0.00000000 0.00000000 0.00000000 
298215366 0.00000000 0.00000000 -63.53750998 -129.92928223 0.00000000 0.00000000 0.00000000 0.00000000 
300132886 0.00000000 0.00000000 -66.64551526 -120.19748529 0.00000000 0.00000000 0.00000000 0.00000000 
302050404 0.00000000 0.00000000 -66.59477400 -122.30008691 0.00000000 0.00000000 0.00000000 0.00000000 
303967922 0.00000000 0.00000000 -65.46763058 -129.97111160 0.00000000 0.00000000 0.00000000 0.00000000 
305885440 0.00000000 0.00000000 -63.30206974 -155.98083017 0.00000000 0.00000000 0.00000000 0.00000000 
307802960 0.00000000 0.00000000 -62.31863930 -139.72536808 0.00000000 0.00000000 0.00000000 0.00000000 
309720478 0.00000000 0.00000000 -64.05037088 -155.09954215 0.00000000 0.00000000 0.00000000 0.00000000 
311637996 0.00000000 0.00000000 -63.55376158 -151.35518953 0.00000000 0.00000000 0.00000000 0.00000000 
313555514 0.00000000 0.00000000 -65.61787717 -147.51485821 0.00000000 0.00000000 0.00000000 0.00000000 
315473034 0.00000000 0.00000000 -62.74800591 -145.59099741 0.00000000 0.00000000 0.00000000 0.00000000 
317390552 0.00000000 0.00000000 -62.31695149 -120.32316665 0.00000000 0.00000000 0.00000000 0.00000000 
319308070 0.00000000 0.00000000 -62.42085290 -132.53655710 0.00000000 0.00000000 0.00000000 0.00000000 
321225588 0.00000000 0.00000000 -68.92649603 -111.61890619 0.00000000 0.00000000 0.00000000 0.00000000 
323143108 0.00000000 0.00000000 -61.95269154 -124.68346904 0.00000000 0.00000000 0.00000000 0.00000000 
325060626 0.00000000 0.00000000 -65.98118392 -150.51766924 0.00000000 0.00000000 0.00000000 0.00000000 
326978144 0.00000000 0.00000000 -75.58087841 -140.37627219 0.00000000 0.00000000 0.00000000 0.00000000 
328895662 0.00000000 0.00000000 -75.60965494 41.60435984 0.00000000 0.00000000 0.00000000 0.00000000 
330813182 0.00000000 0.00000000 -66.57195782 110.35356549 0.00000000 0.00000000 0.00000000 0.00000000 
332730700 0.00000000 0.00000000 -68.78364724 157.68329480 0.00000000 0.00000000 0.00000000 0.00000000 
334648218 0.00000000 0.00000000 -67.41747816 178.62267368 0.00000000 0.00000000 0.00000000 0.00000000 
336565736 0.00000000 0.00000000 -72.20579828 142.66968258 0.00000000 0.00000000 0.00000000 0.00000000 
338483256 0.00000000 0.00000000 -65.81962946 -169.96222855 0.00000000 0.00000000 0.00000000 0.00000000 
340400774 0.00000000 0.00000000 -63.31353321 -159.48480598 0.00000000 0.00000000 0.00000000 0.00000000 
342318292 0.00000000 0.00000000 -60.99267826 -152.15857016 0.00000000 0.00000000 0.00000000 0.00000000 
344235810 0.00000000 0.00000000 -63.56971474 -113.24918144 0.00000000 0.00000000 0.00000000 0.00000000 
346153330 0.00000000 0.00000000 -61.41343700 -122.67946048 0.00000000 0.00000000 0.00000000 0.00000000 
348070848 0.00000000 0.00000000 -66.43871690 -101.30547357 0.00000000 0.00000000 0.00000000 0.00000000 
349988366 0.00000000 0.00000000 -65.79977401 -132.99594994 0.00000000 0.00000000 0.00000000 0.00000000 
351905884 0.00000000 0.00000000 -65.89599516 -135.87257142 0.00000000 0.00000000 0.00000000 0.00000000 
353823404 0.00000000 0.00000000 -61.89465802 -144.43848739 0.00000000 0.00000000 0.00000000 0.00000000 
355740922 0.00000000 0.00000000 -65.97819447 -128.58202397 0.00000000 0.00000000 0.00000000 0.00000000 
357658440 0.00000000 0.00000000 -68.52793440 -153.27832535 0.00000000 0.00000000 0.00000000 0.00000000 
359575958 0.00000000 0.00000000 -61.84267769 -137.78600011 0.00000000 0.00000000 0.00000000 0.00000000 
361493478 0.00000000 0.00000000 -61.78835557 -145.25975971 0.00000000 0.00000000 0.00000000 0.00000000 
363410996 0.00000000 0.00000000 -67.64995951 -157.47012730 0.00000000 0.00000000 0.00000000 0.00000000 
365328514 0.00000000 0.00000000 -68.08177878 -173.78740723 0.00000000 0.00000000 0.00000000 0.00000000 
367246032 0.00000000 0.00000000 -60.14423861 172.21348396 0.00000000 0.00000000 0.00000000 0.00000000 
