! created by ADMIN at Tue Apr 21 15:37:12 IST 2026
! generated using vna/J Version 3.2.10
# Hz S DB R 50
001000000 0.00000000 0.00000000 -58.63233984 39.18263529 0.00000000 0.00000000 0.00000000 0.00000000 
002917518 0.00000000 0.00000000 -61.22441617 43.68389104 0.00000000 0.00000000 0.00000000 0.00000000 
004835036 0.00000000 0.00000000 -61.18094103 38.78354548 0.00000000 0.00000000 0.00000000 0.00000000 
006752554 0.00000000 0.00000000 -58.86382354 24.00412796 0.00000000 0.00000000 0.00000000 0.00000000 
008670074 0.00000000 0.00000000 -59.86633341 30.71142722 0.00000000 0.00000000 0.00000000 0.00000000 
010587592 0.00000000 0.00000000 -57.95316843 37.34476433 0.00000000 0.00000000 0.00000000 0.00000000 
012505110 0.00000000 0.00000000 -57.51305909 39.80459612 0.00000000 0.00000000 0.00000000 0.00000000 
014422628 0.00000000 0.00000000 -57.29574849 42.48472597 0.00000000 0.00000000 0.00000000 0.00000000 
016340148 0.00000000 0.00000000 -56.85013094 43.27490761 0.00000000 0.00000000 0.00000000 0.00000000 
018257666 0.00000000 0.00000000 -56.29290370 45.01920998 0.00000000 0.00000000 0.00000000 0.00000000 
020175184 0.00000000 0.00000000 -56.19353530 47.36919865 0.00000000 0.00000000 0.00000000 0.00000000 
022092702 0.00000000 0.00000000 -55.99641244 47.76962169 0.00000000 0.00000000 0.00000000 0.00000000 
024010222 0.00000000 0.00000000 -57.61775542 54.86155127 0.00000000 0.00000000 0.00000000 0.00000000 
025927740 0.00000000 0.00000000 -56.02961487 44.08437581 0.00000000 0.00000000 0.00000000 0.00000000 
027845258 0.00000000 0.00000000 -56.68741157 53.49052184 0.00000000 0.00000000 0.00000000 0.00000000 
029762776 0.00000000 0.00000000 -56.73815397 55.15829398 0.00000000 0.00000000 0.00000000 0.00000000 
031680296 0.00000000 0.00000000 -54.48766967 51.97492730 0.00000000 0.00000000 0.00000000 0.00000000 
033597814 0.00000000 0.00000000 -55.64564172 48.96114024 0.00000000 0.00000000 0.00000000 0.00000000 
035515332 0.00000000 0.00000000 -54.59419666 49.36647723 0.00000000 0.00000000 0.00000000 0.00000000 
037432850 0.00000000 0.00000000 -54.97495848 49.99952982 0.00000000 0.00000000 0.00000000 0.00000000 
039350370 0.00000000 0.00000000 -53.18900008 49.62013635 0.00000000 0.00000000 0.00000000 0.00000000 
041267888 0.00000000 0.00000000 -52.96050422 50.46188182 0.00000000 0.00000000 0.00000000 0.00000000 
043185406 0.00000000 0.00000000 -52.75323332 53.02211584 0.00000000 0.00000000 0.00000000 0.00000000 
045102924 0.00000000 0.00000000 -51.23982369 57.64430231 0.00000000 0.00000000 0.00000000 0.00000000 
047020444 0.00000000 0.00000000 -51.00249649 56.82344180 0.00000000 0.00000000 0.00000000 0.00000000 
048937962 0.00000000 0.00000000 -51.06545758 59.63061377 0.00000000 0.00000000 0.00000000 0.00000000 
050855480 0.00000000 0.00000000 -50.51502121 57.34965680 0.00000000 0.00000000 0.00000000 0.00000000 
052772998 0.00000000 0.00000000 -49.93965109 55.19697188 0.00000000 0.00000000 0.00000000 0.00000000 
054690518 0.00000000 0.00000000 -48.92273209 56.95224821 0.00000000 0.00000000 0.00000000 0.00000000 
056608036 0.00000000 0.00000000 -48.55037039 61.60465540 0.00000000 0.00000000 0.00000000 0.00000000 
058525554 0.00000000 0.00000000 -48.81780428 60.69804876 0.00000000 0.00000000 0.00000000 0.00000000 
060443072 0.00000000 0.00000000 -48.30284787 58.39672978 0.00000000 0.00000000 0.00000000 0.00000000 
062360592 0.00000000 0.00000000 -48.06856995 61.88776563 0.00000000 0.00000000 0.00000000 0.00000000 
064278110 0.00000000 0.00000000 -47.74366648 63.83396643 0.00000000 0.00000000 0.00000000 0.00000000 
066195628 0.00000000 0.00000000 -48.26931031 64.43921529 0.00000000 0.00000000 0.00000000 0.00000000 
068113146 0.00000000 0.00000000 -47.43749316 65.05928578 0.00000000 0.00000000 0.00000000 0.00000000 
070030666 0.00000000 0.00000000 -46.59950658 67.91943391 0.00000000 0.00000000 0.00000000 0.00000000 
071948184 0.00000000 0.00000000 -46.88059536 64.65745734 0.00000000 0.00000000 0.00000000 0.00000000 
073865702 0.00000000 0.00000000 -46.46348294 64.89603653 0.00000000 0.00000000 0.00000000 0.00000000 
075783220 0.00000000 0.00000000 -45.74345091 65.39519764 0.00000000 0.00000000 0.00000000 0.00000000 
077700740 0.00000000 0.00000000 -44.87517029 66.64692520 0.00000000 0.00000000 0.00000000 0.00000000 
079618258 0.00000000 0.00000000 -45.71185963 61.46461868 0.00000000 0.00000000 0.00000000 0.00000000 
081535776 0.00000000 0.00000000 -45.45906854 57.28162148 0.00000000 0.00000000 0.00000000 0.00000000 
083453294 0.00000000 0.00000000 -45.28380858 51.02774366 0.00000000 0.00000000 0.00000000 0.00000000 
085370814 0.00000000 0.00000000 -44.73314508 49.28549321 0.00000000 0.00000000 0.00000000 0.00000000 
087288332 0.00000000 0.00000000 -45.08054257 45.57437479 0.00000000 0.00000000 0.00000000 0.00000000 
089205850 0.00000000 0.00000000 -44.40341700 45.74373351 0.00000000 0.00000000 0.00000000 0.00000000 
091123368 0.00000000 0.00000000 -43.99205594 43.80143703 0.00000000 0.00000000 0.00000000 0.00000000 
093040888 0.00000000 0.00000000 -43.54205604 44.10199769 0.00000000 0.00000000 0.00000000 0.00000000 
094958406 0.00000000 0.00000000 -44.29686773 45.88546339 0.00000000 0.00000000 0.00000000 0.00000000 
096875924 0.00000000 0.00000000 -44.88215187 46.05369071 0.00000000 0.00000000 0.00000000 0.00000000 
098793442 0.00000000 0.00000000 -45.42624039 44.72717761 0.00000000 0.00000000 0.00000000 0.00000000 
100710962 0.00000000 0.00000000 -45.88146024 42.35536515 0.00000000 0.00000000 0.00000000 0.00000000 
102628480 0.00000000 0.00000000 -45.33802849 48.58871149 0.00000000 0.00000000 0.00000000 0.00000000 
104545998 0.00000000 0.00000000 -45.47320355 55.06656709 0.00000000 0.00000000 0.00000000 0.00000000 
106463516 0.00000000 0.00000000 -45.28000114 60.99171096 0.00000000 0.00000000 0.00000000 0.00000000 
108381036 0.00000000 0.00000000 -44.49916599 63.46263696 0.00000000 0.00000000 0.00000000 0.00000000 
110298554 0.00000000 0.00000000 -44.99282789 64.25331679 0.00000000 0.00000000 0.00000000 0.00000000 
112216072 0.00000000 0.00000000 -44.41809968 64.88423637 0.00000000 0.00000000 0.00000000 0.00000000 
114133590 0.00000000 0.00000000 -44.39592759 65.19075030 0.00000000 0.00000000 0.00000000 0.00000000 
116051110 0.00000000 0.00000000 -43.50391938 63.11452617 0.00000000 0.00000000 0.00000000 0.00000000 
117968628 0.00000000 0.00000000 -44.00380807 64.64235147 0.00000000 0.00000000 0.00000000 0.00000000 
119886146 0.00000000 0.00000000 -44.38592242 63.95376926 0.00000000 0.00000000 0.00000000 0.00000000 
121803664 0.00000000 0.00000000 -44.57502214 63.50179173 0.00000000 0.00000000 0.00000000 0.00000000 
123721184 0.00000000 0.00000000 -44.24285467 66.58759665 0.00000000 0.00000000 0.00000000 0.00000000 
125638702 0.00000000 0.00000000 -44.59249995 63.66681820 0.00000000 0.00000000 0.00000000 0.00000000 
127556220 0.00000000 0.00000000 -44.12077761 61.58666380 0.00000000 0.00000000 0.00000000 0.00000000 
129473738 0.00000000 0.00000000 -43.77123020 62.60585494 0.00000000 0.00000000 0.00000000 0.00000000 
131391258 0.00000000 0.00000000 -43.15719958 64.32980045 0.00000000 0.00000000 0.00000000 0.00000000 
133308776 0.00000000 0.00000000 -43.40194559 67.59896083 0.00000000 0.00000000 0.00000000 0.00000000 
135226294 0.00000000 0.00000000 -42.56094695 67.78422356 0.00000000 0.00000000 0.00000000 0.00000000 
137143812 0.00000000 0.00000000 -42.31773349 67.05811133 0.00000000 0.00000000 0.00000000 0.00000000 
139061332 0.00000000 0.00000000 -41.91675629 69.72973805 0.00000000 0.00000000 0.00000000 0.00000000 
140978850 0.00000000 0.00000000 -41.60252822 70.03982288 0.00000000 0.00000000 0.00000000 0.00000000 
142896368 0.00000000 0.00000000 -41.06422608 70.57890994 0.00000000 0.00000000 0.00000000 0.00000000 
144813886 0.00000000 0.00000000 -40.99718501 71.94320956 0.00000000 0.00000000 0.00000000 0.00000000 
146731406 0.00000000 0.00000000 -40.44111151 74.56388495 0.00000000 0.00000000 0.00000000 0.00000000 
148648924 0.00000000 0.00000000 -40.20523934 72.96706024 0.00000000 0.00000000 0.00000000 0.00000000 
150566442 0.00000000 0.00000000 -40.00833763 71.71631998 0.00000000 0.00000000 0.00000000 0.00000000 
152483960 0.00000000 0.00000000 -39.52751002 70.15836206 0.00000000 0.00000000 0.00000000 0.00000000 
154401480 0.00000000 0.00000000 -39.06320181 71.80154113 0.00000000 0.00000000 0.00000000 0.00000000 
156318998 0.00000000 0.00000000 -39.11213031 71.46740354 0.00000000 0.00000000 0.00000000 0.00000000 
158236516 0.00000000 0.00000000 -38.89193903 69.71298563 0.00000000 0.00000000 0.00000000 0.00000000 
160154034 0.00000000 0.00000000 -38.34626157 70.45094045 0.00000000 0.00000000 0.00000000 0.00000000 
162071554 0.00000000 0.00000000 -37.83852765 71.83472977 0.00000000 0.00000000 0.00000000 0.00000000 
163989072 0.00000000 0.00000000 -38.15003635 69.91577228 0.00000000 0.00000000 0.00000000 0.00000000 
165906590 0.00000000 0.00000000 -37.69198236 66.43975977 0.00000000 0.00000000 0.00000000 0.00000000 
167824108 0.00000000 0.00000000 -37.59225336 65.95848735 0.00000000 0.00000000 0.00000000 0.00000000 
169741628 0.00000000 0.00000000 -36.74961474 65.42576641 0.00000000 0.00000000 0.00000000 0.00000000 
171659146 0.00000000 0.00000000 -36.94073552 63.38508022 0.00000000 0.00000000 0.00000000 0.00000000 
173576664 0.00000000 0.00000000 -36.80518495 60.45949756 0.00000000 0.00000000 0.00000000 0.00000000 
175494182 0.00000000 0.00000000 -36.28026065 58.19375263 0.00000000 0.00000000 0.00000000 0.00000000 
177411702 0.00000000 0.00000000 -35.59264885 57.10549813 0.00000000 0.00000000 0.00000000 0.00000000 
179329220 0.00000000 0.00000000 -35.78557554 55.84064549 0.00000000 0.00000000 0.00000000 0.00000000 
181246738 0.00000000 0.00000000 -35.86580115 54.07775100 0.00000000 0.00000000 0.00000000 0.00000000 
183164256 0.00000000 0.00000000 -35.63896212 54.19912251 0.00000000 0.00000000 0.00000000 0.00000000 
185081776 0.00000000 0.00000000 -35.24250680 51.66705321 0.00000000 0.00000000 0.00000000 0.00000000 
186999294 0.00000000 0.00000000 -35.57688914 50.22647643 0.00000000 0.00000000 0.00000000 0.00000000 
188916812 0.00000000 0.00000000 -35.81635098 49.48017955 0.00000000 0.00000000 0.00000000 0.00000000 
190834330 0.00000000 0.00000000 -35.85342706 46.91030291 0.00000000 0.00000000 0.00000000 0.00000000 
192751850 0.00000000 0.00000000 -35.53861873 45.38420572 0.00000000 0.00000000 0.00000000 0.00000000 
194669368 0.00000000 0.00000000 -35.99629131 45.24792999 0.00000000 0.00000000 0.00000000 0.00000000 
196586886 0.00000000 0.00000000 -36.43635027 44.74996065 0.00000000 0.00000000 0.00000000 0.00000000 
198504404 0.00000000 0.00000000 -36.65849966 43.42422631 0.00000000 0.00000000 0.00000000 0.00000000 
200421924 0.00000000 0.00000000 -36.55339947 41.99410272 0.00000000 0.00000000 0.00000000 0.00000000 
202339442 0.00000000 0.00000000 -37.03341469 42.88765275 0.00000000 0.00000000 0.00000000 0.00000000 
204256960 0.00000000 0.00000000 -37.34625003 43.01740035 0.00000000 0.00000000 0.00000000 0.00000000 
206174478 0.00000000 0.00000000 -37.18405047 43.46075334 0.00000000 0.00000000 0.00000000 0.00000000 
208091998 0.00000000 0.00000000 -37.23793007 43.88286562 0.00000000 0.00000000 0.00000000 0.00000000 
210009516 0.00000000 0.00000000 -37.47980135 43.84140034 0.00000000 0.00000000 0.00000000 0.00000000 
211927034 0.00000000 0.00000000 -37.85467794 44.68070606 0.00000000 0.00000000 0.00000000 0.00000000 
213844552 0.00000000 0.00000000 -37.81388690 44.21318425 0.00000000 0.00000000 0.00000000 0.00000000 
215762072 0.00000000 0.00000000 -37.73262641 42.70841795 0.00000000 0.00000000 0.00000000 0.00000000 
217679590 0.00000000 0.00000000 -37.99687280 45.29547871 0.00000000 0.00000000 0.00000000 0.00000000 
219597108 0.00000000 0.00000000 -38.00369044 46.66111008 0.00000000 0.00000000 0.00000000 0.00000000 
221514626 0.00000000 0.00000000 -37.96484412 46.25745603 0.00000000 0.00000000 0.00000000 0.00000000 
223432146 0.00000000 0.00000000 -37.78172643 48.17211704 0.00000000 0.00000000 0.00000000 0.00000000 
225349664 0.00000000 0.00000000 -37.82439556 51.84316012 0.00000000 0.00000000 0.00000000 0.00000000 
227267182 0.00000000 0.00000000 -37.61137531 54.11483698 0.00000000 0.00000000 0.00000000 0.00000000 
229184700 0.00000000 0.00000000 -37.46819404 56.49012327 0.00000000 0.00000000 0.00000000 0.00000000 
231102220 0.00000000 0.00000000 -36.99396185 59.09361690 0.00000000 0.00000000 0.00000000 0.00000000 
233019738 0.00000000 0.00000000 -37.16075269 59.53445980 0.00000000 0.00000000 0.00000000 0.00000000 
234937256 0.00000000 0.00000000 -36.91135086 60.21016195 0.00000000 0.00000000 0.00000000 0.00000000 
236854774 0.00000000 0.00000000 -36.67783692 62.70343616 0.00000000 0.00000000 0.00000000 0.00000000 
238772294 0.00000000 0.00000000 -36.38102504 62.89028206 0.00000000 0.00000000 0.00000000 0.00000000 
240689812 0.00000000 0.00000000 -36.27083174 63.14993212 0.00000000 0.00000000 0.00000000 0.00000000 
242607330 0.00000000 0.00000000 -35.99301549 62.43203267 0.00000000 0.00000000 0.00000000 0.00000000 
244524848 0.00000000 0.00000000 -35.60068991 63.51523645 0.00000000 0.00000000 0.00000000 0.00000000 
246442368 0.00000000 0.00000000 -35.02089242 64.90814648 0.00000000 0.00000000 0.00000000 0.00000000 
248359886 0.00000000 0.00000000 -34.95901594 63.19357723 0.00000000 0.00000000 0.00000000 0.00000000 
250277404 0.00000000 0.00000000 -34.91032002 62.56242746 0.00000000 0.00000000 0.00000000 0.00000000 
252194922 0.00000000 0.00000000 -34.36195372 63.12613358 0.00000000 0.00000000 0.00000000 0.00000000 
254112442 0.00000000 0.00000000 -33.92411182 64.19491847 0.00000000 0.00000000 0.00000000 0.00000000 
256029960 0.00000000 0.00000000 -33.79331184 62.18593899 0.00000000 0.00000000 0.00000000 0.00000000 
257947478 0.00000000 0.00000000 -33.43857157 59.99423974 0.00000000 0.00000000 0.00000000 0.00000000 
259864996 0.00000000 0.00000000 -32.82716160 59.11447770 0.00000000 0.00000000 0.00000000 0.00000000 
261782516 0.00000000 0.00000000 -32.12243971 60.06641066 0.00000000 0.00000000 0.00000000 0.00000000 
263700034 0.00000000 0.00000000 -32.37835645 57.16577952 0.00000000 0.00000000 0.00000000 0.00000000 
265617552 0.00000000 0.00000000 -32.27015445 55.11592328 0.00000000 0.00000000 0.00000000 0.00000000 
267535070 0.00000000 0.00000000 -31.83223843 52.77700008 0.00000000 0.00000000 0.00000000 0.00000000 
269452590 0.00000000 0.00000000 -31.27941012 51.96820417 0.00000000 0.00000000 0.00000000 0.00000000 
271370108 0.00000000 0.00000000 -31.64201268 48.43287607 0.00000000 0.00000000 0.00000000 0.00000000 
273287626 0.00000000 0.00000000 -31.59623654 45.79238587 0.00000000 0.00000000 0.00000000 0.00000000 
275205144 0.00000000 0.00000000 -31.26633582 43.76653103 0.00000000 0.00000000 0.00000000 0.00000000 
277122664 0.00000000 0.00000000 -30.73753627 41.52437512 0.00000000 0.00000000 0.00000000 0.00000000 
279040182 0.00000000 0.00000000 -31.23008207 40.42729300 0.00000000 0.00000000 0.00000000 0.00000000 
280957700 0.00000000 0.00000000 -31.76186439 39.17854019 0.00000000 0.00000000 0.00000000 0.00000000 
282875218 0.00000000 0.00000000 -31.73950218 35.26617879 0.00000000 0.00000000 0.00000000 0.00000000 
284792738 0.00000000 0.00000000 -31.46796942 32.94671498 0.00000000 0.00000000 0.00000000 0.00000000 
286710256 0.00000000 0.00000000 -32.10159739 32.32758208 0.00000000 0.00000000 0.00000000 0.00000000 
288627774 0.00000000 0.00000000 -32.56760770 31.94448895 0.00000000 0.00000000 0.00000000 0.00000000 
290545292 0.00000000 0.00000000 -32.69880514 29.05028609 0.00000000 0.00000000 0.00000000 0.00000000 
292462812 0.00000000 0.00000000 -32.58449280 27.95488614 0.00000000 0.00000000 0.00000000 0.00000000 
294380330 0.00000000 0.00000000 -33.26023737 28.76122071 0.00000000 0.00000000 0.00000000 0.00000000 
296297848 0.00000000 0.00000000 -33.40308069 27.33044965 0.00000000 0.00000000 0.00000000 0.00000000 
298215366 0.00000000 0.00000000 -33.62080115 28.23882402 0.00000000 0.00000000 0.00000000 0.00000000 
300132886 0.00000000 0.00000000 -33.50777085 27.48242240 0.00000000 0.00000000 0.00000000 0.00000000 
302050404 0.00000000 0.00000000 -33.91386844 28.84180187 0.00000000 0.00000000 0.00000000 0.00000000 
303967922 0.00000000 0.00000000 -34.24571010 29.73280357 0.00000000 0.00000000 0.00000000 0.00000000 
305885440 0.00000000 0.00000000 -34.47319946 30.89557982 0.00000000 0.00000000 0.00000000 0.00000000 
307802960 0.00000000 0.00000000 -34.52136135 30.52995372 0.00000000 0.00000000 0.00000000 0.00000000 
309720478 0.00000000 0.00000000 -34.77212152 32.82956163 0.00000000 0.00000000 0.00000000 0.00000000 
311637996 0.00000000 0.00000000 -35.01193262 34.11940760 0.00000000 0.00000000 0.00000000 0.00000000 
313555514 0.00000000 0.00000000 -35.05114626 35.14176365 0.00000000 0.00000000 0.00000000 0.00000000 
315473034 0.00000000 0.00000000 -35.13360392 36.40112164 0.00000000 0.00000000 0.00000000 0.00000000 
317390552 0.00000000 0.00000000 -35.26232799 36.94397783 0.00000000 0.00000000 0.00000000 0.00000000 
319308070 0.00000000 0.00000000 -35.29056456 39.18590188 0.00000000 0.00000000 0.00000000 0.00000000 
321225588 0.00000000 0.00000000 -34.98020321 40.74638780 0.00000000 0.00000000 0.00000000 0.00000000 
323143108 0.00000000 0.00000000 -35.00115596 42.98461698 0.00000000 0.00000000 0.00000000 0.00000000 
325060626 0.00000000 0.00000000 -35.12805227 45.56892061 0.00000000 0.00000000 0.00000000 0.00000000 
326978144 0.00000000 0.00000000 -35.12888654 46.59505478 0.00000000 0.00000000 0.00000000 0.00000000 
328895662 0.00000000 0.00000000 -34.98539523 47.83966852 0.00000000 0.00000000 0.00000000 0.00000000 
330813182 0.00000000 0.00000000 -34.82600885 50.72637180 0.00000000 0.00000000 0.00000000 0.00000000 
332730700 0.00000000 0.00000000 -34.89714886 51.64715720 0.00000000 0.00000000 0.00000000 0.00000000 
334648218 0.00000000 0.00000000 -34.72165436 53.01216871 0.00000000 0.00000000 0.00000000 0.00000000 
336565736 0.00000000 0.00000000 -34.24476114 54.45807426 0.00000000 0.00000000 0.00000000 0.00000000 
338483256 0.00000000 0.00000000 -33.93478967 57.17383238 0.00000000 0.00000000 0.00000000 0.00000000 
340400774 0.00000000 0.00000000 -33.83190591 57.14117466 0.00000000 0.00000000 0.00000000 0.00000000 
342318292 0.00000000 0.00000000 -33.55131406 57.44782016 0.00000000 0.00000000 0.00000000 0.00000000 
344235810 0.00000000 0.00000000 -32.98933746 56.89747976 0.00000000 0.00000000 0.00000000 0.00000000 
346153330 0.00000000 0.00000000 -32.43544189 58.90643071 0.00000000 0.00000000 0.00000000 0.00000000 
348070848 0.00000000 0.00000000 -32.13041719 57.33053688 0.00000000 0.00000000 0.00000000 0.00000000 
349988366 0.00000000 0.00000000 -31.77308989 57.25648676 0.00000000 0.00000000 0.00000000 0.00000000 
351905884 0.00000000 0.00000000 -31.24295318 57.35905414 0.00000000 0.00000000 0.00000000 0.00000000 
353823404 0.00000000 0.00000000 -30.66593145 58.74570313 0.00000000 0.00000000 0.00000000 0.00000000 
355740922 0.00000000 0.00000000 -30.52205316 55.68286418 0.00000000 0.00000000 0.00000000 0.00000000 
357658440 0.00000000 0.00000000 -30.12350289 53.86448242 0.00000000 0.00000000 0.00000000 0.00000000 
359575958 0.00000000 0.00000000 -29.68543383 52.83231957 0.00000000 0.00000000 0.00000000 0.00000000 
361493478 0.00000000 0.00000000 -28.98311100 53.14294812 0.00000000 0.00000000 0.00000000 0.00000000 
363410996 0.00000000 0.00000000 -29.15912906 49.73562541 0.00000000 0.00000000 0.00000000 0.00000000 
365328514 0.00000000 0.00000000 -29.08225868 46.37648538 0.00000000 0.00000000 0.00000000 0.00000000 
367246032 0.00000000 0.00000000 -28.75513540 44.49679141 0.00000000 0.00000000 0.00000000 0.00000000 
369163552 0.00000000 0.00000000 -28.09447699 43.19825657 0.00000000 0.00000000 0.00000000 0.00000000 
371081070 0.00000000 0.00000000 -28.70761145 39.99993961 0.00000000 0.00000000 0.00000000 0.00000000 
372998588 0.00000000 0.00000000 -29.06089604 36.10223376 0.00000000 0.00000000 0.00000000 0.00000000 
