! created by ADMIN at Mon Apr 20 18:50:51 IST 2026
! generated using vna/J Version 3.2.10
# Hz S DB R 50
001000000 0.00000000 0.00000000 -62.13414053 52.07144494 0.00000000 0.00000000 0.00000000 0.00000000 
002917518 0.00000000 0.00000000 -66.68845187 58.66300475 0.00000000 0.00000000 0.00000000 0.00000000 
004835036 0.00000000 0.00000000 -67.60275110 43.27199179 0.00000000 0.00000000 0.00000000 0.00000000 
006752554 0.00000000 0.00000000 -63.31141397 11.38251455 0.00000000 0.00000000 0.00000000 0.00000000 
008670074 0.00000000 0.00000000 -65.45449224 16.30523164 0.00000000 0.00000000 0.00000000 0.00000000 
010587592 0.00000000 0.00000000 -60.21105928 27.11366002 0.00000000 0.00000000 0.00000000 0.00000000 
012505110 0.00000000 0.00000000 -58.09647762 30.78646822 0.00000000 0.00000000 0.00000000 0.00000000 
014422628 0.00000000 0.00000000 -56.62964524 35.74799709 0.00000000 0.00000000 0.00000000 0.00000000 
016340148 0.00000000 0.00000000 -55.22834147 39.84353295 0.00000000 0.00000000 0.00000000 0.00000000 
018257666 0.00000000 0.00000000 -55.16897302 41.20081244 0.00000000 0.00000000 0.00000000 0.00000000 
020175184 0.00000000 0.00000000 -55.45521105 42.43350301 0.00000000 0.00000000 0.00000000 0.00000000 
022092702 0.00000000 0.00000000 -55.57545215 41.21522086 0.00000000 0.00000000 0.00000000 0.00000000 
024010222 0.00000000 0.00000000 -57.46320670 44.63181840 0.00000000 0.00000000 0.00000000 0.00000000 
025927740 0.00000000 0.00000000 -55.91921668 37.06512191 0.00000000 0.00000000 0.00000000 0.00000000 
027845258 0.00000000 0.00000000 -56.89369116 47.76450112 0.00000000 0.00000000 0.00000000 0.00000000 
029762776 0.00000000 0.00000000 -57.25973575 50.73817438 0.00000000 0.00000000 0.00000000 0.00000000 
031680296 0.00000000 0.00000000 -55.16757024 48.08069154 0.00000000 0.00000000 0.00000000 0.00000000 
033597814 0.00000000 0.00000000 -56.68311988 48.33911519 0.00000000 0.00000000 0.00000000 0.00000000 
035515332 0.00000000 0.00000000 -55.88750776 51.36326857 0.00000000 0.00000000 0.00000000 0.00000000 
037432850 0.00000000 0.00000000 -56.88964107 54.98419323 0.00000000 0.00000000 0.00000000 0.00000000 
039350370 0.00000000 0.00000000 -55.33625879 54.04780502 0.00000000 0.00000000 0.00000000 0.00000000 
041267888 0.00000000 0.00000000 -54.59585305 53.80489349 0.00000000 0.00000000 0.00000000 0.00000000 
043185406 0.00000000 0.00000000 -53.90400396 56.56839022 0.00000000 0.00000000 0.00000000 0.00000000 
045102924 0.00000000 0.00000000 -51.84218413 60.99689078 0.00000000 0.00000000 0.00000000 0.00000000 
047020444 0.00000000 0.00000000 -51.37720945 61.06238878 0.00000000 0.00000000 0.00000000 0.00000000 
048937962 0.00000000 0.00000000 -51.41800269 63.43989208 0.00000000 0.00000000 0.00000000 0.00000000 
050855480 0.00000000 0.00000000 -50.90055458 60.18452777 0.00000000 0.00000000 0.00000000 0.00000000 
052772998 0.00000000 0.00000000 -50.33303489 57.23411719 0.00000000 0.00000000 0.00000000 0.00000000 
054690518 0.00000000 0.00000000 -49.24848825 58.28777463 0.00000000 0.00000000 0.00000000 0.00000000 
056608036 0.00000000 0.00000000 -48.81795646 64.27670678 0.00000000 0.00000000 0.00000000 0.00000000 
058525554 0.00000000 0.00000000 -49.18345546 65.04525992 0.00000000 0.00000000 0.00000000 0.00000000 
060443072 0.00000000 0.00000000 -48.84300182 63.58823127 0.00000000 0.00000000 0.00000000 0.00000000 
062360592 0.00000000 0.00000000 -48.71196507 68.33434954 0.00000000 0.00000000 0.00000000 0.00000000 
064278110 0.00000000 0.00000000 -48.27654762 72.98753910 0.00000000 0.00000000 0.00000000 0.00000000 
066195628 0.00000000 0.00000000 -48.87339216 77.89331905 0.00000000 0.00000000 0.00000000 0.00000000 
068113146 0.00000000 0.00000000 -48.18913402 80.24201590 0.00000000 0.00000000 0.00000000 0.00000000 
070030666 0.00000000 0.00000000 -47.47908723 84.47520086 0.00000000 0.00000000 0.00000000 0.00000000 
071948184 0.00000000 0.00000000 -47.40474648 75.89536219 0.00000000 0.00000000 0.00000000 0.00000000 
073865702 0.00000000 0.00000000 -46.22075138 72.17704694 0.00000000 0.00000000 0.00000000 0.00000000 
075783220 0.00000000 0.00000000 -44.77732714 70.87853944 0.00000000 0.00000000 0.00000000 0.00000000 
077700740 0.00000000 0.00000000 -43.32914697 71.86407117 0.00000000 0.00000000 0.00000000 0.00000000 
079618258 0.00000000 0.00000000 -44.24696460 67.30942256 0.00000000 0.00000000 0.00000000 0.00000000 
081535776 0.00000000 0.00000000 -44.14901380 62.51381375 0.00000000 0.00000000 0.00000000 0.00000000 
083453294 0.00000000 0.00000000 -44.06234444 56.16866003 0.00000000 0.00000000 0.00000000 0.00000000 
085370814 0.00000000 0.00000000 -43.49909862 53.77537274 0.00000000 0.00000000 0.00000000 0.00000000 
087288332 0.00000000 0.00000000 -44.47006565 50.53222919 0.00000000 0.00000000 0.00000000 0.00000000 
089205850 0.00000000 0.00000000 -44.38491318 48.74392009 0.00000000 0.00000000 0.00000000 0.00000000 
091123368 0.00000000 0.00000000 -44.45448347 44.04922461 0.00000000 0.00000000 0.00000000 0.00000000 
093040888 0.00000000 0.00000000 -44.28888414 40.95442791 0.00000000 0.00000000 0.00000000 0.00000000 
094958406 0.00000000 0.00000000 -44.84345885 42.12884137 0.00000000 0.00000000 0.00000000 0.00000000 
096875924 0.00000000 0.00000000 -45.16979280 41.98460579 0.00000000 0.00000000 0.00000000 0.00000000 
098793442 0.00000000 0.00000000 -45.42374820 40.86600286 0.00000000 0.00000000 0.00000000 0.00000000 
100710962 0.00000000 0.00000000 -45.58708907 39.38411361 0.00000000 0.00000000 0.00000000 0.00000000 
102628480 0.00000000 0.00000000 -45.94242897 46.20170678 0.00000000 0.00000000 0.00000000 0.00000000 
104545998 0.00000000 0.00000000 -47.10573303 53.07175868 0.00000000 0.00000000 0.00000000 0.00000000 
106463516 0.00000000 0.00000000 -48.01536899 58.78073811 0.00000000 0.00000000 0.00000000 0.00000000 
108381036 0.00000000 0.00000000 -48.11400673 58.49507840 0.00000000 0.00000000 0.00000000 0.00000000 
110298554 0.00000000 0.00000000 -46.44787976 67.07871490 0.00000000 0.00000000 0.00000000 0.00000000 
112216072 0.00000000 0.00000000 -44.14330902 74.77124701 0.00000000 0.00000000 0.00000000 0.00000000 
114133590 0.00000000 0.00000000 -42.88920774 82.87055954 0.00000000 0.00000000 0.00000000 0.00000000 
116051110 0.00000000 0.00000000 -41.45896487 87.59394036 0.00000000 0.00000000 0.00000000 0.00000000 
117968628 0.00000000 0.00000000 -42.39699357 83.64482235 0.00000000 0.00000000 0.00000000 0.00000000 
119886146 0.00000000 0.00000000 -42.96312109 76.20512098 0.00000000 0.00000000 0.00000000 0.00000000 
121803664 0.00000000 0.00000000 -42.83473677 68.70181715 0.00000000 0.00000000 0.00000000 0.00000000 
123721184 0.00000000 0.00000000 -41.85870183 65.48863283 0.00000000 0.00000000 0.00000000 0.00000000 
125638702 0.00000000 0.00000000 -42.68092906 63.55779391 0.00000000 0.00000000 0.00000000 0.00000000 
127556220 0.00000000 0.00000000 -42.81024399 60.84165458 0.00000000 0.00000000 0.00000000 0.00000000 
129473738 0.00000000 0.00000000 -42.91589631 59.83654082 0.00000000 0.00000000 0.00000000 0.00000000 
131391258 0.00000000 0.00000000 -42.64423144 58.92266254 0.00000000 0.00000000 0.00000000 0.00000000 
133308776 0.00000000 0.00000000 -42.92297407 62.03918554 0.00000000 0.00000000 0.00000000 0.00000000 
135226294 0.00000000 0.00000000 -42.14682814 62.41881097 0.00000000 0.00000000 0.00000000 0.00000000 
137143812 0.00000000 0.00000000 -41.92053399 61.70145211 0.00000000 0.00000000 0.00000000 0.00000000 
139061332 0.00000000 0.00000000 -41.55023903 64.21395199 0.00000000 0.00000000 0.00000000 0.00000000 
140978850 0.00000000 0.00000000 -41.38958634 66.22334751 0.00000000 0.00000000 0.00000000 0.00000000 
142896368 0.00000000 0.00000000 -41.05092888 68.10829094 0.00000000 0.00000000 0.00000000 0.00000000 
144813886 0.00000000 0.00000000 -41.21692622 70.51541554 0.00000000 0.00000000 0.00000000 0.00000000 
146731406 0.00000000 0.00000000 -40.89805565 73.79757511 0.00000000 0.00000000 0.00000000 0.00000000 
148648924 0.00000000 0.00000000 -40.54156668 72.38411077 0.00000000 0.00000000 0.00000000 0.00000000 
150566442 0.00000000 0.00000000 -40.25580327 71.61177518 0.00000000 0.00000000 0.00000000 0.00000000 
152483960 0.00000000 0.00000000 -39.72184781 70.59301914 0.00000000 0.00000000 0.00000000 0.00000000 
154401480 0.00000000 0.00000000 -39.21478384 72.91096531 0.00000000 0.00000000 0.00000000 0.00000000 
156318998 0.00000000 0.00000000 -39.39625169 71.72690327 0.00000000 0.00000000 0.00000000 0.00000000 
158236516 0.00000000 0.00000000 -39.26886635 68.79223063 0.00000000 0.00000000 0.00000000 0.00000000 
160154034 0.00000000 0.00000000 -38.73575237 68.36392945 0.00000000 0.00000000 0.00000000 0.00000000 
162071554 0.00000000 0.00000000 -38.20386456 68.73513898 0.00000000 0.00000000 0.00000000 0.00000000 
163989072 0.00000000 0.00000000 -38.75736067 66.61266571 0.00000000 0.00000000 0.00000000 0.00000000 
165906590 0.00000000 0.00000000 -38.47517503 62.26308258 0.00000000 0.00000000 0.00000000 0.00000000 
167824108 0.00000000 0.00000000 -38.55145643 60.65809383 0.00000000 0.00000000 0.00000000 0.00000000 
169741628 0.00000000 0.00000000 -37.74403987 58.92969616 0.00000000 0.00000000 0.00000000 0.00000000 
171659146 0.00000000 0.00000000 -38.11582480 58.75922040 0.00000000 0.00000000 0.00000000 0.00000000 
173576664 0.00000000 0.00000000 -38.24564910 57.10456579 0.00000000 0.00000000 0.00000000 0.00000000 
175494182 0.00000000 0.00000000 -38.00970091 55.37993341 0.00000000 0.00000000 0.00000000 0.00000000 
177411702 0.00000000 0.00000000 -37.60604586 54.13432267 0.00000000 0.00000000 0.00000000 0.00000000 
179329220 0.00000000 0.00000000 -37.82818810 56.06301154 0.00000000 0.00000000 0.00000000 0.00000000 
181246738 0.00000000 0.00000000 -38.12208028 57.49771025 0.00000000 0.00000000 0.00000000 0.00000000 
183164256 0.00000000 0.00000000 -38.17597065 60.94467614 0.00000000 0.00000000 0.00000000 0.00000000 
185081776 0.00000000 0.00000000 -38.28883175 60.01583032 0.00000000 0.00000000 0.00000000 0.00000000 
186999294 0.00000000 0.00000000 -37.97951255 57.45619312 0.00000000 0.00000000 0.00000000 0.00000000 
188916812 0.00000000 0.00000000 -37.54366287 57.64733580 0.00000000 0.00000000 0.00000000 0.00000000 
190834330 0.00000000 0.00000000 -37.04150464 57.04820797 0.00000000 0.00000000 0.00000000 0.00000000 
192751850 0.00000000 0.00000000 -36.28522555 58.29737946 0.00000000 0.00000000 0.00000000 0.00000000 
194669368 0.00000000 0.00000000 -36.81021592 56.41863680 0.00000000 0.00000000 0.00000000 0.00000000 
196586886 0.00000000 0.00000000 -37.21661035 54.19789517 0.00000000 0.00000000 0.00000000 0.00000000 
198504404 0.00000000 0.00000000 -37.30511443 51.13591386 0.00000000 0.00000000 0.00000000 0.00000000 
200421924 0.00000000 0.00000000 -36.96937590 48.25493992 0.00000000 0.00000000 0.00000000 0.00000000 
202339442 0.00000000 0.00000000 -37.69546197 49.37238877 0.00000000 0.00000000 0.00000000 0.00000000 
204256960 0.00000000 0.00000000 -38.28332103 49.20055099 0.00000000 0.00000000 0.00000000 0.00000000 
206174478 0.00000000 0.00000000 -38.33178559 48.50472683 0.00000000 0.00000000 0.00000000 0.00000000 
208091998 0.00000000 0.00000000 -38.59823093 47.74863741 0.00000000 0.00000000 0.00000000 0.00000000 
210009516 0.00000000 0.00000000 -38.62324722 51.91828832 0.00000000 0.00000000 0.00000000 0.00000000 
211927034 0.00000000 0.00000000 -38.89277652 57.94209864 0.00000000 0.00000000 0.00000000 0.00000000 
213844552 0.00000000 0.00000000 -38.91315063 62.17153462 0.00000000 0.00000000 0.00000000 0.00000000 
215762072 0.00000000 0.00000000 -39.15160058 65.44999107 0.00000000 0.00000000 0.00000000 0.00000000 
217679590 0.00000000 0.00000000 -38.65177368 64.48900309 0.00000000 0.00000000 0.00000000 0.00000000 
219597108 0.00000000 0.00000000 -37.89520425 63.40894617 0.00000000 0.00000000 0.00000000 0.00000000 
221514626 0.00000000 0.00000000 -37.18450281 62.47526489 0.00000000 0.00000000 0.00000000 0.00000000 
223432146 0.00000000 0.00000000 -36.30349601 64.74798341 0.00000000 0.00000000 0.00000000 0.00000000 
225349664 0.00000000 0.00000000 -36.42089767 65.76302994 0.00000000 0.00000000 0.00000000 0.00000000 
227267182 0.00000000 0.00000000 -36.27860942 65.26214976 0.00000000 0.00000000 0.00000000 0.00000000 
229184700 0.00000000 0.00000000 -36.08484674 65.21756850 0.00000000 0.00000000 0.00000000 0.00000000 
231102220 0.00000000 0.00000000 -35.51997752 65.42217971 0.00000000 0.00000000 0.00000000 0.00000000 
233019738 0.00000000 0.00000000 -35.93605261 66.18606684 0.00000000 0.00000000 0.00000000 0.00000000 
234937256 0.00000000 0.00000000 -35.97330766 66.42056891 0.00000000 0.00000000 0.00000000 0.00000000 
236854774 0.00000000 0.00000000 -35.94879150 68.03684842 0.00000000 0.00000000 0.00000000 0.00000000 
238772294 0.00000000 0.00000000 -35.87137531 67.29366268 0.00000000 0.00000000 0.00000000 0.00000000 
240689812 0.00000000 0.00000000 -35.73429542 66.62326674 0.00000000 0.00000000 0.00000000 0.00000000 
242607330 0.00000000 0.00000000 -35.41118564 65.17445212 0.00000000 0.00000000 0.00000000 0.00000000 
244524848 0.00000000 0.00000000 -34.92771579 65.64597706 0.00000000 0.00000000 0.00000000 0.00000000 
246442368 0.00000000 0.00000000 -34.25972793 66.60652788 0.00000000 0.00000000 0.00000000 0.00000000 
248359886 0.00000000 0.00000000 -34.34955164 65.10191855 0.00000000 0.00000000 0.00000000 0.00000000 
250277404 0.00000000 0.00000000 -34.42783014 64.43807297 0.00000000 0.00000000 0.00000000 0.00000000 
252194922 0.00000000 0.00000000 -33.99862144 64.51704208 0.00000000 0.00000000 0.00000000 0.00000000 
254112442 0.00000000 0.00000000 -33.64503609 65.09988751 0.00000000 0.00000000 0.00000000 0.00000000 
256029960 0.00000000 0.00000000 -33.62706080 63.82674197 0.00000000 0.00000000 0.00000000 0.00000000 
257947478 0.00000000 0.00000000 -33.41924253 62.08024423 0.00000000 0.00000000 0.00000000 0.00000000 
259864996 0.00000000 0.00000000 -32.94949715 61.27443457 0.00000000 0.00000000 0.00000000 0.00000000 
261782516 0.00000000 0.00000000 -32.35770759 62.08862013 0.00000000 0.00000000 0.00000000 0.00000000 
263700034 0.00000000 0.00000000 -32.51769697 58.89531429 0.00000000 0.00000000 0.00000000 0.00000000 
265617552 0.00000000 0.00000000 -32.29011601 56.77793573 0.00000000 0.00000000 0.00000000 0.00000000 
267535070 0.00000000 0.00000000 -31.75801119 54.58460429 0.00000000 0.00000000 0.00000000 0.00000000 
269452590 0.00000000 0.00000000 -31.12935529 54.12462656 0.00000000 0.00000000 0.00000000 0.00000000 
271370108 0.00000000 0.00000000 -31.50222166 50.29342226 0.00000000 0.00000000 0.00000000 0.00000000 
273287626 0.00000000 0.00000000 -31.43239848 47.30175154 0.00000000 0.00000000 0.00000000 0.00000000 
275205144 0.00000000 0.00000000 -31.06161005 45.02408114 0.00000000 0.00000000 0.00000000 0.00000000 
277122664 0.00000000 0.00000000 -30.50120862 42.71210705 0.00000000 0.00000000 0.00000000 0.00000000 
279040182 0.00000000 0.00000000 -31.06984338 41.94965021 0.00000000 0.00000000 0.00000000 0.00000000 
280957700 0.00000000 0.00000000 -31.68818798 41.02649460 0.00000000 0.00000000 0.00000000 0.00000000 
282875218 0.00000000 0.00000000 -31.79770172 37.05240379 0.00000000 0.00000000 0.00000000 0.00000000 
284792738 0.00000000 0.00000000 -31.62839001 34.41997496 0.00000000 0.00000000 0.00000000 0.00000000 
286710256 0.00000000 0.00000000 -32.27051869 34.08289085 0.00000000 0.00000000 0.00000000 0.00000000 
288627774 0.00000000 0.00000000 -32.74089240 34.03456813 0.00000000 0.00000000 0.00000000 0.00000000 
290545292 0.00000000 0.00000000 -32.91659657 31.36309255 0.00000000 0.00000000 0.00000000 0.00000000 
292462812 0.00000000 0.00000000 -32.83023318 30.47290591 0.00000000 0.00000000 0.00000000 0.00000000 
294380330 0.00000000 0.00000000 -33.48017993 31.49387928 0.00000000 0.00000000 0.00000000 0.00000000 
296297848 0.00000000 0.00000000 -33.61320798 30.03533299 0.00000000 0.00000000 0.00000000 0.00000000 
298215366 0.00000000 0.00000000 -33.78459041 31.21393859 0.00000000 0.00000000 0.00000000 0.00000000 
300132886 0.00000000 0.00000000 -33.65645683 30.63848178 0.00000000 0.00000000 0.00000000 0.00000000 
302050404 0.00000000 0.00000000 -33.98214358 31.96760791 0.00000000 0.00000000 0.00000000 0.00000000 
303967922 0.00000000 0.00000000 -34.22682282 32.97989124 0.00000000 0.00000000 0.00000000 0.00000000 
305885440 0.00000000 0.00000000 -34.35620770 34.42218967 0.00000000 0.00000000 0.00000000 0.00000000 
307802960 0.00000000 0.00000000 -34.34207028 34.46846660 0.00000000 0.00000000 0.00000000 0.00000000 
309720478 0.00000000 0.00000000 -34.64875155 36.82955638 0.00000000 0.00000000 0.00000000 0.00000000 
311637996 0.00000000 0.00000000 -34.96225515 38.17166738 0.00000000 0.00000000 0.00000000 0.00000000 
313555514 0.00000000 0.00000000 -35.07971879 39.05567310 0.00000000 0.00000000 0.00000000 0.00000000 
315473034 0.00000000 0.00000000 -35.23285192 40.19359874 0.00000000 0.00000000 0.00000000 0.00000000 
317390552 0.00000000 0.00000000 -35.45688149 41.39339818 0.00000000 0.00000000 0.00000000 0.00000000 
319308070 0.00000000 0.00000000 -35.57005339 44.21419893 0.00000000 0.00000000 0.00000000 0.00000000 
321225588 0.00000000 0.00000000 -35.37067081 45.94889898 0.00000000 0.00000000 0.00000000 0.00000000 
323143108 0.00000000 0.00000000 -35.51838626 48.63856773 0.00000000 0.00000000 0.00000000 0.00000000 
325060626 0.00000000 0.00000000 -35.65760272 52.53789701 0.00000000 0.00000000 0.00000000 0.00000000 
326978144 0.00000000 0.00000000 -35.75630879 54.72942045 0.00000000 0.00000000 0.00000000 0.00000000 
328895662 0.00000000 0.00000000 -35.74914835 56.94315282 0.00000000 0.00000000 0.00000000 0.00000000 
330813182 0.00000000 0.00000000 -35.71209450 60.82947290 0.00000000 0.00000000 0.00000000 0.00000000 
332730700 0.00000000 0.00000000 -35.62390810 62.32967453 0.00000000 0.00000000 0.00000000 0.00000000 
334648218 0.00000000 0.00000000 -35.30105649 64.37306355 0.00000000 0.00000000 0.00000000 0.00000000 
336565736 0.00000000 0.00000000 -34.72045931 66.30856701 0.00000000 0.00000000 0.00000000 0.00000000 
338483256 0.00000000 0.00000000 -34.31508358 70.07734941 0.00000000 0.00000000 0.00000000 0.00000000 
340400774 0.00000000 0.00000000 -34.04414467 70.56932339 0.00000000 0.00000000 0.00000000 0.00000000 
342318292 0.00000000 0.00000000 -33.62586610 71.64316841 0.00000000 0.00000000 0.00000000 0.00000000 
344235810 0.00000000 0.00000000 -33.04058974 71.76631622 0.00000000 0.00000000 0.00000000 0.00000000 
346153330 0.00000000 0.00000000 -32.41039528 74.61476066 0.00000000 0.00000000 0.00000000 0.00000000 
348070848 0.00000000 0.00000000 -31.99712786 72.68104167 0.00000000 0.00000000 0.00000000 0.00000000 
349988366 0.00000000 0.00000000 -31.48292775 72.77168203 0.00000000 0.00000000 0.00000000 0.00000000 
351905884 0.00000000 0.00000000 -30.84900382 73.21297756 0.00000000 0.00000000 0.00000000 0.00000000 
353823404 0.00000000 0.00000000 -30.17145106 75.14074576 0.00000000 0.00000000 0.00000000 0.00000000 
355740922 0.00000000 0.00000000 -29.92875800 70.78600269 0.00000000 0.00000000 0.00000000 0.00000000 
357658440 0.00000000 0.00000000 -29.34879180 68.07916720 0.00000000 0.00000000 0.00000000 0.00000000 
359575958 0.00000000 0.00000000 -28.71225047 66.96313573 0.00000000 0.00000000 0.00000000 0.00000000 
361493478 0.00000000 0.00000000 -27.84605598 67.26895598 0.00000000 0.00000000 0.00000000 0.00000000 
363410996 0.00000000 0.00000000 -28.00193336 62.74084257 0.00000000 0.00000000 0.00000000 0.00000000 
365328514 0.00000000 0.00000000 -27.82672812 58.54104349 0.00000000 0.00000000 0.00000000 0.00000000 
367246032 0.00000000 0.00000000 -27.33352745 56.16491124 0.00000000 0.00000000 0.00000000 0.00000000 
369163552 0.00000000 0.00000000 -26.55757580 54.71298474 0.00000000 0.00000000 0.00000000 0.00000000 
371081070 0.00000000 0.00000000 -27.18635874 51.11804817 0.00000000 0.00000000 0.00000000 0.00000000 
372998588 0.00000000 0.00000000 -27.50006087 46.89991779 0.00000000 0.00000000 0.00000000 0.00000000 
