! created by ADMIN at Tue Apr 21 15:37:58 IST 2026
! generated using vna/J Version 3.2.10
# Hz S DB R 50
001000000 0.00000000 0.00000000 -63.10460609 60.33570885 0.00000000 0.00000000 0.00000000 0.00000000 
002917518 0.00000000 0.00000000 -66.78493282 69.06785848 0.00000000 0.00000000 0.00000000 0.00000000 
004835036 0.00000000 0.00000000 -66.81334924 58.94021988 0.00000000 0.00000000 0.00000000 0.00000000 
006752554 0.00000000 0.00000000 -63.46171793 29.34406577 0.00000000 0.00000000 0.00000000 0.00000000 
008670074 0.00000000 0.00000000 -65.18378065 46.31319615 0.00000000 0.00000000 0.00000000 0.00000000 
010587592 0.00000000 0.00000000 -63.40902933 53.89975641 0.00000000 0.00000000 0.00000000 0.00000000 
012505110 0.00000000 0.00000000 -64.60844454 56.88579390 0.00000000 0.00000000 0.00000000 0.00000000 
014422628 0.00000000 0.00000000 -66.70440999 58.94958594 0.00000000 0.00000000 0.00000000 0.00000000 
016340148 0.00000000 0.00000000 -68.67699781 47.22232632 0.00000000 0.00000000 0.00000000 0.00000000 
018257666 0.00000000 0.00000000 -65.06482782 42.01034496 0.00000000 0.00000000 0.00000000 0.00000000 
020175184 0.00000000 0.00000000 -63.54983785 42.68791536 0.00000000 0.00000000 0.00000000 0.00000000 
022092702 0.00000000 0.00000000 -62.11821638 41.27581662 0.00000000 0.00000000 0.00000000 0.00000000 
024010222 0.00000000 0.00000000 -64.85199862 53.26767981 0.00000000 0.00000000 0.00000000 0.00000000 
025927740 0.00000000 0.00000000 -61.18329852 36.61217871 0.00000000 0.00000000 0.00000000 0.00000000 
027845258 0.00000000 0.00000000 -62.73497083 57.09396770 0.00000000 0.00000000 0.00000000 0.00000000 
029762776 0.00000000 0.00000000 -63.22361841 64.18749475 0.00000000 0.00000000 0.00000000 0.00000000 
031680296 0.00000000 0.00000000 -59.64736607 56.72642081 0.00000000 0.00000000 0.00000000 0.00000000 
033597814 0.00000000 0.00000000 -62.13394494 64.46698250 0.00000000 0.00000000 0.00000000 0.00000000 
035515332 0.00000000 0.00000000 -60.65183170 72.64433394 0.00000000 0.00000000 0.00000000 0.00000000 
037432850 0.00000000 0.00000000 -62.20952855 89.82230076 0.00000000 0.00000000 0.00000000 0.00000000 
039350370 0.00000000 0.00000000 -60.49938657 85.88452281 0.00000000 0.00000000 0.00000000 0.00000000 
041267888 0.00000000 0.00000000 -62.61407823 80.09767428 0.00000000 0.00000000 0.00000000 0.00000000 
043185406 0.00000000 0.00000000 -64.63448587 72.21005614 0.00000000 0.00000000 0.00000000 0.00000000 
045102924 0.00000000 0.00000000 -61.18534903 61.97503933 0.00000000 0.00000000 0.00000000 0.00000000 
047020444 0.00000000 0.00000000 -61.04672757 39.71830200 0.00000000 0.00000000 0.00000000 0.00000000 
048937962 0.00000000 0.00000000 -61.74470199 57.98487066 0.00000000 0.00000000 0.00000000 0.00000000 
050855480 0.00000000 0.00000000 -60.72172525 59.14671033 0.00000000 0.00000000 0.00000000 0.00000000 
052772998 0.00000000 0.00000000 -60.32512556 57.83761793 0.00000000 0.00000000 0.00000000 0.00000000 
054690518 0.00000000 0.00000000 -58.82967264 65.01769752 0.00000000 0.00000000 0.00000000 0.00000000 
056608036 0.00000000 0.00000000 -57.23258872 75.03335925 0.00000000 0.00000000 0.00000000 0.00000000 
058525554 0.00000000 0.00000000 -58.17057373 72.59067750 0.00000000 0.00000000 0.00000000 0.00000000 
060443072 0.00000000 0.00000000 -57.21961217 63.49802174 0.00000000 0.00000000 0.00000000 0.00000000 
062360592 0.00000000 0.00000000 -56.98587006 71.11794032 0.00000000 0.00000000 0.00000000 0.00000000 
064278110 0.00000000 0.00000000 -56.62379055 75.83766339 0.00000000 0.00000000 0.00000000 0.00000000 
066195628 0.00000000 0.00000000 -59.32053230 80.10163003 0.00000000 0.00000000 0.00000000 0.00000000 
068113146 0.00000000 0.00000000 -58.06894706 75.79243953 0.00000000 0.00000000 0.00000000 0.00000000 
070030666 0.00000000 0.00000000 -56.77506317 77.44856104 0.00000000 0.00000000 0.00000000 0.00000000 
071948184 0.00000000 0.00000000 -57.60719740 69.62817282 0.00000000 0.00000000 0.00000000 0.00000000 
073865702 0.00000000 0.00000000 -56.49750964 72.14792406 0.00000000 0.00000000 0.00000000 0.00000000 
075783220 0.00000000 0.00000000 -55.01631847 73.70281207 0.00000000 0.00000000 0.00000000 0.00000000 
077700740 0.00000000 0.00000000 -53.53470112 75.53483880 0.00000000 0.00000000 0.00000000 0.00000000 
079618258 0.00000000 0.00000000 -55.28705470 70.60579813 0.00000000 0.00000000 0.00000000 0.00000000 
081535776 0.00000000 0.00000000 -54.71818186 67.61661364 0.00000000 0.00000000 0.00000000 0.00000000 
083453294 0.00000000 0.00000000 -55.50753152 58.04164451 0.00000000 0.00000000 0.00000000 0.00000000 
085370814 0.00000000 0.00000000 -55.69730882 58.41070327 0.00000000 0.00000000 0.00000000 0.00000000 
087288332 0.00000000 0.00000000 -57.10048947 56.02697715 0.00000000 0.00000000 0.00000000 0.00000000 
089205850 0.00000000 0.00000000 -55.27268987 63.44557083 0.00000000 0.00000000 0.00000000 0.00000000 
091123368 0.00000000 0.00000000 -55.56928955 63.86917044 0.00000000 0.00000000 0.00000000 0.00000000 
093040888 0.00000000 0.00000000 -56.08226328 70.72346263 0.00000000 0.00000000 0.00000000 0.00000000 
094958406 0.00000000 0.00000000 -56.88466061 80.43999460 0.00000000 0.00000000 0.00000000 0.00000000 
096875924 0.00000000 0.00000000 -57.52939184 87.21550712 0.00000000 0.00000000 0.00000000 0.00000000 
098793442 0.00000000 0.00000000 -58.74083377 95.23527012 0.00000000 0.00000000 0.00000000 0.00000000 
100710962 0.00000000 0.00000000 -60.42701283 107.90630771 0.00000000 0.00000000 0.00000000 0.00000000 
102628480 0.00000000 0.00000000 -57.00278375 93.10343006 0.00000000 0.00000000 0.00000000 0.00000000 
104545998 0.00000000 0.00000000 -55.56433352 98.74845198 0.00000000 0.00000000 0.00000000 0.00000000 
106463516 0.00000000 0.00000000 -53.78281693 100.02443712 0.00000000 0.00000000 0.00000000 0.00000000 
108381036 0.00000000 0.00000000 -51.74394616 91.80533234 0.00000000 0.00000000 0.00000000 0.00000000 
110298554 0.00000000 0.00000000 -52.59728457 97.12747088 0.00000000 0.00000000 0.00000000 0.00000000 
112216072 0.00000000 0.00000000 -51.51613776 94.80634505 0.00000000 0.00000000 0.00000000 0.00000000 
114133590 0.00000000 0.00000000 -51.81771907 96.93431683 0.00000000 0.00000000 0.00000000 0.00000000 
116051110 0.00000000 0.00000000 -50.97671392 87.72077520 0.00000000 0.00000000 0.00000000 0.00000000 
117968628 0.00000000 0.00000000 -50.71761120 88.81744823 0.00000000 0.00000000 0.00000000 0.00000000 
119886146 0.00000000 0.00000000 -50.52350463 87.62450643 0.00000000 0.00000000 0.00000000 0.00000000 
121803664 0.00000000 0.00000000 -50.09086750 88.69475783 0.00000000 0.00000000 0.00000000 0.00000000 
123721184 0.00000000 0.00000000 -48.63991733 94.57488467 0.00000000 0.00000000 0.00000000 0.00000000 
125638702 0.00000000 0.00000000 -49.47420626 95.38215139 0.00000000 0.00000000 0.00000000 0.00000000 
127556220 0.00000000 0.00000000 -49.26731788 93.63929688 0.00000000 0.00000000 0.00000000 0.00000000 
129473738 0.00000000 0.00000000 -49.06666068 97.75685218 0.00000000 0.00000000 0.00000000 0.00000000 
131391258 0.00000000 0.00000000 -48.58829519 101.17862965 0.00000000 0.00000000 0.00000000 0.00000000 
133308776 0.00000000 0.00000000 -48.97635765 106.46760499 0.00000000 0.00000000 0.00000000 0.00000000 
135226294 0.00000000 0.00000000 -48.23310514 99.51779298 0.00000000 0.00000000 0.00000000 0.00000000 
137143812 0.00000000 0.00000000 -48.55735709 95.40847999 0.00000000 0.00000000 0.00000000 0.00000000 
139061332 0.00000000 0.00000000 -48.13396129 96.51159823 0.00000000 0.00000000 0.00000000 0.00000000 
140978850 0.00000000 0.00000000 -47.46596782 93.59171409 0.00000000 0.00000000 0.00000000 0.00000000 
142896368 0.00000000 0.00000000 -46.45678009 91.46455516 0.00000000 0.00000000 0.00000000 0.00000000 
144813886 0.00000000 0.00000000 -46.31213427 93.78857404 0.00000000 0.00000000 0.00000000 0.00000000 
146731406 0.00000000 0.00000000 -45.33399927 96.57167229 0.00000000 0.00000000 0.00000000 0.00000000 
148648924 0.00000000 0.00000000 -45.02283733 92.62887635 0.00000000 0.00000000 0.00000000 0.00000000 
150566442 0.00000000 0.00000000 -44.83139297 90.23861842 0.00000000 0.00000000 0.00000000 0.00000000 
152483960 0.00000000 0.00000000 -44.30248076 86.80047283 0.00000000 0.00000000 0.00000000 0.00000000 
154401480 0.00000000 0.00000000 -43.69613140 88.89690637 0.00000000 0.00000000 0.00000000 0.00000000 
156318998 0.00000000 0.00000000 -43.76190574 89.44292434 0.00000000 0.00000000 0.00000000 0.00000000 
158236516 0.00000000 0.00000000 -43.65930061 87.19198862 0.00000000 0.00000000 0.00000000 0.00000000 
160154034 0.00000000 0.00000000 -42.98226569 88.03087107 0.00000000 0.00000000 0.00000000 0.00000000 
162071554 0.00000000 0.00000000 -42.46678951 89.88929183 0.00000000 0.00000000 0.00000000 0.00000000 
163989072 0.00000000 0.00000000 -42.83822782 89.15855678 0.00000000 0.00000000 0.00000000 0.00000000 
165906590 0.00000000 0.00000000 -42.29471942 84.12704060 0.00000000 0.00000000 0.00000000 0.00000000 
167824108 0.00000000 0.00000000 -42.32535138 85.66329253 0.00000000 0.00000000 0.00000000 0.00000000 
169741628 0.00000000 0.00000000 -41.37593495 84.29347025 0.00000000 0.00000000 0.00000000 0.00000000 
171659146 0.00000000 0.00000000 -41.69365554 82.11561531 0.00000000 0.00000000 0.00000000 0.00000000 
173576664 0.00000000 0.00000000 -41.71916572 78.06954981 0.00000000 0.00000000 0.00000000 0.00000000 
175494182 0.00000000 0.00000000 -41.22059778 74.18705676 0.00000000 0.00000000 0.00000000 0.00000000 
177411702 0.00000000 0.00000000 -40.53535748 71.77368983 0.00000000 0.00000000 0.00000000 0.00000000 
179329220 0.00000000 0.00000000 -40.73853173 68.90955135 0.00000000 0.00000000 0.00000000 0.00000000 
181246738 0.00000000 0.00000000 -40.86158019 65.76196107 0.00000000 0.00000000 0.00000000 0.00000000 
183164256 0.00000000 0.00000000 -40.48056133 65.81917685 0.00000000 0.00000000 0.00000000 0.00000000 
185081776 0.00000000 0.00000000 -40.08291600 61.27894021 0.00000000 0.00000000 0.00000000 0.00000000 
186999294 0.00000000 0.00000000 -40.30199866 58.89378325 0.00000000 0.00000000 0.00000000 0.00000000 
188916812 0.00000000 0.00000000 -40.43188432 58.72905574 0.00000000 0.00000000 0.00000000 0.00000000 
190834330 0.00000000 0.00000000 -40.44790666 56.05224346 0.00000000 0.00000000 0.00000000 0.00000000 
192751850 0.00000000 0.00000000 -40.02587508 55.05149702 0.00000000 0.00000000 0.00000000 0.00000000 
194669368 0.00000000 0.00000000 -40.43945156 54.23216091 0.00000000 0.00000000 0.00000000 0.00000000 
196586886 0.00000000 0.00000000 -40.87326579 53.69036177 0.00000000 0.00000000 0.00000000 0.00000000 
198504404 0.00000000 0.00000000 -41.05905546 52.29348784 0.00000000 0.00000000 0.00000000 0.00000000 
200421924 0.00000000 0.00000000 -40.84022038 50.83803651 0.00000000 0.00000000 0.00000000 0.00000000 
202339442 0.00000000 0.00000000 -41.56597026 51.38914898 0.00000000 0.00000000 0.00000000 0.00000000 
204256960 0.00000000 0.00000000 -42.09198547 50.56388251 0.00000000 0.00000000 0.00000000 0.00000000 
206174478 0.00000000 0.00000000 -41.84687217 49.71516088 0.00000000 0.00000000 0.00000000 0.00000000 
208091998 0.00000000 0.00000000 -42.02625601 49.16896530 0.00000000 0.00000000 0.00000000 0.00000000 
210009516 0.00000000 0.00000000 -42.20596303 49.26674247 0.00000000 0.00000000 0.00000000 0.00000000 
211927034 0.00000000 0.00000000 -42.71709078 51.50820267 0.00000000 0.00000000 0.00000000 0.00000000 
213844552 0.00000000 0.00000000 -42.68144862 51.24418130 0.00000000 0.00000000 0.00000000 0.00000000 
215762072 0.00000000 0.00000000 -42.76386327 49.02544179 0.00000000 0.00000000 0.00000000 0.00000000 
217679590 0.00000000 0.00000000 -43.03464714 52.40756667 0.00000000 0.00000000 0.00000000 0.00000000 
219597108 0.00000000 0.00000000 -42.97079877 53.53029198 0.00000000 0.00000000 0.00000000 0.00000000 
221514626 0.00000000 0.00000000 -42.97341633 51.63245592 0.00000000 0.00000000 0.00000000 0.00000000 
223432146 0.00000000 0.00000000 -42.75096654 53.70375799 0.00000000 0.00000000 0.00000000 0.00000000 
225349664 0.00000000 0.00000000 -42.93554620 57.74660436 0.00000000 0.00000000 0.00000000 0.00000000 
227267182 0.00000000 0.00000000 -42.74745364 58.92124984 0.00000000 0.00000000 0.00000000 0.00000000 
229184700 0.00000000 0.00000000 -42.73279796 60.12367868 0.00000000 0.00000000 0.00000000 0.00000000 
231102220 0.00000000 0.00000000 -42.14505167 61.36529657 0.00000000 0.00000000 0.00000000 0.00000000 
233019738 0.00000000 0.00000000 -42.48405747 60.74096538 0.00000000 0.00000000 0.00000000 0.00000000 
234937256 0.00000000 0.00000000 -42.14850740 60.40833033 0.00000000 0.00000000 0.00000000 0.00000000 
236854774 0.00000000 0.00000000 -41.92800185 63.24126824 0.00000000 0.00000000 0.00000000 0.00000000 
238772294 0.00000000 0.00000000 -41.65929986 61.52027453 0.00000000 0.00000000 0.00000000 0.00000000 
240689812 0.00000000 0.00000000 -41.39802930 63.75139037 0.00000000 0.00000000 0.00000000 0.00000000 
242607330 0.00000000 0.00000000 -41.05299799 64.11821967 0.00000000 0.00000000 0.00000000 0.00000000 
244524848 0.00000000 0.00000000 -40.67217937 67.25317048 0.00000000 0.00000000 0.00000000 0.00000000 
246442368 0.00000000 0.00000000 -40.08987534 70.16029428 0.00000000 0.00000000 0.00000000 0.00000000 
248359886 0.00000000 0.00000000 -40.05830319 67.85415346 0.00000000 0.00000000 0.00000000 0.00000000 
250277404 0.00000000 0.00000000 -40.19324766 67.45981714 0.00000000 0.00000000 0.00000000 0.00000000 
252194922 0.00000000 0.00000000 -39.53863939 68.42133765 0.00000000 0.00000000 0.00000000 0.00000000 
254112442 0.00000000 0.00000000 -39.18642566 69.81922675 0.00000000 0.00000000 0.00000000 0.00000000 
256029960 0.00000000 0.00000000 -39.18177597 68.18973076 0.00000000 0.00000000 0.00000000 0.00000000 
257947478 0.00000000 0.00000000 -38.98184371 65.39009000 0.00000000 0.00000000 0.00000000 0.00000000 
259864996 0.00000000 0.00000000 -38.42596493 63.88079571 0.00000000 0.00000000 0.00000000 0.00000000 
261782516 0.00000000 0.00000000 -37.75217254 64.73884473 0.00000000 0.00000000 0.00000000 0.00000000 
263700034 0.00000000 0.00000000 -37.90262409 60.61131102 0.00000000 0.00000000 0.00000000 0.00000000 
265617552 0.00000000 0.00000000 -37.56430926 58.55030900 0.00000000 0.00000000 0.00000000 0.00000000 
267535070 0.00000000 0.00000000 -36.87511234 55.83089625 0.00000000 0.00000000 0.00000000 0.00000000 
269452590 0.00000000 0.00000000 -36.17232056 55.39758233 0.00000000 0.00000000 0.00000000 0.00000000 
271370108 0.00000000 0.00000000 -36.62412588 51.76976592 0.00000000 0.00000000 0.00000000 0.00000000 
273287626 0.00000000 0.00000000 -36.61501722 49.75610191 0.00000000 0.00000000 0.00000000 0.00000000 
275205144 0.00000000 0.00000000 -36.35885399 48.28234990 0.00000000 0.00000000 0.00000000 0.00000000 
277122664 0.00000000 0.00000000 -35.97981780 45.27770539 0.00000000 0.00000000 0.00000000 0.00000000 
279040182 0.00000000 0.00000000 -36.30207149 43.79151384 0.00000000 0.00000000 0.00000000 0.00000000 
280957700 0.00000000 0.00000000 -36.86063532 43.25686401 0.00000000 0.00000000 0.00000000 0.00000000 
282875218 0.00000000 0.00000000 -36.69656019 38.43370469 0.00000000 0.00000000 0.00000000 0.00000000 
284792738 0.00000000 0.00000000 -36.33973057 36.54298663 0.00000000 0.00000000 0.00000000 0.00000000 
286710256 0.00000000 0.00000000 -37.00061838 35.64834424 0.00000000 0.00000000 0.00000000 0.00000000 
288627774 0.00000000 0.00000000 -37.49034233 36.07805410 0.00000000 0.00000000 0.00000000 0.00000000 
290545292 0.00000000 0.00000000 -37.62248406 32.59599586 0.00000000 0.00000000 0.00000000 0.00000000 
292462812 0.00000000 0.00000000 -37.51438026 32.42359834 0.00000000 0.00000000 0.00000000 0.00000000 
294380330 0.00000000 0.00000000 -38.39303565 33.17340377 0.00000000 0.00000000 0.00000000 0.00000000 
296297848 0.00000000 0.00000000 -38.43598852 30.12909483 0.00000000 0.00000000 0.00000000 0.00000000 
298215366 0.00000000 0.00000000 -38.70098914 31.88157085 0.00000000 0.00000000 0.00000000 0.00000000 
300132886 0.00000000 0.00000000 -38.52939856 30.68735673 0.00000000 0.00000000 0.00000000 0.00000000 
302050404 0.00000000 0.00000000 -38.95074700 31.00485484 0.00000000 0.00000000 0.00000000 0.00000000 
303967922 0.00000000 0.00000000 -39.27712777 30.85741314 0.00000000 0.00000000 0.00000000 0.00000000 
305885440 0.00000000 0.00000000 -39.47625100 31.56180446 0.00000000 0.00000000 0.00000000 0.00000000 
307802960 0.00000000 0.00000000 -39.42276293 29.81373438 0.00000000 0.00000000 0.00000000 0.00000000 
309720478 0.00000000 0.00000000 -39.62226863 32.84225181 0.00000000 0.00000000 0.00000000 0.00000000 
311637996 0.00000000 0.00000000 -39.87975923 34.36362622 0.00000000 0.00000000 0.00000000 0.00000000 
313555514 0.00000000 0.00000000 -39.87896002 35.55755782 0.00000000 0.00000000 0.00000000 0.00000000 
315473034 0.00000000 0.00000000 -40.05374972 37.11678223 0.00000000 0.00000000 0.00000000 0.00000000 
317390552 0.00000000 0.00000000 -40.21676296 36.02411135 0.00000000 0.00000000 0.00000000 0.00000000 
319308070 0.00000000 0.00000000 -40.26139358 37.83241255 0.00000000 0.00000000 0.00000000 0.00000000 
321225588 0.00000000 0.00000000 -39.75671697 38.45537411 0.00000000 0.00000000 0.00000000 0.00000000 
323143108 0.00000000 0.00000000 -39.88416637 39.88279351 0.00000000 0.00000000 0.00000000 0.00000000 
325060626 0.00000000 0.00000000 -40.01666282 43.28591433 0.00000000 0.00000000 0.00000000 0.00000000 
326978144 0.00000000 0.00000000 -40.00139429 43.95229524 0.00000000 0.00000000 0.00000000 0.00000000 
328895662 0.00000000 0.00000000 -39.82946900 44.86970410 0.00000000 0.00000000 0.00000000 0.00000000 
330813182 0.00000000 0.00000000 -39.73550864 48.37326922 0.00000000 0.00000000 0.00000000 0.00000000 
332730700 0.00000000 0.00000000 -40.00736965 49.52235827 0.00000000 0.00000000 0.00000000 0.00000000 
334648218 0.00000000 0.00000000 -39.97488885 51.11319332 0.00000000 0.00000000 0.00000000 0.00000000 
336565736 0.00000000 0.00000000 -39.48525799 52.41028109 0.00000000 0.00000000 0.00000000 0.00000000 
338483256 0.00000000 0.00000000 -39.38953587 55.36126917 0.00000000 0.00000000 0.00000000 0.00000000 
340400774 0.00000000 0.00000000 -39.34085260 55.93596526 0.00000000 0.00000000 0.00000000 0.00000000 
342318292 0.00000000 0.00000000 -39.14061876 56.82657859 0.00000000 0.00000000 0.00000000 0.00000000 
344235810 0.00000000 0.00000000 -38.54451585 55.44325076 0.00000000 0.00000000 0.00000000 0.00000000 
346153330 0.00000000 0.00000000 -38.07616059 58.11688466 0.00000000 0.00000000 0.00000000 0.00000000 
348070848 0.00000000 0.00000000 -37.93813345 56.08737466 0.00000000 0.00000000 0.00000000 0.00000000 
349988366 0.00000000 0.00000000 -37.87452139 55.97654914 0.00000000 0.00000000 0.00000000 0.00000000 
351905884 0.00000000 0.00000000 -37.55674450 55.06982288 0.00000000 0.00000000 0.00000000 0.00000000 
353823404 0.00000000 0.00000000 -37.21010733 55.55193226 0.00000000 0.00000000 0.00000000 0.00000000 
355740922 0.00000000 0.00000000 -36.99732122 52.42803491 0.00000000 0.00000000 0.00000000 0.00000000 
357658440 0.00000000 0.00000000 -36.58288888 51.30329611 0.00000000 0.00000000 0.00000000 0.00000000 
359575958 0.00000000 0.00000000 -36.32752366 50.45496697 0.00000000 0.00000000 0.00000000 0.00000000 
361493478 0.00000000 0.00000000 -35.65686480 51.09115840 0.00000000 0.00000000 0.00000000 0.00000000 
363410996 0.00000000 0.00000000 -35.61557099 48.58012690 0.00000000 0.00000000 0.00000000 0.00000000 
365328514 0.00000000 0.00000000 -35.47464474 46.52289257 0.00000000 0.00000000 0.00000000 0.00000000 
367246032 0.00000000 0.00000000 -35.23270116 46.70675279 0.00000000 0.00000000 0.00000000 0.00000000 
369163552 0.00000000 0.00000000 -34.59773696 46.24530288 0.00000000 0.00000000 0.00000000 0.00000000 
371081070 0.00000000 0.00000000 -35.17914473 43.85595439 0.00000000 0.00000000 0.00000000 0.00000000 
372998588 0.00000000 0.00000000 -35.67855847 41.21006139 0.00000000 0.00000000 0.00000000 0.00000000 
