! created by ADMIN at Tue Apr 21 15:44:13 IST 2026
! generated using vna/J Version 3.2.10
# Hz S DB R 50
001000000 0.00000000 0.00000000 -63.75534955 28.40750460 0.00000000 0.00000000 0.00000000 0.00000000 
002917518 0.00000000 0.00000000 -68.06675333 33.02633859 0.00000000 0.00000000 0.00000000 0.00000000 
004835036 0.00000000 0.00000000 -68.50338559 28.62806929 0.00000000 0.00000000 0.00000000 0.00000000 
006752554 0.00000000 0.00000000 -64.16014522 7.37430861 0.00000000 0.00000000 0.00000000 0.00000000 
008670074 0.00000000 0.00000000 -68.63948026 13.09911578 0.00000000 0.00000000 0.00000000 0.00000000 
010587592 0.00000000 0.00000000 -65.64835739 24.52276198 0.00000000 0.00000000 0.00000000 0.00000000 
012505110 0.00000000 0.00000000 -65.60694580 19.10038531 0.00000000 0.00000000 0.00000000 0.00000000 
014422628 0.00000000 0.00000000 -65.73175213 11.47842285 0.00000000 0.00000000 0.00000000 0.00000000 
016340148 0.00000000 0.00000000 -64.36051065 2.50602807 0.00000000 0.00000000 0.00000000 0.00000000 
018257666 0.00000000 0.00000000 -62.29897444 11.33048294 0.00000000 0.00000000 0.00000000 0.00000000 
020175184 0.00000000 0.00000000 -61.43604016 16.39889705 0.00000000 0.00000000 0.00000000 0.00000000 
022092702 0.00000000 0.00000000 -60.37909898 18.80702537 0.00000000 0.00000000 0.00000000 0.00000000 
024010222 0.00000000 0.00000000 -63.04363262 20.69706404 0.00000000 0.00000000 0.00000000 0.00000000 
025927740 0.00000000 0.00000000 -60.16365852 5.88580796 0.00000000 0.00000000 0.00000000 0.00000000 
027845258 0.00000000 0.00000000 -63.00773276 -2.32497414 0.00000000 0.00000000 0.00000000 0.00000000 
029762776 0.00000000 0.00000000 -62.43793713 -18.59218048 0.00000000 0.00000000 0.00000000 0.00000000 
031680296 0.00000000 0.00000000 -58.51451604 -9.13501536 0.00000000 0.00000000 0.00000000 0.00000000 
033597814 0.00000000 0.00000000 -61.31379510 -20.17498875 0.00000000 0.00000000 0.00000000 0.00000000 
035515332 0.00000000 0.00000000 -63.99545059 -11.54521042 0.00000000 0.00000000 0.00000000 0.00000000 
037432850 0.00000000 0.00000000 -68.27805534 -52.82130658 0.00000000 0.00000000 0.00000000 0.00000000 
039350370 0.00000000 0.00000000 -69.15852195 -50.86330229 0.00000000 0.00000000 0.00000000 0.00000000 
041267888 0.00000000 0.00000000 -67.37221653 -62.19236420 0.00000000 0.00000000 0.00000000 0.00000000 
043185406 0.00000000 0.00000000 -65.73134640 -73.68982922 0.00000000 0.00000000 0.00000000 0.00000000 
045102924 0.00000000 0.00000000 -68.24621714 -47.96282248 0.00000000 0.00000000 0.00000000 0.00000000 
047020444 0.00000000 0.00000000 -63.24017984 -53.11053075 0.00000000 0.00000000 0.00000000 0.00000000 
048937962 0.00000000 0.00000000 -68.47590251 -58.84709324 0.00000000 0.00000000 0.00000000 0.00000000 
050855480 0.00000000 0.00000000 -71.35793619 -31.70545838 0.00000000 0.00000000 0.00000000 0.00000000 
052772998 0.00000000 0.00000000 -72.13033013 -13.10069586 0.00000000 0.00000000 0.00000000 0.00000000 
054690518 0.00000000 0.00000000 -71.82753926 50.61245629 0.00000000 0.00000000 0.00000000 0.00000000 
056608036 0.00000000 0.00000000 -70.41599976 100.54869369 0.00000000 0.00000000 0.00000000 0.00000000 
058525554 0.00000000 0.00000000 -78.26520283 -132.82708067 0.00000000 0.00000000 0.00000000 0.00000000 
060443072 0.00000000 0.00000000 -69.04221076 -58.47523968 0.00000000 0.00000000 0.00000000 0.00000000 
062360592 0.00000000 0.00000000 -66.14832367 -75.78117669 0.00000000 0.00000000 0.00000000 0.00000000 
064278110 0.00000000 0.00000000 -73.07809907 -86.70406909 0.00000000 0.00000000 0.00000000 0.00000000 
066195628 0.00000000 0.00000000 -65.73352716 -115.61929286 0.00000000 0.00000000 0.00000000 0.00000000 
068113146 0.00000000 0.00000000 -69.80815144 -127.67881631 0.00000000 0.00000000 0.00000000 0.00000000 
070030666 0.00000000 0.00000000 -70.19261106 -170.67253484 0.00000000 0.00000000 0.00000000 0.00000000 
071948184 0.00000000 0.00000000 -74.44590665 -136.48216947 0.00000000 0.00000000 0.00000000 0.00000000 
073865702 0.00000000 0.00000000 -73.95792460 139.16548408 0.00000000 0.00000000 0.00000000 0.00000000 
075783220 0.00000000 0.00000000 -66.55063764 109.49704112 0.00000000 0.00000000 0.00000000 0.00000000 
077700740 0.00000000 0.00000000 -62.06188166 104.18945207 0.00000000 0.00000000 0.00000000 0.00000000 
079618258 0.00000000 0.00000000 -68.56629244 121.47003594 0.00000000 0.00000000 0.00000000 0.00000000 
081535776 0.00000000 0.00000000 -69.36692005 109.74675863 0.00000000 0.00000000 0.00000000 0.00000000 
083453294 0.00000000 0.00000000 -80.00000000 -67.15506107 0.00000000 0.00000000 0.00000000 0.00000000 
085370814 0.00000000 0.00000000 -71.67119024 -94.08907984 0.00000000 0.00000000 0.00000000 0.00000000 
087288332 0.00000000 0.00000000 -67.38049528 -90.38800548 0.00000000 0.00000000 0.00000000 0.00000000 
089205850 0.00000000 0.00000000 -80.00000000 21.77528966 0.00000000 0.00000000 0.00000000 0.00000000 
091123368 0.00000000 0.00000000 -80.00000000 26.51241834 0.00000000 0.00000000 0.00000000 0.00000000 
093040888 0.00000000 0.00000000 -73.98442742 175.56238190 0.00000000 0.00000000 0.00000000 0.00000000 
094958406 0.00000000 0.00000000 -60.97096471 162.22535922 0.00000000 0.00000000 0.00000000 0.00000000 
096875924 0.00000000 0.00000000 -56.20174280 165.69233281 0.00000000 0.00000000 0.00000000 0.00000000 
098793442 0.00000000 0.00000000 -53.01714074 173.73412969 0.00000000 0.00000000 0.00000000 0.00000000 
100710962 0.00000000 0.00000000 -50.45511505 -177.42113484 0.00000000 0.00000000 0.00000000 0.00000000 
102628480 0.00000000 0.00000000 -55.14630341 153.62844157 0.00000000 0.00000000 0.00000000 0.00000000 
104545998 0.00000000 0.00000000 -54.53758366 111.99850828 0.00000000 0.00000000 0.00000000 0.00000000 
106463516 0.00000000 0.00000000 -50.15505151 90.04782765 0.00000000 0.00000000 0.00000000 0.00000000 
108381036 0.00000000 0.00000000 -46.09925464 80.99713117 0.00000000 0.00000000 0.00000000 0.00000000 
110298554 0.00000000 0.00000000 -47.99694599 84.05935658 0.00000000 0.00000000 0.00000000 0.00000000 
112216072 0.00000000 0.00000000 -48.73818660 81.54095250 0.00000000 0.00000000 0.00000000 0.00000000 
114133590 0.00000000 0.00000000 -50.45892370 76.40834809 0.00000000 0.00000000 0.00000000 0.00000000 
116051110 0.00000000 0.00000000 -50.12179994 59.86572859 0.00000000 0.00000000 0.00000000 0.00000000 
117968628 0.00000000 0.00000000 -50.66182146 60.85751904 0.00000000 0.00000000 0.00000000 0.00000000 
119886146 0.00000000 0.00000000 -51.00693268 57.76800834 0.00000000 0.00000000 0.00000000 0.00000000 
121803664 0.00000000 0.00000000 -51.10435274 55.80145061 0.00000000 0.00000000 0.00000000 0.00000000 
123721184 0.00000000 0.00000000 -50.41839266 62.01073340 0.00000000 0.00000000 0.00000000 0.00000000 
125638702 0.00000000 0.00000000 -51.40580658 57.49736631 0.00000000 0.00000000 0.00000000 0.00000000 
127556220 0.00000000 0.00000000 -50.95157081 54.38897772 0.00000000 0.00000000 0.00000000 0.00000000 
129473738 0.00000000 0.00000000 -51.07594089 56.14888967 0.00000000 0.00000000 0.00000000 0.00000000 
131391258 0.00000000 0.00000000 -50.74720564 58.23353726 0.00000000 0.00000000 0.00000000 0.00000000 
133308776 0.00000000 0.00000000 -51.03792631 59.75395755 0.00000000 0.00000000 0.00000000 0.00000000 
135226294 0.00000000 0.00000000 -48.83011452 57.38348541 0.00000000 0.00000000 0.00000000 0.00000000 
137143812 0.00000000 0.00000000 -47.99036383 53.02507079 0.00000000 0.00000000 0.00000000 0.00000000 
139061332 0.00000000 0.00000000 -47.17167187 55.97602662 0.00000000 0.00000000 0.00000000 0.00000000 
140978850 0.00000000 0.00000000 -46.25992259 53.78805208 0.00000000 0.00000000 0.00000000 0.00000000 
142896368 0.00000000 0.00000000 -45.06671052 53.36546804 0.00000000 0.00000000 0.00000000 0.00000000 
144813886 0.00000000 0.00000000 -44.69386926 53.10175552 0.00000000 0.00000000 0.00000000 0.00000000 
146731406 0.00000000 0.00000000 -43.73870471 56.34873620 0.00000000 0.00000000 0.00000000 0.00000000 
148648924 0.00000000 0.00000000 -42.48154499 51.61408332 0.00000000 0.00000000 0.00000000 0.00000000 
150566442 0.00000000 0.00000000 -41.34443981 49.09964081 0.00000000 0.00000000 0.00000000 0.00000000 
152483960 0.00000000 0.00000000 -40.00063977 48.44741209 0.00000000 0.00000000 0.00000000 0.00000000 
154401480 0.00000000 0.00000000 -38.98291708 51.54015857 0.00000000 0.00000000 0.00000000 0.00000000 
156318998 0.00000000 0.00000000 -38.16240228 35.59974437 0.00000000 0.00000000 0.00000000 0.00000000 
158236516 0.00000000 0.00000000 -36.21757244 25.61128410 0.00000000 0.00000000 0.00000000 0.00000000 
160154034 0.00000000 0.00000000 -34.25717261 23.48984731 0.00000000 0.00000000 0.00000000 0.00000000 
162071554 0.00000000 0.00000000 -32.53952384 24.56554202 0.00000000 0.00000000 0.00000000 0.00000000 
163989072 0.00000000 0.00000000 -35.23984268 5.77597919 0.00000000 0.00000000 0.00000000 0.00000000 
165906590 0.00000000 0.00000000 -35.11810730 -21.73609928 0.00000000 0.00000000 0.00000000 0.00000000 
167824108 0.00000000 0.00000000 -32.67154832 -41.54942366 0.00000000 0.00000000 0.00000000 0.00000000 
169741628 0.00000000 0.00000000 -29.95400332 -46.51862111 0.00000000 0.00000000 0.00000000 0.00000000 
171659146 0.00000000 0.00000000 -31.91969427 -48.71464268 0.00000000 0.00000000 0.00000000 0.00000000 
173576664 0.00000000 0.00000000 -33.76803978 -56.43743096 0.00000000 0.00000000 0.00000000 0.00000000 
175494182 0.00000000 0.00000000 -34.90642766 -70.65212379 0.00000000 0.00000000 0.00000000 0.00000000 
177411702 0.00000000 0.00000000 -34.47754524 -87.22752212 0.00000000 0.00000000 0.00000000 0.00000000 
179329220 0.00000000 0.00000000 -36.01294567 -87.25543765 0.00000000 0.00000000 0.00000000 0.00000000 
181246738 0.00000000 0.00000000 -37.38520795 -91.36480406 0.00000000 0.00000000 0.00000000 0.00000000 
183164256 0.00000000 0.00000000 -38.59529839 -101.92763106 0.00000000 0.00000000 0.00000000 0.00000000 
185081776 0.00000000 0.00000000 -38.60973340 -111.64528404 0.00000000 0.00000000 0.00000000 0.00000000 
186999294 0.00000000 0.00000000 -39.71009980 -108.68286943 0.00000000 0.00000000 0.00000000 0.00000000 
188916812 0.00000000 0.00000000 -40.75298232 -110.52976680 0.00000000 0.00000000 0.00000000 0.00000000 
190834330 0.00000000 0.00000000 -41.45660505 -112.55513261 0.00000000 0.00000000 0.00000000 0.00000000 
192751850 0.00000000 0.00000000 -42.11902434 -118.10779412 0.00000000 0.00000000 0.00000000 0.00000000 
194669368 0.00000000 0.00000000 -42.76257397 -115.34536870 0.00000000 0.00000000 0.00000000 0.00000000 
196586886 0.00000000 0.00000000 -43.14531249 -115.33726063 0.00000000 0.00000000 0.00000000 0.00000000 
198504404 0.00000000 0.00000000 -43.45946668 -115.94436889 0.00000000 0.00000000 0.00000000 0.00000000 
200421924 0.00000000 0.00000000 -43.83996762 -117.00342549 0.00000000 0.00000000 0.00000000 0.00000000 
202339442 0.00000000 0.00000000 -44.16263923 -116.50796552 0.00000000 0.00000000 0.00000000 0.00000000 
204256960 0.00000000 0.00000000 -44.46908017 -116.20827035 0.00000000 0.00000000 0.00000000 0.00000000 
206174478 0.00000000 0.00000000 -45.46111156 -116.16843053 0.00000000 0.00000000 0.00000000 0.00000000 
208091998 0.00000000 0.00000000 -45.40253418 -118.81625590 0.00000000 0.00000000 0.00000000 0.00000000 
210009516 0.00000000 0.00000000 -46.27368810 -115.80548966 0.00000000 0.00000000 0.00000000 0.00000000 
211927034 0.00000000 0.00000000 -46.47779774 -118.64533604 0.00000000 0.00000000 0.00000000 0.00000000 
213844552 0.00000000 0.00000000 -47.05844340 -118.00071285 0.00000000 0.00000000 0.00000000 0.00000000 
215762072 0.00000000 0.00000000 -46.88787781 -115.10055294 0.00000000 0.00000000 0.00000000 0.00000000 
217679590 0.00000000 0.00000000 -47.11962575 -116.15144494 0.00000000 0.00000000 0.00000000 0.00000000 
219597108 0.00000000 0.00000000 -47.47733860 -113.49544017 0.00000000 0.00000000 0.00000000 0.00000000 
221514626 0.00000000 0.00000000 -47.16458700 -106.53753582 0.00000000 0.00000000 0.00000000 0.00000000 
223432146 0.00000000 0.00000000 -47.19590981 -105.05892994 0.00000000 0.00000000 0.00000000 0.00000000 
225349664 0.00000000 0.00000000 -47.95357368 -108.73432148 0.00000000 0.00000000 0.00000000 0.00000000 
227267182 0.00000000 0.00000000 -48.82526352 -108.38084197 0.00000000 0.00000000 0.00000000 0.00000000 
229184700 0.00000000 0.00000000 -48.90102612 -109.44213760 0.00000000 0.00000000 0.00000000 0.00000000 
231102220 0.00000000 0.00000000 -49.68517503 -109.54246253 0.00000000 0.00000000 0.00000000 0.00000000 
233019738 0.00000000 0.00000000 -48.85643342 -106.92039543 0.00000000 0.00000000 0.00000000 0.00000000 
234937256 0.00000000 0.00000000 -48.98430130 -103.30372069 0.00000000 0.00000000 0.00000000 0.00000000 
236854774 0.00000000 0.00000000 -48.64758528 -106.28054584 0.00000000 0.00000000 0.00000000 0.00000000 
238772294 0.00000000 0.00000000 -47.65450206 -98.56834795 0.00000000 0.00000000 0.00000000 0.00000000 
240689812 0.00000000 0.00000000 -47.69830653 -100.36205262 0.00000000 0.00000000 0.00000000 0.00000000 
242607330 0.00000000 0.00000000 -47.30757556 -97.68308465 0.00000000 0.00000000 0.00000000 0.00000000 
244524848 0.00000000 0.00000000 -46.89500340 -99.17588304 0.00000000 0.00000000 0.00000000 0.00000000 
246442368 0.00000000 0.00000000 -46.59857255 -98.20910076 0.00000000 0.00000000 0.00000000 0.00000000 
248359886 0.00000000 0.00000000 -46.53369335 -96.27893431 0.00000000 0.00000000 0.00000000 0.00000000 
250277404 0.00000000 0.00000000 -45.68728441 -98.96101160 0.00000000 0.00000000 0.00000000 0.00000000 
252194922 0.00000000 0.00000000 -45.90210379 -100.94610423 0.00000000 0.00000000 0.00000000 0.00000000 
254112442 0.00000000 0.00000000 -45.10878500 -102.48205865 0.00000000 0.00000000 0.00000000 0.00000000 
256029960 0.00000000 0.00000000 -45.31588100 -105.86597025 0.00000000 0.00000000 0.00000000 0.00000000 
257947478 0.00000000 0.00000000 -45.09670701 -106.33813926 0.00000000 0.00000000 0.00000000 0.00000000 
259864996 0.00000000 0.00000000 -44.93849264 -106.99054668 0.00000000 0.00000000 0.00000000 0.00000000 
261782516 0.00000000 0.00000000 -44.58735829 -109.51787578 0.00000000 0.00000000 0.00000000 0.00000000 
263700034 0.00000000 0.00000000 -44.82002244 -114.24454983 0.00000000 0.00000000 0.00000000 0.00000000 
265617552 0.00000000 0.00000000 -44.91657716 -123.24091993 0.00000000 0.00000000 0.00000000 0.00000000 
267535070 0.00000000 0.00000000 -44.68669710 -126.98481908 0.00000000 0.00000000 0.00000000 0.00000000 
269452590 0.00000000 0.00000000 -43.72546389 -130.37662488 0.00000000 0.00000000 0.00000000 0.00000000 
271370108 0.00000000 0.00000000 -44.01186112 -128.48425596 0.00000000 0.00000000 0.00000000 0.00000000 
273287626 0.00000000 0.00000000 -44.38952769 -132.14322672 0.00000000 0.00000000 0.00000000 0.00000000 
275205144 0.00000000 0.00000000 -44.31870201 -136.58195383 0.00000000 0.00000000 0.00000000 0.00000000 
277122664 0.00000000 0.00000000 -43.64720043 -133.92705086 0.00000000 0.00000000 0.00000000 0.00000000 
279040182 0.00000000 0.00000000 -44.82617077 -138.37984746 0.00000000 0.00000000 0.00000000 0.00000000 
280957700 0.00000000 0.00000000 -44.14849907 -147.88170242 0.00000000 0.00000000 0.00000000 0.00000000 
282875218 0.00000000 0.00000000 -44.17484898 -148.18829100 0.00000000 0.00000000 0.00000000 0.00000000 
284792738 0.00000000 0.00000000 -43.39117101 -152.35040575 0.00000000 0.00000000 0.00000000 0.00000000 
286710256 0.00000000 0.00000000 -44.40526579 -150.83098668 0.00000000 0.00000000 0.00000000 0.00000000 
288627774 0.00000000 0.00000000 -45.08307458 -157.55501057 0.00000000 0.00000000 0.00000000 0.00000000 
290545292 0.00000000 0.00000000 -45.87847186 -159.38387356 0.00000000 0.00000000 0.00000000 0.00000000 
292462812 0.00000000 0.00000000 -45.64620052 -170.78871348 0.00000000 0.00000000 0.00000000 0.00000000 
294380330 0.00000000 0.00000000 -45.92412554 -169.37466154 0.00000000 0.00000000 0.00000000 0.00000000 
296297848 0.00000000 0.00000000 -48.20344456 -167.36100902 0.00000000 0.00000000 0.00000000 0.00000000 
298215366 0.00000000 0.00000000 -48.15605604 179.96862311 0.00000000 0.00000000 0.00000000 0.00000000 
300132886 0.00000000 0.00000000 -48.60594784 170.91654410 0.00000000 0.00000000 0.00000000 0.00000000 
302050404 0.00000000 0.00000000 -49.50507743 169.03502772 0.00000000 0.00000000 0.00000000 0.00000000 
303967922 0.00000000 0.00000000 -49.98741414 165.58110104 0.00000000 0.00000000 0.00000000 0.00000000 
305885440 0.00000000 0.00000000 -49.48301719 159.26884633 0.00000000 0.00000000 0.00000000 0.00000000 
307802960 0.00000000 0.00000000 -49.65245084 156.94109619 0.00000000 0.00000000 0.00000000 0.00000000 
309720478 0.00000000 0.00000000 -52.16280899 152.58348685 0.00000000 0.00000000 0.00000000 0.00000000 
311637996 0.00000000 0.00000000 -55.63379511 144.94054504 0.00000000 0.00000000 0.00000000 0.00000000 
313555514 0.00000000 0.00000000 -58.67806583 108.75138294 0.00000000 0.00000000 0.00000000 0.00000000 
315473034 0.00000000 0.00000000 -57.26294427 80.58433856 0.00000000 0.00000000 0.00000000 0.00000000 
317390552 0.00000000 0.00000000 -63.73610092 50.49687613 0.00000000 0.00000000 0.00000000 0.00000000 
319308070 0.00000000 0.00000000 -66.72000177 8.84857214 0.00000000 0.00000000 0.00000000 0.00000000 
321225588 0.00000000 0.00000000 -58.53815081 -8.62604613 0.00000000 0.00000000 0.00000000 0.00000000 
323143108 0.00000000 0.00000000 -56.30763494 -32.19638024 0.00000000 0.00000000 0.00000000 0.00000000 
325060626 0.00000000 0.00000000 -55.95633675 -37.35195811 0.00000000 0.00000000 0.00000000 0.00000000 
326978144 0.00000000 0.00000000 -53.08399424 -39.08014539 0.00000000 0.00000000 0.00000000 0.00000000 
328895662 0.00000000 0.00000000 -50.80609431 -36.17011579 0.00000000 0.00000000 0.00000000 0.00000000 
330813182 0.00000000 0.00000000 -50.07605334 -34.33965499 0.00000000 0.00000000 0.00000000 0.00000000 
332730700 0.00000000 0.00000000 -49.73909049 -46.93574328 0.00000000 0.00000000 0.00000000 0.00000000 
334648218 0.00000000 0.00000000 -48.86453644 -53.80323489 0.00000000 0.00000000 0.00000000 0.00000000 
336565736 0.00000000 0.00000000 -47.72511187 -51.69739137 0.00000000 0.00000000 0.00000000 0.00000000 
338483256 0.00000000 0.00000000 -46.59770126 -56.24342745 0.00000000 0.00000000 0.00000000 0.00000000 
340400774 0.00000000 0.00000000 -46.88409868 -61.45105401 0.00000000 0.00000000 0.00000000 0.00000000 
342318292 0.00000000 0.00000000 -46.72303463 -67.40241360 0.00000000 0.00000000 0.00000000 0.00000000 
344235810 0.00000000 0.00000000 -45.68479692 -65.49866855 0.00000000 0.00000000 0.00000000 0.00000000 
346153330 0.00000000 0.00000000 -45.11888086 -69.40296326 0.00000000 0.00000000 0.00000000 0.00000000 
348070848 0.00000000 0.00000000 -45.56222787 -70.54537796 0.00000000 0.00000000 0.00000000 0.00000000 
349988366 0.00000000 0.00000000 -45.65593641 -79.03930808 0.00000000 0.00000000 0.00000000 0.00000000 
351905884 0.00000000 0.00000000 -45.03900656 -84.05905810 0.00000000 0.00000000 0.00000000 0.00000000 
353823404 0.00000000 0.00000000 -43.96075051 -89.50759229 0.00000000 0.00000000 0.00000000 0.00000000 
355740922 0.00000000 0.00000000 -43.77834322 -90.18131396 0.00000000 0.00000000 0.00000000 0.00000000 
357658440 0.00000000 0.00000000 -43.51651782 -93.12480649 0.00000000 0.00000000 0.00000000 0.00000000 
359575958 0.00000000 0.00000000 -42.29675142 -96.22851116 0.00000000 0.00000000 0.00000000 0.00000000 
361493478 0.00000000 0.00000000 -41.55739076 -96.17420403 0.00000000 0.00000000 0.00000000 0.00000000 
363410996 0.00000000 0.00000000 -42.03843228 -100.52928863 0.00000000 0.00000000 0.00000000 0.00000000 
365328514 0.00000000 0.00000000 -41.79660226 -106.52709608 0.00000000 0.00000000 0.00000000 0.00000000 
367246032 0.00000000 0.00000000 -40.99458306 -114.27387494 0.00000000 0.00000000 0.00000000 0.00000000 
369163552 0.00000000 0.00000000 -40.14235818 -115.00483343 0.00000000 0.00000000 0.00000000 0.00000000 
