! created by ADMIN at Mon Apr 20 18:44:13 IST 2026
! generated using vna/J Version 3.2.10
# Hz S DB R 50
001000000 0.00000000 0.00000000 -80.00000000 95.17944104 0.00000000 0.00000000 0.00000000 0.00000000 
002917518 0.00000000 0.00000000 -79.53670211 -179.72248923 0.00000000 0.00000000 0.00000000 0.00000000 
004835036 0.00000000 0.00000000 -80.00000000 161.28204738 0.00000000 0.00000000 0.00000000 0.00000000 
006752554 0.00000000 0.00000000 -73.12352350 -7.14270357 0.00000000 0.00000000 0.00000000 0.00000000 
008670074 0.00000000 0.00000000 -80.00000000 143.44436993 0.00000000 0.00000000 0.00000000 0.00000000 
010587592 0.00000000 0.00000000 -75.39735226 80.49855630 0.00000000 0.00000000 0.00000000 0.00000000 
012505110 0.00000000 0.00000000 -79.61864949 78.99035965 0.00000000 0.00000000 0.00000000 0.00000000 
014422628 0.00000000 0.00000000 -80.00000000 121.23309009 0.00000000 0.00000000 0.00000000 0.00000000 
016340148 0.00000000 0.00000000 -78.13837637 -62.23375057 0.00000000 0.00000000 0.00000000 0.00000000 
018257666 0.00000000 0.00000000 -79.77602619 -22.48699751 0.00000000 0.00000000 0.00000000 0.00000000 
020175184 0.00000000 0.00000000 -80.00000000 -41.22203489 0.00000000 0.00000000 0.00000000 0.00000000 
022092702 0.00000000 0.00000000 -79.23076834 -68.32656397 0.00000000 0.00000000 0.00000000 0.00000000 
024010222 0.00000000 0.00000000 -67.42768424 -132.88616996 0.00000000 0.00000000 0.00000000 0.00000000 
025927740 0.00000000 0.00000000 -70.24775464 -41.56436269 0.00000000 0.00000000 0.00000000 0.00000000 
027845258 0.00000000 0.00000000 -80.00000000 -0.42551932 0.00000000 0.00000000 0.00000000 0.00000000 
029762776 0.00000000 0.00000000 -77.52398989 75.72692278 0.00000000 0.00000000 0.00000000 0.00000000 
031680296 0.00000000 0.00000000 -64.44315794 53.86311032 0.00000000 0.00000000 0.00000000 0.00000000 
033597814 0.00000000 0.00000000 -70.88009240 82.76189795 0.00000000 0.00000000 0.00000000 0.00000000 
035515332 0.00000000 0.00000000 -68.10754101 101.29067590 0.00000000 0.00000000 0.00000000 0.00000000 
037432850 0.00000000 0.00000000 -67.09732823 155.54426709 0.00000000 0.00000000 0.00000000 0.00000000 
039350370 0.00000000 0.00000000 -67.80034654 148.55253992 0.00000000 0.00000000 0.00000000 0.00000000 
041267888 0.00000000 0.00000000 -76.59148669 162.42992430 0.00000000 0.00000000 0.00000000 0.00000000 
043185406 0.00000000 0.00000000 -80.00000000 -56.63492833 0.00000000 0.00000000 0.00000000 0.00000000 
045102924 0.00000000 0.00000000 -66.90659832 33.44410248 0.00000000 0.00000000 0.00000000 0.00000000 
047020444 0.00000000 0.00000000 -62.87938120 11.70324131 0.00000000 0.00000000 0.00000000 0.00000000 
048937962 0.00000000 0.00000000 -67.82942593 45.38055797 0.00000000 0.00000000 0.00000000 0.00000000 
050855480 0.00000000 0.00000000 -68.83886156 64.80079780 0.00000000 0.00000000 0.00000000 0.00000000 
052772998 0.00000000 0.00000000 -72.39460243 81.37020390 0.00000000 0.00000000 0.00000000 0.00000000 
054690518 0.00000000 0.00000000 -70.05566072 111.09059138 0.00000000 0.00000000 0.00000000 0.00000000 
056608036 0.00000000 0.00000000 -66.46531135 116.22314744 0.00000000 0.00000000 0.00000000 0.00000000 
058525554 0.00000000 0.00000000 -74.63619469 147.61641032 0.00000000 0.00000000 0.00000000 0.00000000 
060443072 0.00000000 0.00000000 -74.70674338 -12.16421764 0.00000000 0.00000000 0.00000000 0.00000000 
062360592 0.00000000 0.00000000 -74.56241009 -31.70770980 0.00000000 0.00000000 0.00000000 0.00000000 
064278110 0.00000000 0.00000000 -80.00000000 52.37744391 0.00000000 0.00000000 0.00000000 0.00000000 
066195628 0.00000000 0.00000000 -69.10860199 -124.88078313 0.00000000 0.00000000 0.00000000 0.00000000 
068113146 0.00000000 0.00000000 -73.30670616 -124.78593932 0.00000000 0.00000000 0.00000000 0.00000000 
070030666 0.00000000 0.00000000 -76.03457337 -162.55620092 0.00000000 0.00000000 0.00000000 0.00000000 
071948184 0.00000000 0.00000000 -73.27863320 -101.85224206 0.00000000 0.00000000 0.00000000 0.00000000 
073865702 0.00000000 0.00000000 -80.00000000 -150.61438573 0.00000000 0.00000000 0.00000000 0.00000000 
075783220 0.00000000 0.00000000 -74.84039915 109.72910616 0.00000000 0.00000000 0.00000000 0.00000000 
077700740 0.00000000 0.00000000 -68.07549542 96.67303133 0.00000000 0.00000000 0.00000000 0.00000000 
079618258 0.00000000 0.00000000 -72.97110251 86.29774490 0.00000000 0.00000000 0.00000000 0.00000000 
081535776 0.00000000 0.00000000 -65.67412718 79.15403391 0.00000000 0.00000000 0.00000000 0.00000000 
083453294 0.00000000 0.00000000 -67.58313959 69.75645836 0.00000000 0.00000000 0.00000000 0.00000000 
085370814 0.00000000 0.00000000 -66.46983807 98.74275877 0.00000000 0.00000000 0.00000000 0.00000000 
087288332 0.00000000 0.00000000 -78.96439660 113.17938617 0.00000000 0.00000000 0.00000000 0.00000000 
089205850 0.00000000 0.00000000 -68.25402553 74.58164783 0.00000000 0.00000000 0.00000000 0.00000000 
091123368 0.00000000 0.00000000 -70.10420754 47.86937118 0.00000000 0.00000000 0.00000000 0.00000000 
093040888 0.00000000 0.00000000 -73.38411274 45.45167513 0.00000000 0.00000000 0.00000000 0.00000000 
094958406 0.00000000 0.00000000 -78.39884191 28.97056296 0.00000000 0.00000000 0.00000000 0.00000000 
096875924 0.00000000 0.00000000 -75.48687977 -4.89711251 0.00000000 0.00000000 0.00000000 0.00000000 
098793442 0.00000000 0.00000000 -71.60542331 -32.08334342 0.00000000 0.00000000 0.00000000 0.00000000 
100710962 0.00000000 0.00000000 -68.33655659 -50.07792170 0.00000000 0.00000000 0.00000000 0.00000000 
102628480 0.00000000 0.00000000 -71.21413360 -13.10155046 0.00000000 0.00000000 0.00000000 0.00000000 
104545998 0.00000000 0.00000000 -75.75008272 -101.88212018 0.00000000 0.00000000 0.00000000 0.00000000 
106463516 0.00000000 0.00000000 -72.26043861 -127.08773188 0.00000000 0.00000000 0.00000000 0.00000000 
108381036 0.00000000 0.00000000 -71.54878128 -19.73065800 0.00000000 0.00000000 0.00000000 0.00000000 
110298554 0.00000000 0.00000000 -73.49442917 -82.52160588 0.00000000 0.00000000 0.00000000 0.00000000 
112216072 0.00000000 0.00000000 -73.91890016 63.06790488 0.00000000 0.00000000 0.00000000 0.00000000 
114133590 0.00000000 0.00000000 -79.30009131 108.48981649 0.00000000 0.00000000 0.00000000 0.00000000 
116051110 0.00000000 0.00000000 -66.15519382 39.71539073 0.00000000 0.00000000 0.00000000 0.00000000 
117968628 0.00000000 0.00000000 -69.42033657 47.10148115 0.00000000 0.00000000 0.00000000 0.00000000 
119886146 0.00000000 0.00000000 -71.41784497 16.20606531 0.00000000 0.00000000 0.00000000 0.00000000 
121803664 0.00000000 0.00000000 -71.49646600 -14.35526672 0.00000000 0.00000000 0.00000000 0.00000000 
123721184 0.00000000 0.00000000 -74.76414019 69.71427781 0.00000000 0.00000000 0.00000000 0.00000000 
125638702 0.00000000 0.00000000 -75.31100917 -8.37990183 0.00000000 0.00000000 0.00000000 0.00000000 
127556220 0.00000000 0.00000000 -67.56146560 22.79452302 0.00000000 0.00000000 0.00000000 0.00000000 
129473738 0.00000000 0.00000000 -68.60441951 51.97456979 0.00000000 0.00000000 0.00000000 0.00000000 
131391258 0.00000000 0.00000000 -66.24561659 80.08293238 0.00000000 0.00000000 0.00000000 0.00000000 
133308776 0.00000000 0.00000000 -67.44434306 141.38240583 0.00000000 0.00000000 0.00000000 0.00000000 
135226294 0.00000000 0.00000000 -65.08368209 94.30083747 0.00000000 0.00000000 0.00000000 0.00000000 
137143812 0.00000000 0.00000000 -70.46047260 52.45756367 0.00000000 0.00000000 0.00000000 0.00000000 
139061332 0.00000000 0.00000000 -75.33362306 52.95447965 0.00000000 0.00000000 0.00000000 0.00000000 
140978850 0.00000000 0.00000000 -72.41219448 65.78315388 0.00000000 0.00000000 0.00000000 0.00000000 
142896368 0.00000000 0.00000000 -68.12209071 69.23719899 0.00000000 0.00000000 0.00000000 0.00000000 
144813886 0.00000000 0.00000000 -80.00000000 -153.48620564 0.00000000 0.00000000 0.00000000 0.00000000 
146731406 0.00000000 0.00000000 -72.20079828 -166.79144947 0.00000000 0.00000000 0.00000000 0.00000000 
148648924 0.00000000 0.00000000 -78.06143980 139.81602830 0.00000000 0.00000000 0.00000000 0.00000000 
150566442 0.00000000 0.00000000 -80.00000000 -144.19723158 0.00000000 0.00000000 0.00000000 0.00000000 
152483960 0.00000000 0.00000000 -73.20582224 -28.62984246 0.00000000 0.00000000 0.00000000 0.00000000 
154401480 0.00000000 0.00000000 -74.74095187 -92.95882386 0.00000000 0.00000000 0.00000000 0.00000000 
156318998 0.00000000 0.00000000 -76.65950054 -121.12143004 0.00000000 0.00000000 0.00000000 0.00000000 
158236516 0.00000000 0.00000000 -74.21910396 -29.90299835 0.00000000 0.00000000 0.00000000 0.00000000 
160154034 0.00000000 0.00000000 -70.03829028 68.11214193 0.00000000 0.00000000 0.00000000 0.00000000 
162071554 0.00000000 0.00000000 -66.62168067 94.49123606 0.00000000 0.00000000 0.00000000 0.00000000 
163989072 0.00000000 0.00000000 -69.60662084 124.43072592 0.00000000 0.00000000 0.00000000 0.00000000 
165906590 0.00000000 0.00000000 -63.80828895 64.20761982 0.00000000 0.00000000 0.00000000 0.00000000 
167824108 0.00000000 0.00000000 -69.92836271 111.76812666 0.00000000 0.00000000 0.00000000 0.00000000 
169741628 0.00000000 0.00000000 -63.45094209 80.88873093 0.00000000 0.00000000 0.00000000 0.00000000 
171659146 0.00000000 0.00000000 -65.14972976 78.35510654 0.00000000 0.00000000 0.00000000 0.00000000 
173576664 0.00000000 0.00000000 -65.76563503 45.59248288 0.00000000 0.00000000 0.00000000 0.00000000 
175494182 0.00000000 0.00000000 -61.63210413 27.84615905 0.00000000 0.00000000 0.00000000 0.00000000 
177411702 0.00000000 0.00000000 -58.79165037 19.83945577 0.00000000 0.00000000 0.00000000 0.00000000 
179329220 0.00000000 0.00000000 -62.08225812 19.77726580 0.00000000 0.00000000 0.00000000 0.00000000 
181246738 0.00000000 0.00000000 -68.04803084 -30.28773330 0.00000000 0.00000000 0.00000000 0.00000000 
183164256 0.00000000 0.00000000 -66.49071861 -128.30989236 0.00000000 0.00000000 0.00000000 0.00000000 
185081776 0.00000000 0.00000000 -57.65455497 -96.05001732 0.00000000 0.00000000 0.00000000 0.00000000 
186999294 0.00000000 0.00000000 -60.00740203 -78.12952369 0.00000000 0.00000000 0.00000000 0.00000000 
188916812 0.00000000 0.00000000 -65.63596505 -95.54934537 0.00000000 0.00000000 0.00000000 0.00000000 
190834330 0.00000000 0.00000000 -66.64139366 -110.93991729 0.00000000 0.00000000 0.00000000 0.00000000 
192751850 0.00000000 0.00000000 -67.26712509 -167.61529397 0.00000000 0.00000000 0.00000000 0.00000000 
194669368 0.00000000 0.00000000 -71.23591886 -142.97456021 0.00000000 0.00000000 0.00000000 0.00000000 
196586886 0.00000000 0.00000000 -68.42600550 -139.17249855 0.00000000 0.00000000 0.00000000 0.00000000 
198504404 0.00000000 0.00000000 -67.59217510 -134.13330664 0.00000000 0.00000000 0.00000000 0.00000000 
200421924 0.00000000 0.00000000 -71.42023104 -132.53983767 0.00000000 0.00000000 0.00000000 0.00000000 
202339442 0.00000000 0.00000000 -66.92420876 -131.83321210 0.00000000 0.00000000 0.00000000 0.00000000 
204256960 0.00000000 0.00000000 -65.19246794 -124.84988082 0.00000000 0.00000000 0.00000000 0.00000000 
206174478 0.00000000 0.00000000 -78.48484866 -101.87897883 0.00000000 0.00000000 0.00000000 0.00000000 
208091998 0.00000000 0.00000000 -72.20816223 -140.36518461 0.00000000 0.00000000 0.00000000 0.00000000 
210009516 0.00000000 0.00000000 -76.48097002 -48.52952350 0.00000000 0.00000000 0.00000000 0.00000000 
211927034 0.00000000 0.00000000 -74.85564434 -142.37866923 0.00000000 0.00000000 0.00000000 0.00000000 
213844552 0.00000000 0.00000000 -80.00000000 -27.11630870 0.00000000 0.00000000 0.00000000 0.00000000 
215762072 0.00000000 0.00000000 -67.99840003 -45.34130253 0.00000000 0.00000000 0.00000000 0.00000000 
217679590 0.00000000 0.00000000 -80.00000000 -54.18023509 0.00000000 0.00000000 0.00000000 0.00000000 
219597108 0.00000000 0.00000000 -73.89495804 90.34715831 0.00000000 0.00000000 0.00000000 0.00000000 
221514626 0.00000000 0.00000000 -76.51701419 3.08717212 0.00000000 0.00000000 0.00000000 0.00000000 
223432146 0.00000000 0.00000000 -76.41881218 97.22717791 0.00000000 0.00000000 0.00000000 0.00000000 
225349664 0.00000000 0.00000000 -67.17148304 137.12100469 0.00000000 0.00000000 0.00000000 0.00000000 
227267182 0.00000000 0.00000000 -66.64376754 119.80779447 0.00000000 0.00000000 0.00000000 0.00000000 
229184700 0.00000000 0.00000000 -67.92406356 133.48553171 0.00000000 0.00000000 0.00000000 0.00000000 
231102220 0.00000000 0.00000000 -65.89582300 100.34335179 0.00000000 0.00000000 0.00000000 0.00000000 
233019738 0.00000000 0.00000000 -74.34763174 154.71650356 0.00000000 0.00000000 0.00000000 0.00000000 
234937256 0.00000000 0.00000000 -80.00000000 106.19554768 0.00000000 0.00000000 0.00000000 0.00000000 
236854774 0.00000000 0.00000000 -70.69593233 175.14993318 0.00000000 0.00000000 0.00000000 0.00000000 
238772294 0.00000000 0.00000000 -67.02269232 -84.18931159 0.00000000 0.00000000 0.00000000 0.00000000 
240689812 0.00000000 0.00000000 -72.13027006 -94.55354897 0.00000000 0.00000000 0.00000000 0.00000000 
242607330 0.00000000 0.00000000 -70.86972277 -55.61480270 0.00000000 0.00000000 0.00000000 0.00000000 
244524848 0.00000000 0.00000000 -79.67536570 -100.25227444 0.00000000 0.00000000 0.00000000 0.00000000 
246442368 0.00000000 0.00000000 -77.64913597 122.95827955 0.00000000 0.00000000 0.00000000 0.00000000 
248359886 0.00000000 0.00000000 -72.51532710 4.02641390 0.00000000 0.00000000 0.00000000 0.00000000 
250277404 0.00000000 0.00000000 -69.82397767 -73.72026810 0.00000000 0.00000000 0.00000000 0.00000000 
252194922 0.00000000 0.00000000 -77.29836273 42.11913105 0.00000000 0.00000000 0.00000000 0.00000000 
254112442 0.00000000 0.00000000 -80.00000000 160.76942473 0.00000000 0.00000000 0.00000000 0.00000000 
256029960 0.00000000 0.00000000 -72.04144857 134.52546077 0.00000000 0.00000000 0.00000000 0.00000000 
257947478 0.00000000 0.00000000 -75.85854009 120.16600813 0.00000000 0.00000000 0.00000000 0.00000000 
259864996 0.00000000 0.00000000 -70.72321153 90.79773543 0.00000000 0.00000000 0.00000000 0.00000000 
261782516 0.00000000 0.00000000 -64.79389662 110.78832446 0.00000000 0.00000000 0.00000000 0.00000000 
263700034 0.00000000 0.00000000 -73.67306161 114.10374263 0.00000000 0.00000000 0.00000000 0.00000000 
265617552 0.00000000 0.00000000 -70.02322944 114.16592152 0.00000000 0.00000000 0.00000000 0.00000000 
267535070 0.00000000 0.00000000 -67.85299630 45.13639470 0.00000000 0.00000000 0.00000000 0.00000000 
269452590 0.00000000 0.00000000 -66.38324637 30.09379973 0.00000000 0.00000000 0.00000000 0.00000000 
271370108 0.00000000 0.00000000 -65.28105169 -11.20006512 0.00000000 0.00000000 0.00000000 0.00000000 
273287626 0.00000000 0.00000000 -67.05290413 10.81001551 0.00000000 0.00000000 0.00000000 0.00000000 
275205144 0.00000000 0.00000000 -69.31958498 44.66159285 0.00000000 0.00000000 0.00000000 0.00000000 
277122664 0.00000000 0.00000000 -66.82015537 -39.27376669 0.00000000 0.00000000 0.00000000 0.00000000 
279040182 0.00000000 0.00000000 -63.11464273 16.54005598 0.00000000 0.00000000 0.00000000 0.00000000 
280957700 0.00000000 0.00000000 -66.49694377 95.69611220 0.00000000 0.00000000 0.00000000 0.00000000 
282875218 0.00000000 0.00000000 -65.72951816 47.69661740 0.00000000 0.00000000 0.00000000 0.00000000 
284792738 0.00000000 0.00000000 -63.82430801 76.62314488 0.00000000 0.00000000 0.00000000 0.00000000 
286710256 0.00000000 0.00000000 -69.79029653 27.93324386 0.00000000 0.00000000 0.00000000 0.00000000 
288627774 0.00000000 0.00000000 -71.02746751 55.28081460 0.00000000 0.00000000 0.00000000 0.00000000 
290545292 0.00000000 0.00000000 -63.81979728 -15.55419123 0.00000000 0.00000000 0.00000000 0.00000000 
292462812 0.00000000 0.00000000 -63.47012350 13.69798613 0.00000000 0.00000000 0.00000000 0.00000000 
294380330 0.00000000 0.00000000 -72.93967746 -50.98786769 0.00000000 0.00000000 0.00000000 0.00000000 
296297848 0.00000000 0.00000000 -60.08495586 -34.09636983 0.00000000 0.00000000 0.00000000 0.00000000 
298215366 0.00000000 0.00000000 -65.58568165 -23.92776508 0.00000000 0.00000000 0.00000000 0.00000000 
300132886 0.00000000 0.00000000 -62.50039381 -16.82874853 0.00000000 0.00000000 0.00000000 0.00000000 
302050404 0.00000000 0.00000000 -63.16973357 -14.59240675 0.00000000 0.00000000 0.00000000 0.00000000 
303967922 0.00000000 0.00000000 -64.78584676 -14.86459939 0.00000000 0.00000000 0.00000000 0.00000000 
305885440 0.00000000 0.00000000 -71.02147621 8.11069035 0.00000000 0.00000000 0.00000000 0.00000000 
307802960 0.00000000 0.00000000 -69.67751854 -26.87735020 0.00000000 0.00000000 0.00000000 0.00000000 
309720478 0.00000000 0.00000000 -77.98204619 -2.93917628 0.00000000 0.00000000 0.00000000 0.00000000 
311637996 0.00000000 0.00000000 -74.02740111 -106.23302629 0.00000000 0.00000000 0.00000000 0.00000000 
313555514 0.00000000 0.00000000 -69.44735168 -93.71618432 0.00000000 0.00000000 0.00000000 0.00000000 
315473034 0.00000000 0.00000000 -63.27051104 -110.97054416 0.00000000 0.00000000 0.00000000 0.00000000 
317390552 0.00000000 0.00000000 -61.11666058 -94.17212891 0.00000000 0.00000000 0.00000000 0.00000000 
319308070 0.00000000 0.00000000 -62.43359908 -104.06500575 0.00000000 0.00000000 0.00000000 0.00000000 
321225588 0.00000000 0.00000000 -64.91854550 -68.00131120 0.00000000 0.00000000 0.00000000 0.00000000 
323143108 0.00000000 0.00000000 -61.83505076 -100.22540566 0.00000000 0.00000000 0.00000000 0.00000000 
325060626 0.00000000 0.00000000 -64.91666566 -113.10503136 0.00000000 0.00000000 0.00000000 0.00000000 
326978144 0.00000000 0.00000000 -64.67003895 -88.82112684 0.00000000 0.00000000 0.00000000 0.00000000 
328895662 0.00000000 0.00000000 -63.79423281 -66.43370995 0.00000000 0.00000000 0.00000000 0.00000000 
330813182 0.00000000 0.00000000 -66.99808487 -84.19760248 0.00000000 0.00000000 0.00000000 0.00000000 
332730700 0.00000000 0.00000000 -64.61327185 -110.25479342 0.00000000 0.00000000 0.00000000 0.00000000 
334648218 0.00000000 0.00000000 -63.57201720 -126.45620794 0.00000000 0.00000000 0.00000000 0.00000000 
336565736 0.00000000 0.00000000 -67.40043665 -129.69009716 0.00000000 0.00000000 0.00000000 0.00000000 
338483256 0.00000000 0.00000000 -60.94978803 -146.64696673 0.00000000 0.00000000 0.00000000 0.00000000 
340400774 0.00000000 0.00000000 -60.82683018 -150.02069667 0.00000000 0.00000000 0.00000000 0.00000000 
342318292 0.00000000 0.00000000 -60.05407086 -154.83040837 0.00000000 0.00000000 0.00000000 0.00000000 
344235810 0.00000000 0.00000000 -64.20399799 -130.27444283 0.00000000 0.00000000 0.00000000 0.00000000 
346153330 0.00000000 0.00000000 -62.42059263 -151.50225817 0.00000000 0.00000000 0.00000000 0.00000000 
348070848 0.00000000 0.00000000 -69.33575293 -125.14016675 0.00000000 0.00000000 0.00000000 0.00000000 
349988366 0.00000000 0.00000000 -67.53185669 -141.98029948 0.00000000 0.00000000 0.00000000 0.00000000 
351905884 0.00000000 0.00000000 -68.77934166 -124.80844972 0.00000000 0.00000000 0.00000000 0.00000000 
353823404 0.00000000 0.00000000 -65.35873007 -131.19821754 0.00000000 0.00000000 0.00000000 0.00000000 
355740922 0.00000000 0.00000000 -76.73174991 -67.27077710 0.00000000 0.00000000 0.00000000 0.00000000 
357658440 0.00000000 0.00000000 -69.23651290 79.12508876 0.00000000 0.00000000 0.00000000 0.00000000 
359575958 0.00000000 0.00000000 -68.36656024 140.02894197 0.00000000 0.00000000 0.00000000 0.00000000 
361493478 0.00000000 0.00000000 -62.60349554 129.46812240 0.00000000 0.00000000 0.00000000 0.00000000 
363410996 0.00000000 0.00000000 -64.98972741 108.99995150 0.00000000 0.00000000 0.00000000 0.00000000 
365328514 0.00000000 0.00000000 -68.56604629 108.61534903 0.00000000 0.00000000 0.00000000 0.00000000 
367246032 0.00000000 0.00000000 -64.01320797 148.10917602 0.00000000 0.00000000 0.00000000 0.00000000 
369163552 0.00000000 0.00000000 -69.54629969 131.41642165 0.00000000 0.00000000 0.00000000 0.00000000 
