! created by ADMIN at Tue Apr 21 15:40:53 IST 2026
! generated using vna/J Version 3.2.10
# Hz S DB R 50
001000000 0.00000000 0.00000000 -67.72504343 63.13773500 0.00000000 0.00000000 0.00000000 0.00000000 
002917518 0.00000000 0.00000000 -73.83392591 110.33773049 0.00000000 0.00000000 0.00000000 0.00000000 
004835036 0.00000000 0.00000000 -76.63056096 135.61767426 0.00000000 0.00000000 0.00000000 0.00000000 
006752554 0.00000000 0.00000000 -76.03893998 -19.61279149 0.00000000 0.00000000 0.00000000 0.00000000 
008670074 0.00000000 0.00000000 -74.99000364 -139.95705891 0.00000000 0.00000000 0.00000000 0.00000000 
010587592 0.00000000 0.00000000 -73.98934471 111.58600048 0.00000000 0.00000000 0.00000000 0.00000000 
012505110 0.00000000 0.00000000 -69.66598671 120.25090655 0.00000000 0.00000000 0.00000000 0.00000000 
014422628 0.00000000 0.00000000 -66.83391940 134.86784623 0.00000000 0.00000000 0.00000000 0.00000000 
016340148 0.00000000 0.00000000 -65.58459470 144.61624162 0.00000000 0.00000000 0.00000000 0.00000000 
018257666 0.00000000 0.00000000 -68.52622498 136.76668113 0.00000000 0.00000000 0.00000000 0.00000000 
020175184 0.00000000 0.00000000 -71.88672623 134.89611310 0.00000000 0.00000000 0.00000000 0.00000000 
022092702 0.00000000 0.00000000 -79.87678693 107.38767129 0.00000000 0.00000000 0.00000000 0.00000000 
024010222 0.00000000 0.00000000 -73.04006782 -152.66734833 0.00000000 0.00000000 0.00000000 0.00000000 
025927740 0.00000000 0.00000000 -71.64457748 -9.84317870 0.00000000 0.00000000 0.00000000 0.00000000 
027845258 0.00000000 0.00000000 -80.00000000 55.94061091 0.00000000 0.00000000 0.00000000 0.00000000 
029762776 0.00000000 0.00000000 -80.00000000 82.90714938 0.00000000 0.00000000 0.00000000 0.00000000 
031680296 0.00000000 0.00000000 -65.97071394 47.54460876 0.00000000 0.00000000 0.00000000 0.00000000 
033597814 0.00000000 0.00000000 -72.46137873 56.22637505 0.00000000 0.00000000 0.00000000 0.00000000 
035515332 0.00000000 0.00000000 -68.44434973 75.14558622 0.00000000 0.00000000 0.00000000 0.00000000 
037432850 0.00000000 0.00000000 -70.92804470 122.67145529 0.00000000 0.00000000 0.00000000 0.00000000 
039350370 0.00000000 0.00000000 -68.19860459 99.43976079 0.00000000 0.00000000 0.00000000 0.00000000 
041267888 0.00000000 0.00000000 -77.14717164 116.30486419 0.00000000 0.00000000 0.00000000 0.00000000 
043185406 0.00000000 0.00000000 -77.51878717 -114.54541077 0.00000000 0.00000000 0.00000000 0.00000000 
045102924 0.00000000 0.00000000 -76.54312665 -3.74722132 0.00000000 0.00000000 0.00000000 0.00000000 
047020444 0.00000000 0.00000000 -65.43606855 -38.75078470 0.00000000 0.00000000 0.00000000 0.00000000 
048937962 0.00000000 0.00000000 -74.41388812 -49.21417942 0.00000000 0.00000000 0.00000000 0.00000000 
050855480 0.00000000 0.00000000 -80.00000000 -9.38161542 0.00000000 0.00000000 0.00000000 0.00000000 
052772998 0.00000000 0.00000000 -80.00000000 3.99879476 0.00000000 0.00000000 0.00000000 0.00000000 
054690518 0.00000000 0.00000000 -74.47094111 106.60498593 0.00000000 0.00000000 0.00000000 0.00000000 
056608036 0.00000000 0.00000000 -68.27964090 119.84847068 0.00000000 0.00000000 0.00000000 0.00000000 
058525554 0.00000000 0.00000000 -75.86799418 170.85426011 0.00000000 0.00000000 0.00000000 0.00000000 
060443072 0.00000000 0.00000000 -75.37802152 -32.51193315 0.00000000 0.00000000 0.00000000 0.00000000 
062360592 0.00000000 0.00000000 -74.66906080 -62.44353059 0.00000000 0.00000000 0.00000000 0.00000000 
064278110 0.00000000 0.00000000 -80.00000000 72.01418408 0.00000000 0.00000000 0.00000000 0.00000000 
066195628 0.00000000 0.00000000 -70.21074341 -124.61449440 0.00000000 0.00000000 0.00000000 0.00000000 
068113146 0.00000000 0.00000000 -79.04801437 -144.19199631 0.00000000 0.00000000 0.00000000 0.00000000 
070030666 0.00000000 0.00000000 -74.21045713 133.12535084 0.00000000 0.00000000 0.00000000 0.00000000 
071948184 0.00000000 0.00000000 -77.86845132 -124.30364725 0.00000000 0.00000000 0.00000000 0.00000000 
073865702 0.00000000 0.00000000 -76.91314054 -165.11322336 0.00000000 0.00000000 0.00000000 0.00000000 
075783220 0.00000000 0.00000000 -76.33462815 151.75531644 0.00000000 0.00000000 0.00000000 0.00000000 
077700740 0.00000000 0.00000000 -73.26516345 116.98562198 0.00000000 0.00000000 0.00000000 0.00000000 
079618258 0.00000000 0.00000000 -80.00000000 -138.26898087 0.00000000 0.00000000 0.00000000 0.00000000 
081535776 0.00000000 0.00000000 -78.75867453 102.03356637 0.00000000 0.00000000 0.00000000 0.00000000 
083453294 0.00000000 0.00000000 -77.52067884 -69.81984326 0.00000000 0.00000000 0.00000000 0.00000000 
085370814 0.00000000 0.00000000 -73.01339637 -124.05997296 0.00000000 0.00000000 0.00000000 0.00000000 
087288332 0.00000000 0.00000000 -67.85776547 -108.63861551 0.00000000 0.00000000 0.00000000 0.00000000 
089205850 0.00000000 0.00000000 -79.81742341 165.00110198 0.00000000 0.00000000 0.00000000 0.00000000 
091123368 0.00000000 0.00000000 -78.11341196 -172.68627313 0.00000000 0.00000000 0.00000000 0.00000000 
093040888 0.00000000 0.00000000 -69.10479678 -171.26781258 0.00000000 0.00000000 0.00000000 0.00000000 
094958406 0.00000000 0.00000000 -72.53605994 -176.00849420 0.00000000 0.00000000 0.00000000 0.00000000 
096875924 0.00000000 0.00000000 -79.30826251 127.91299512 0.00000000 0.00000000 0.00000000 0.00000000 
098793442 0.00000000 0.00000000 -75.56117899 74.78235900 0.00000000 0.00000000 0.00000000 0.00000000 
100710962 0.00000000 0.00000000 -72.75284763 73.67874826 0.00000000 0.00000000 0.00000000 0.00000000 
102628480 0.00000000 0.00000000 -66.28217036 66.49802766 0.00000000 0.00000000 0.00000000 0.00000000 
104545998 0.00000000 0.00000000 -68.74005403 87.61319642 0.00000000 0.00000000 0.00000000 0.00000000 
106463516 0.00000000 0.00000000 -67.93947753 88.83238605 0.00000000 0.00000000 0.00000000 0.00000000 
108381036 0.00000000 0.00000000 -61.90421478 53.38318148 0.00000000 0.00000000 0.00000000 0.00000000 
110298554 0.00000000 0.00000000 -68.59875535 97.06329632 0.00000000 0.00000000 0.00000000 0.00000000 
112216072 0.00000000 0.00000000 -64.34459665 116.06325213 0.00000000 0.00000000 0.00000000 0.00000000 
114133590 0.00000000 0.00000000 -64.24339069 162.65305595 0.00000000 0.00000000 0.00000000 0.00000000 
116051110 0.00000000 0.00000000 -69.89325165 162.98375342 0.00000000 0.00000000 0.00000000 0.00000000 
117968628 0.00000000 0.00000000 -70.33306595 158.98940510 0.00000000 0.00000000 0.00000000 0.00000000 
119886146 0.00000000 0.00000000 -76.99999392 151.05352167 0.00000000 0.00000000 0.00000000 0.00000000 
121803664 0.00000000 0.00000000 -80.00000000 117.83586214 0.00000000 0.00000000 0.00000000 0.00000000 
123721184 0.00000000 0.00000000 -65.34732912 116.27203893 0.00000000 0.00000000 0.00000000 0.00000000 
125638702 0.00000000 0.00000000 -77.72815648 -165.63296283 0.00000000 0.00000000 0.00000000 0.00000000 
127556220 0.00000000 0.00000000 -73.14723971 -41.99637034 0.00000000 0.00000000 0.00000000 0.00000000 
129473738 0.00000000 0.00000000 -69.05537779 -61.81903919 0.00000000 0.00000000 0.00000000 0.00000000 
131391258 0.00000000 0.00000000 -66.91837653 -55.57141967 0.00000000 0.00000000 0.00000000 0.00000000 
133308776 0.00000000 0.00000000 -65.30036688 -108.97239881 0.00000000 0.00000000 0.00000000 0.00000000 
135226294 0.00000000 0.00000000 -76.76600547 -72.30553208 0.00000000 0.00000000 0.00000000 0.00000000 
137143812 0.00000000 0.00000000 -66.71887585 -61.48187585 0.00000000 0.00000000 0.00000000 0.00000000 
139061332 0.00000000 0.00000000 -65.78416534 -81.95131620 0.00000000 0.00000000 0.00000000 0.00000000 
140978850 0.00000000 0.00000000 -69.76822577 -70.46495990 0.00000000 0.00000000 0.00000000 0.00000000 
142896368 0.00000000 0.00000000 -76.10881101 -12.74395255 0.00000000 0.00000000 0.00000000 0.00000000 
144813886 0.00000000 0.00000000 -69.23379804 -100.67518096 0.00000000 0.00000000 0.00000000 0.00000000 
146731406 0.00000000 0.00000000 -68.35030032 -136.22855918 0.00000000 0.00000000 0.00000000 0.00000000 
148648924 0.00000000 0.00000000 -80.00000000 -45.32495028 0.00000000 0.00000000 0.00000000 0.00000000 
150566442 0.00000000 0.00000000 -72.30333290 -8.20497893 0.00000000 0.00000000 0.00000000 0.00000000 
152483960 0.00000000 0.00000000 -64.11664134 7.87990530 0.00000000 0.00000000 0.00000000 0.00000000 
154401480 0.00000000 0.00000000 -65.39486971 21.68267013 0.00000000 0.00000000 0.00000000 0.00000000 
156318998 0.00000000 0.00000000 -72.39853306 30.03197255 0.00000000 0.00000000 0.00000000 0.00000000 
158236516 0.00000000 0.00000000 -71.12187233 -4.44341853 0.00000000 0.00000000 0.00000000 0.00000000 
160154034 0.00000000 0.00000000 -75.58608573 56.79492421 0.00000000 0.00000000 0.00000000 0.00000000 
162071554 0.00000000 0.00000000 -77.87283742 155.92451776 0.00000000 0.00000000 0.00000000 0.00000000 
163989072 0.00000000 0.00000000 -70.10969887 -145.94992992 0.00000000 0.00000000 0.00000000 0.00000000 
165906590 0.00000000 0.00000000 -72.67994178 32.50852213 0.00000000 0.00000000 0.00000000 0.00000000 
167824108 0.00000000 0.00000000 -71.03102924 -127.29216254 0.00000000 0.00000000 0.00000000 0.00000000 
169741628 0.00000000 0.00000000 -77.97492005 60.65763374 0.00000000 0.00000000 0.00000000 0.00000000 
171659146 0.00000000 0.00000000 -73.34573592 129.11292418 0.00000000 0.00000000 0.00000000 0.00000000 
173576664 0.00000000 0.00000000 -75.32456091 139.99000160 0.00000000 0.00000000 0.00000000 0.00000000 
175494182 0.00000000 0.00000000 -75.16236826 104.00246129 0.00000000 0.00000000 0.00000000 0.00000000 
177411702 0.00000000 0.00000000 -78.10790492 84.33993849 0.00000000 0.00000000 0.00000000 0.00000000 
179329220 0.00000000 0.00000000 -71.59273520 29.66840831 0.00000000 0.00000000 0.00000000 0.00000000 
181246738 0.00000000 0.00000000 -69.31191356 -10.44207759 0.00000000 0.00000000 0.00000000 0.00000000 
183164256 0.00000000 0.00000000 -74.79941306 58.81493839 0.00000000 0.00000000 0.00000000 0.00000000 
185081776 0.00000000 0.00000000 -64.31236671 -22.26215303 0.00000000 0.00000000 0.00000000 0.00000000 
186999294 0.00000000 0.00000000 -62.03323146 -4.67184865 0.00000000 0.00000000 0.00000000 0.00000000 
188916812 0.00000000 0.00000000 -65.83771053 22.34918546 0.00000000 0.00000000 0.00000000 0.00000000 
190834330 0.00000000 0.00000000 -68.15016415 14.34533810 0.00000000 0.00000000 0.00000000 0.00000000 
192751850 0.00000000 0.00000000 -69.64431408 54.64640488 0.00000000 0.00000000 0.00000000 0.00000000 
194669368 0.00000000 0.00000000 -67.31182515 31.75418946 0.00000000 0.00000000 0.00000000 0.00000000 
196586886 0.00000000 0.00000000 -69.91857575 29.47577296 0.00000000 0.00000000 0.00000000 0.00000000 
198504404 0.00000000 0.00000000 -70.90640518 25.44888563 0.00000000 0.00000000 0.00000000 0.00000000 
200421924 0.00000000 0.00000000 -67.42028147 35.77143293 0.00000000 0.00000000 0.00000000 0.00000000 
202339442 0.00000000 0.00000000 -73.22928151 32.07946747 0.00000000 0.00000000 0.00000000 0.00000000 
204256960 0.00000000 0.00000000 -77.47485546 2.59334430 0.00000000 0.00000000 0.00000000 0.00000000 
206174478 0.00000000 0.00000000 -65.78557423 44.58192064 0.00000000 0.00000000 0.00000000 0.00000000 
208091998 0.00000000 0.00000000 -68.92142948 61.14554694 0.00000000 0.00000000 0.00000000 0.00000000 
210009516 0.00000000 0.00000000 -70.87975519 55.61402757 0.00000000 0.00000000 0.00000000 0.00000000 
211927034 0.00000000 0.00000000 -69.70587211 176.88459934 0.00000000 0.00000000 0.00000000 0.00000000 
213844552 0.00000000 0.00000000 -69.22251278 -153.94905883 0.00000000 0.00000000 0.00000000 0.00000000 
215762072 0.00000000 0.00000000 -62.87983497 -104.84415099 0.00000000 0.00000000 0.00000000 0.00000000 
217679590 0.00000000 0.00000000 -65.00871644 -119.41493002 0.00000000 0.00000000 0.00000000 0.00000000 
219597108 0.00000000 0.00000000 -70.20543853 -106.37828561 0.00000000 0.00000000 0.00000000 0.00000000 
221514626 0.00000000 0.00000000 -65.62411168 -58.52570428 0.00000000 0.00000000 0.00000000 0.00000000 
223432146 0.00000000 0.00000000 -68.69614982 -39.75968387 0.00000000 0.00000000 0.00000000 0.00000000 
225349664 0.00000000 0.00000000 -80.00000000 -108.45226472 0.00000000 0.00000000 0.00000000 0.00000000 
227267182 0.00000000 0.00000000 -77.00894427 59.81565357 0.00000000 0.00000000 0.00000000 0.00000000 
229184700 0.00000000 0.00000000 -80.00000000 64.39994006 0.00000000 0.00000000 0.00000000 0.00000000 
231102220 0.00000000 0.00000000 -68.65542899 59.38880246 0.00000000 0.00000000 0.00000000 0.00000000 
233019738 0.00000000 0.00000000 -80.00000000 17.29156733 0.00000000 0.00000000 0.00000000 0.00000000 
234937256 0.00000000 0.00000000 -74.31916075 35.90104329 0.00000000 0.00000000 0.00000000 0.00000000 
236854774 0.00000000 0.00000000 -71.35723023 145.87244114 0.00000000 0.00000000 0.00000000 0.00000000 
238772294 0.00000000 0.00000000 -72.31310706 -87.29543107 0.00000000 0.00000000 0.00000000 0.00000000 
240689812 0.00000000 0.00000000 -75.32624148 -133.89878648 0.00000000 0.00000000 0.00000000 0.00000000 
242607330 0.00000000 0.00000000 -74.47165285 -81.52721213 0.00000000 0.00000000 0.00000000 0.00000000 
244524848 0.00000000 0.00000000 -72.75364930 -137.95008291 0.00000000 0.00000000 0.00000000 0.00000000 
246442368 0.00000000 0.00000000 -72.87124498 -170.26875479 0.00000000 0.00000000 0.00000000 0.00000000 
248359886 0.00000000 0.00000000 -75.06755561 -66.20517383 0.00000000 0.00000000 0.00000000 0.00000000 
250277404 0.00000000 0.00000000 -65.14549823 -96.39577236 0.00000000 0.00000000 0.00000000 0.00000000 
252194922 0.00000000 0.00000000 -73.23437162 -108.21336217 0.00000000 0.00000000 0.00000000 0.00000000 
254112442 0.00000000 0.00000000 -67.82208504 -121.55405689 0.00000000 0.00000000 0.00000000 0.00000000 
256029960 0.00000000 0.00000000 -68.57994365 -136.97596057 0.00000000 0.00000000 0.00000000 0.00000000 
257947478 0.00000000 0.00000000 -69.12452543 -107.51467720 0.00000000 0.00000000 0.00000000 0.00000000 
259864996 0.00000000 0.00000000 -73.32174810 -78.36155648 0.00000000 0.00000000 0.00000000 0.00000000 
261782516 0.00000000 0.00000000 -80.00000000 176.81909939 0.00000000 0.00000000 0.00000000 0.00000000 
263700034 0.00000000 0.00000000 -76.93931803 -122.86599891 0.00000000 0.00000000 0.00000000 0.00000000 
265617552 0.00000000 0.00000000 -69.24604469 155.58882937 0.00000000 0.00000000 0.00000000 0.00000000 
267535070 0.00000000 0.00000000 -70.49356924 114.88908208 0.00000000 0.00000000 0.00000000 0.00000000 
269452590 0.00000000 0.00000000 -68.75037249 132.55960727 0.00000000 0.00000000 0.00000000 0.00000000 
271370108 0.00000000 0.00000000 -80.00000000 -85.55467404 0.00000000 0.00000000 0.00000000 0.00000000 
273287626 0.00000000 0.00000000 -78.80446828 89.60758338 0.00000000 0.00000000 0.00000000 0.00000000 
275205144 0.00000000 0.00000000 -69.78795570 110.80386379 0.00000000 0.00000000 0.00000000 0.00000000 
277122664 0.00000000 0.00000000 -75.02980160 -60.47650375 0.00000000 0.00000000 0.00000000 0.00000000 
279040182 0.00000000 0.00000000 -68.65696337 36.15367588 0.00000000 0.00000000 0.00000000 0.00000000 
280957700 0.00000000 0.00000000 -65.01148279 148.22576653 0.00000000 0.00000000 0.00000000 0.00000000 
282875218 0.00000000 0.00000000 -79.47180475 141.50648682 0.00000000 0.00000000 0.00000000 0.00000000 
284792738 0.00000000 0.00000000 -70.66857484 153.46499459 0.00000000 0.00000000 0.00000000 0.00000000 
286710256 0.00000000 0.00000000 -74.71187282 -100.13752376 0.00000000 0.00000000 0.00000000 0.00000000 
288627774 0.00000000 0.00000000 -75.96214766 161.78878775 0.00000000 0.00000000 0.00000000 0.00000000 
290545292 0.00000000 0.00000000 -69.38535893 -31.09320924 0.00000000 0.00000000 0.00000000 0.00000000 
292462812 0.00000000 0.00000000 -68.89022133 53.79402273 0.00000000 0.00000000 0.00000000 0.00000000 
294380330 0.00000000 0.00000000 -70.76199067 158.89835184 0.00000000 0.00000000 0.00000000 0.00000000 
296297848 0.00000000 0.00000000 -68.36572913 -8.95766737 0.00000000 0.00000000 0.00000000 0.00000000 
298215366 0.00000000 0.00000000 -67.19566174 101.99740023 0.00000000 0.00000000 0.00000000 0.00000000 
300132886 0.00000000 0.00000000 -64.76671725 91.46215364 0.00000000 0.00000000 0.00000000 0.00000000 
302050404 0.00000000 0.00000000 -67.22793470 83.30249829 0.00000000 0.00000000 0.00000000 0.00000000 
303967922 0.00000000 0.00000000 -69.76920858 75.43562303 0.00000000 0.00000000 0.00000000 0.00000000 
305885440 0.00000000 0.00000000 -67.93208949 95.52110615 0.00000000 0.00000000 0.00000000 0.00000000 
307802960 0.00000000 0.00000000 -72.17255885 47.22023395 0.00000000 0.00000000 0.00000000 0.00000000 
309720478 0.00000000 0.00000000 -68.79971839 77.61135611 0.00000000 0.00000000 0.00000000 0.00000000 
311637996 0.00000000 0.00000000 -72.75569921 95.99694332 0.00000000 0.00000000 0.00000000 0.00000000 
313555514 0.00000000 0.00000000 -74.42102051 70.25538373 0.00000000 0.00000000 0.00000000 0.00000000 
315473034 0.00000000 0.00000000 -77.96199212 -167.76981926 0.00000000 0.00000000 0.00000000 0.00000000 
317390552 0.00000000 0.00000000 -70.07065061 -79.54809614 0.00000000 0.00000000 0.00000000 0.00000000 
319308070 0.00000000 0.00000000 -72.78807878 -108.07302319 0.00000000 0.00000000 0.00000000 0.00000000 
321225588 0.00000000 0.00000000 -69.75988512 -3.98668462 0.00000000 0.00000000 0.00000000 0.00000000 
323143108 0.00000000 0.00000000 -69.57698410 -89.30642176 0.00000000 0.00000000 0.00000000 0.00000000 
325060626 0.00000000 0.00000000 -76.68320376 -147.43753573 0.00000000 0.00000000 0.00000000 0.00000000 
326978144 0.00000000 0.00000000 -75.56253952 -58.49025191 0.00000000 0.00000000 0.00000000 0.00000000 
328895662 0.00000000 0.00000000 -69.26280443 -25.63255118 0.00000000 0.00000000 0.00000000 0.00000000 
330813182 0.00000000 0.00000000 -80.00000000 -18.50358092 0.00000000 0.00000000 0.00000000 0.00000000 
332730700 0.00000000 0.00000000 -78.20937413 -73.33603052 0.00000000 0.00000000 0.00000000 0.00000000 
334648218 0.00000000 0.00000000 -80.00000000 -18.74259298 0.00000000 0.00000000 0.00000000 0.00000000 
336565736 0.00000000 0.00000000 -66.47983958 49.74125065 0.00000000 0.00000000 0.00000000 0.00000000 
338483256 0.00000000 0.00000000 -68.12677927 96.06357248 0.00000000 0.00000000 0.00000000 0.00000000 
340400774 0.00000000 0.00000000 -72.74258270 143.40681968 0.00000000 0.00000000 0.00000000 0.00000000 
342318292 0.00000000 0.00000000 -69.66231082 -156.68631058 0.00000000 0.00000000 0.00000000 0.00000000 
344235810 0.00000000 0.00000000 -65.77923371 -55.33996332 0.00000000 0.00000000 0.00000000 0.00000000 
346153330 0.00000000 0.00000000 -64.41745567 -70.70593021 0.00000000 0.00000000 0.00000000 0.00000000 
348070848 0.00000000 0.00000000 -63.59003271 -28.51139539 0.00000000 0.00000000 0.00000000 0.00000000 
349988366 0.00000000 0.00000000 -68.15445681 -28.48400944 0.00000000 0.00000000 0.00000000 0.00000000 
351905884 0.00000000 0.00000000 -68.53476263 -20.64520096 0.00000000 0.00000000 0.00000000 0.00000000 
353823404 0.00000000 0.00000000 -73.72280186 -67.26127945 0.00000000 0.00000000 0.00000000 0.00000000 
355740922 0.00000000 0.00000000 -67.39688623 -12.24780097 0.00000000 0.00000000 0.00000000 0.00000000 
357658440 0.00000000 0.00000000 -67.12570303 23.99237139 0.00000000 0.00000000 0.00000000 0.00000000 
359575958 0.00000000 0.00000000 -75.03544055 -48.58208508 0.00000000 0.00000000 0.00000000 0.00000000 
361493478 0.00000000 0.00000000 -80.00000000 5.86553906 0.00000000 0.00000000 0.00000000 0.00000000 
363410996 0.00000000 0.00000000 -70.94544967 21.17714294 0.00000000 0.00000000 0.00000000 0.00000000 
365328514 0.00000000 0.00000000 -72.10249857 4.23790829 0.00000000 0.00000000 0.00000000 0.00000000 
367246032 0.00000000 0.00000000 -71.32932087 173.60609621 0.00000000 0.00000000 0.00000000 0.00000000 
369163552 0.00000000 0.00000000 -80.00000000 -166.39148501 0.00000000 0.00000000 0.00000000 0.00000000 
