! created by ADMIN at Tue Apr 21 15:45:52 IST 2026
! generated using vna/J Version 3.2.10
# Hz S DB R 50
001000000 0.00000000 0.00000000 -64.87446073 81.46743894 0.00000000 0.00000000 0.00000000 0.00000000 
002917518 0.00000000 0.00000000 -69.66556373 110.10678674 0.00000000 0.00000000 0.00000000 0.00000000 
004835036 0.00000000 0.00000000 -73.37589215 106.95233889 0.00000000 0.00000000 0.00000000 0.00000000 
006752554 0.00000000 0.00000000 -70.90048310 14.03848608 0.00000000 0.00000000 0.00000000 0.00000000 
008670074 0.00000000 0.00000000 -80.00000000 40.75819932 0.00000000 0.00000000 0.00000000 0.00000000 
010587592 0.00000000 0.00000000 -68.09049008 54.03098709 0.00000000 0.00000000 0.00000000 0.00000000 
012505110 0.00000000 0.00000000 -66.35636310 58.41021656 0.00000000 0.00000000 0.00000000 0.00000000 
014422628 0.00000000 0.00000000 -65.60248415 65.53153982 0.00000000 0.00000000 0.00000000 0.00000000 
016340148 0.00000000 0.00000000 -64.85455838 66.66943782 0.00000000 0.00000000 0.00000000 0.00000000 
018257666 0.00000000 0.00000000 -64.87039723 67.27903486 0.00000000 0.00000000 0.00000000 0.00000000 
020175184 0.00000000 0.00000000 -66.29743306 71.27428712 0.00000000 0.00000000 0.00000000 0.00000000 
022092702 0.00000000 0.00000000 -68.44942417 65.26809712 0.00000000 0.00000000 0.00000000 0.00000000 
024010222 0.00000000 0.00000000 -76.04715625 150.73201540 0.00000000 0.00000000 0.00000000 0.00000000 
025927740 0.00000000 0.00000000 -72.85607059 19.58014731 0.00000000 0.00000000 0.00000000 0.00000000 
027845258 0.00000000 0.00000000 -77.70088768 132.53298831 0.00000000 0.00000000 0.00000000 0.00000000 
029762776 0.00000000 0.00000000 -75.11190138 172.11985583 0.00000000 0.00000000 0.00000000 0.00000000 
031680296 0.00000000 0.00000000 -73.09247081 55.03187550 0.00000000 0.00000000 0.00000000 0.00000000 
033597814 0.00000000 0.00000000 -78.94112525 -104.74708846 0.00000000 0.00000000 0.00000000 0.00000000 
035515332 0.00000000 0.00000000 -80.00000000 -67.43452867 0.00000000 0.00000000 0.00000000 0.00000000 
037432850 0.00000000 0.00000000 -70.91427065 -115.13193571 0.00000000 0.00000000 0.00000000 0.00000000 
039350370 0.00000000 0.00000000 -73.89672794 -59.35958731 0.00000000 0.00000000 0.00000000 0.00000000 
041267888 0.00000000 0.00000000 -71.18830357 -45.99491862 0.00000000 0.00000000 0.00000000 0.00000000 
043185406 0.00000000 0.00000000 -70.60541208 -42.53870582 0.00000000 0.00000000 0.00000000 0.00000000 
045102924 0.00000000 0.00000000 -67.84362967 21.88177554 0.00000000 0.00000000 0.00000000 0.00000000 
047020444 0.00000000 0.00000000 -65.39644427 5.05622053 0.00000000 0.00000000 0.00000000 0.00000000 
048937962 0.00000000 0.00000000 -72.74167908 25.31259769 0.00000000 0.00000000 0.00000000 0.00000000 
050855480 0.00000000 0.00000000 -73.66587129 24.48265305 0.00000000 0.00000000 0.00000000 0.00000000 
052772998 0.00000000 0.00000000 -73.94477744 -7.27985080 0.00000000 0.00000000 0.00000000 0.00000000 
054690518 0.00000000 0.00000000 -74.94505022 12.26245009 0.00000000 0.00000000 0.00000000 0.00000000 
056608036 0.00000000 0.00000000 -68.96995296 103.65181903 0.00000000 0.00000000 0.00000000 0.00000000 
058525554 0.00000000 0.00000000 -71.68165518 144.13048920 0.00000000 0.00000000 0.00000000 0.00000000 
060443072 0.00000000 0.00000000 -76.93644244 133.15026110 0.00000000 0.00000000 0.00000000 0.00000000 
062360592 0.00000000 0.00000000 -68.70956426 172.39480698 0.00000000 0.00000000 0.00000000 0.00000000 
064278110 0.00000000 0.00000000 -67.41539543 164.95875487 0.00000000 0.00000000 0.00000000 0.00000000 
066195628 0.00000000 0.00000000 -64.15391094 -151.17010747 0.00000000 0.00000000 0.00000000 0.00000000 
068113146 0.00000000 0.00000000 -67.28291542 -150.20446054 0.00000000 0.00000000 0.00000000 0.00000000 
070030666 0.00000000 0.00000000 -69.76537259 -164.22015622 0.00000000 0.00000000 0.00000000 0.00000000 
071948184 0.00000000 0.00000000 -67.24139198 -116.75550084 0.00000000 0.00000000 0.00000000 0.00000000 
073865702 0.00000000 0.00000000 -67.82232050 -118.34281671 0.00000000 0.00000000 0.00000000 0.00000000 
075783220 0.00000000 0.00000000 -70.60779213 -112.34820862 0.00000000 0.00000000 0.00000000 0.00000000 
077700740 0.00000000 0.00000000 -75.94870472 -87.74015363 0.00000000 0.00000000 0.00000000 0.00000000 
079618258 0.00000000 0.00000000 -73.80101960 -84.97898568 0.00000000 0.00000000 0.00000000 0.00000000 
081535776 0.00000000 0.00000000 -75.10028132 91.55140870 0.00000000 0.00000000 0.00000000 0.00000000 
083453294 0.00000000 0.00000000 -77.93417602 120.82602301 0.00000000 0.00000000 0.00000000 0.00000000 
085370814 0.00000000 0.00000000 -66.90508696 156.37420661 0.00000000 0.00000000 0.00000000 0.00000000 
087288332 0.00000000 0.00000000 -70.07612193 -172.84774169 0.00000000 0.00000000 0.00000000 0.00000000 
089205850 0.00000000 0.00000000 -67.41446568 113.95329042 0.00000000 0.00000000 0.00000000 0.00000000 
091123368 0.00000000 0.00000000 -67.62624820 104.19667941 0.00000000 0.00000000 0.00000000 0.00000000 
093040888 0.00000000 0.00000000 -65.68480787 118.37842017 0.00000000 0.00000000 0.00000000 0.00000000 
094958406 0.00000000 0.00000000 -61.70786380 127.91450382 0.00000000 0.00000000 0.00000000 0.00000000 
096875924 0.00000000 0.00000000 -59.17655496 132.53557869 0.00000000 0.00000000 0.00000000 0.00000000 
098793442 0.00000000 0.00000000 -57.34360113 141.47314406 0.00000000 0.00000000 0.00000000 0.00000000 
100710962 0.00000000 0.00000000 -55.61272927 152.67734344 0.00000000 0.00000000 0.00000000 0.00000000 
102628480 0.00000000 0.00000000 -57.61834823 137.40970204 0.00000000 0.00000000 0.00000000 0.00000000 
104545998 0.00000000 0.00000000 -58.86313315 133.09999222 0.00000000 0.00000000 0.00000000 0.00000000 
106463516 0.00000000 0.00000000 -59.21083895 114.17844072 0.00000000 0.00000000 0.00000000 0.00000000 
108381036 0.00000000 0.00000000 -56.44610523 78.35422603 0.00000000 0.00000000 0.00000000 0.00000000 
110298554 0.00000000 0.00000000 -59.27381175 94.97257020 0.00000000 0.00000000 0.00000000 0.00000000 
112216072 0.00000000 0.00000000 -58.36562969 97.62070366 0.00000000 0.00000000 0.00000000 0.00000000 
114133590 0.00000000 0.00000000 -61.02464196 110.68945730 0.00000000 0.00000000 0.00000000 0.00000000 
116051110 0.00000000 0.00000000 -61.83811263 80.80887255 0.00000000 0.00000000 0.00000000 0.00000000 
117968628 0.00000000 0.00000000 -62.22334508 82.67685419 0.00000000 0.00000000 0.00000000 0.00000000 
119886146 0.00000000 0.00000000 -62.87046671 71.58536176 0.00000000 0.00000000 0.00000000 0.00000000 
121803664 0.00000000 0.00000000 -62.81152966 66.07894152 0.00000000 0.00000000 0.00000000 0.00000000 
123721184 0.00000000 0.00000000 -59.64070112 84.22330576 0.00000000 0.00000000 0.00000000 0.00000000 
125638702 0.00000000 0.00000000 -64.04280892 73.23985885 0.00000000 0.00000000 0.00000000 0.00000000 
127556220 0.00000000 0.00000000 -63.03597591 53.64770442 0.00000000 0.00000000 0.00000000 0.00000000 
129473738 0.00000000 0.00000000 -64.45475108 54.14870901 0.00000000 0.00000000 0.00000000 0.00000000 
131391258 0.00000000 0.00000000 -64.26629424 54.96338608 0.00000000 0.00000000 0.00000000 0.00000000 
133308776 0.00000000 0.00000000 -67.97907078 104.53220157 0.00000000 0.00000000 0.00000000 0.00000000 
135226294 0.00000000 0.00000000 -61.87690458 83.03549440 0.00000000 0.00000000 0.00000000 0.00000000 
137143812 0.00000000 0.00000000 -64.01460710 67.79146150 0.00000000 0.00000000 0.00000000 0.00000000 
139061332 0.00000000 0.00000000 -65.27584752 85.54526830 0.00000000 0.00000000 0.00000000 0.00000000 
140978850 0.00000000 0.00000000 -63.31982226 89.09798274 0.00000000 0.00000000 0.00000000 0.00000000 
142896368 0.00000000 0.00000000 -60.99084144 89.70204858 0.00000000 0.00000000 0.00000000 0.00000000 
144813886 0.00000000 0.00000000 -64.61664879 115.13975174 0.00000000 0.00000000 0.00000000 0.00000000 
146731406 0.00000000 0.00000000 -62.61213836 130.80082222 0.00000000 0.00000000 0.00000000 0.00000000 
148648924 0.00000000 0.00000000 -62.33092780 109.90384006 0.00000000 0.00000000 0.00000000 0.00000000 
150566442 0.00000000 0.00000000 -63.56082527 102.12851176 0.00000000 0.00000000 0.00000000 0.00000000 
152483960 0.00000000 0.00000000 -63.03191895 75.75295683 0.00000000 0.00000000 0.00000000 0.00000000 
154401480 0.00000000 0.00000000 -62.99853105 89.26887954 0.00000000 0.00000000 0.00000000 0.00000000 
156318998 0.00000000 0.00000000 -63.44874206 101.02702943 0.00000000 0.00000000 0.00000000 0.00000000 
158236516 0.00000000 0.00000000 -64.39160333 83.03601640 0.00000000 0.00000000 0.00000000 0.00000000 
160154034 0.00000000 0.00000000 -61.04994175 90.80142465 0.00000000 0.00000000 0.00000000 0.00000000 
162071554 0.00000000 0.00000000 -60.19260825 99.69713285 0.00000000 0.00000000 0.00000000 0.00000000 
163989072 0.00000000 0.00000000 -62.69186724 101.52640965 0.00000000 0.00000000 0.00000000 0.00000000 
165906590 0.00000000 0.00000000 -58.71021973 66.26134685 0.00000000 0.00000000 0.00000000 0.00000000 
167824108 0.00000000 0.00000000 -61.34195161 73.87054804 0.00000000 0.00000000 0.00000000 0.00000000 
169741628 0.00000000 0.00000000 -56.82223316 66.42610738 0.00000000 0.00000000 0.00000000 0.00000000 
171659146 0.00000000 0.00000000 -57.10688723 78.80340862 0.00000000 0.00000000 0.00000000 0.00000000 
173576664 0.00000000 0.00000000 -57.64585725 82.19987968 0.00000000 0.00000000 0.00000000 0.00000000 
175494182 0.00000000 0.00000000 -57.34503417 82.27261273 0.00000000 0.00000000 0.00000000 0.00000000 
177411702 0.00000000 0.00000000 -57.72677936 82.85823963 0.00000000 0.00000000 0.00000000 0.00000000 
179329220 0.00000000 0.00000000 -57.23133463 72.70144749 0.00000000 0.00000000 0.00000000 0.00000000 
181246738 0.00000000 0.00000000 -57.76418261 65.15540362 0.00000000 0.00000000 0.00000000 0.00000000 
183164256 0.00000000 0.00000000 -56.40123071 77.90265950 0.00000000 0.00000000 0.00000000 0.00000000 
185081776 0.00000000 0.00000000 -56.84500933 57.21009897 0.00000000 0.00000000 0.00000000 0.00000000 
186999294 0.00000000 0.00000000 -56.23893537 54.11007500 0.00000000 0.00000000 0.00000000 0.00000000 
188916812 0.00000000 0.00000000 -56.57454485 69.11658970 0.00000000 0.00000000 0.00000000 0.00000000 
190834330 0.00000000 0.00000000 -58.09546224 70.67084472 0.00000000 0.00000000 0.00000000 0.00000000 
192751850 0.00000000 0.00000000 -57.91140751 79.32218977 0.00000000 0.00000000 0.00000000 0.00000000 
194669368 0.00000000 0.00000000 -58.33248561 66.51497595 0.00000000 0.00000000 0.00000000 0.00000000 
196586886 0.00000000 0.00000000 -59.16380180 63.43755707 0.00000000 0.00000000 0.00000000 0.00000000 
198504404 0.00000000 0.00000000 -59.12639302 57.94201566 0.00000000 0.00000000 0.00000000 0.00000000 
200421924 0.00000000 0.00000000 -57.34993896 54.03044154 0.00000000 0.00000000 0.00000000 0.00000000 
202339442 0.00000000 0.00000000 -59.42542132 55.25926297 0.00000000 0.00000000 0.00000000 0.00000000 
204256960 0.00000000 0.00000000 -61.01053809 50.87039604 0.00000000 0.00000000 0.00000000 0.00000000 
206174478 0.00000000 0.00000000 -57.82252380 49.96039708 0.00000000 0.00000000 0.00000000 0.00000000 
208091998 0.00000000 0.00000000 -58.92353596 52.70019623 0.00000000 0.00000000 0.00000000 0.00000000 
210009516 0.00000000 0.00000000 -58.37981092 52.50873297 0.00000000 0.00000000 0.00000000 0.00000000 
211927034 0.00000000 0.00000000 -60.54028032 73.15408064 0.00000000 0.00000000 0.00000000 0.00000000 
213844552 0.00000000 0.00000000 -60.46466995 72.93410070 0.00000000 0.00000000 0.00000000 0.00000000 
215762072 0.00000000 0.00000000 -63.67873888 57.44597748 0.00000000 0.00000000 0.00000000 0.00000000 
217679590 0.00000000 0.00000000 -62.12754547 76.68113619 0.00000000 0.00000000 0.00000000 0.00000000 
219597108 0.00000000 0.00000000 -59.94047300 72.98832341 0.00000000 0.00000000 0.00000000 0.00000000 
221514626 0.00000000 0.00000000 -59.90299897 54.84639015 0.00000000 0.00000000 0.00000000 0.00000000 
223432146 0.00000000 0.00000000 -58.55007302 63.81249638 0.00000000 0.00000000 0.00000000 0.00000000 
225349664 0.00000000 0.00000000 -58.78019457 79.13924497 0.00000000 0.00000000 0.00000000 0.00000000 
227267182 0.00000000 0.00000000 -58.09183135 74.55454909 0.00000000 0.00000000 0.00000000 0.00000000 
229184700 0.00000000 0.00000000 -58.94339561 72.30586158 0.00000000 0.00000000 0.00000000 0.00000000 
231102220 0.00000000 0.00000000 -56.84501233 66.15771402 0.00000000 0.00000000 0.00000000 0.00000000 
233019738 0.00000000 0.00000000 -58.89727684 63.43959927 0.00000000 0.00000000 0.00000000 0.00000000 
234937256 0.00000000 0.00000000 -57.75686993 60.77895182 0.00000000 0.00000000 0.00000000 0.00000000 
236854774 0.00000000 0.00000000 -57.94451365 76.37847893 0.00000000 0.00000000 0.00000000 0.00000000 
238772294 0.00000000 0.00000000 -59.23330304 58.64311684 0.00000000 0.00000000 0.00000000 0.00000000 
240689812 0.00000000 0.00000000 -57.65618145 70.33905236 0.00000000 0.00000000 0.00000000 0.00000000 
242607330 0.00000000 0.00000000 -56.60411587 68.30623147 0.00000000 0.00000000 0.00000000 0.00000000 
244524848 0.00000000 0.00000000 -55.67915462 80.93042143 0.00000000 0.00000000 0.00000000 0.00000000 
246442368 0.00000000 0.00000000 -54.15051687 88.02329652 0.00000000 0.00000000 0.00000000 0.00000000 
248359886 0.00000000 0.00000000 -56.07867687 77.95867535 0.00000000 0.00000000 0.00000000 0.00000000 
250277404 0.00000000 0.00000000 -60.75413888 74.46162906 0.00000000 0.00000000 0.00000000 0.00000000 
252194922 0.00000000 0.00000000 -59.35115852 69.99993363 0.00000000 0.00000000 0.00000000 0.00000000 
254112442 0.00000000 0.00000000 -61.56784134 60.59739770 0.00000000 0.00000000 0.00000000 0.00000000 
256029960 0.00000000 0.00000000 -61.00654312 74.06554861 0.00000000 0.00000000 0.00000000 0.00000000 
257947478 0.00000000 0.00000000 -61.31344178 69.20650735 0.00000000 0.00000000 0.00000000 0.00000000 
259864996 0.00000000 0.00000000 -59.93321447 69.66141595 0.00000000 0.00000000 0.00000000 0.00000000 
261782516 0.00000000 0.00000000 -58.55626213 84.02290903 0.00000000 0.00000000 0.00000000 0.00000000 
263700034 0.00000000 0.00000000 -58.81271969 74.20356576 0.00000000 0.00000000 0.00000000 0.00000000 
265617552 0.00000000 0.00000000 -56.42551096 80.75918542 0.00000000 0.00000000 0.00000000 0.00000000 
267535070 0.00000000 0.00000000 -54.45362517 72.78524233 0.00000000 0.00000000 0.00000000 0.00000000 
269452590 0.00000000 0.00000000 -53.46281681 75.89340292 0.00000000 0.00000000 0.00000000 0.00000000 
271370108 0.00000000 0.00000000 -55.38932840 65.33583458 0.00000000 0.00000000 0.00000000 0.00000000 
273287626 0.00000000 0.00000000 -55.10676910 66.58338164 0.00000000 0.00000000 0.00000000 0.00000000 
275205144 0.00000000 0.00000000 -54.81973409 69.95778342 0.00000000 0.00000000 0.00000000 0.00000000 
277122664 0.00000000 0.00000000 -56.48387553 53.32533853 0.00000000 0.00000000 0.00000000 0.00000000 
279040182 0.00000000 0.00000000 -54.43173284 52.34440243 0.00000000 0.00000000 0.00000000 0.00000000 
280957700 0.00000000 0.00000000 -55.73340420 73.31763517 0.00000000 0.00000000 0.00000000 0.00000000 
282875218 0.00000000 0.00000000 -55.51624739 54.86327827 0.00000000 0.00000000 0.00000000 0.00000000 
284792738 0.00000000 0.00000000 -55.02445971 59.75763633 0.00000000 0.00000000 0.00000000 0.00000000 
286710256 0.00000000 0.00000000 -57.74476221 53.01207435 0.00000000 0.00000000 0.00000000 0.00000000 
288627774 0.00000000 0.00000000 -59.21025860 68.38085724 0.00000000 0.00000000 0.00000000 0.00000000 
290545292 0.00000000 0.00000000 -61.48950794 36.33605264 0.00000000 0.00000000 0.00000000 0.00000000 
292462812 0.00000000 0.00000000 -61.48991308 50.62923808 0.00000000 0.00000000 0.00000000 0.00000000 
294380330 0.00000000 0.00000000 -68.71720050 71.71650234 0.00000000 0.00000000 0.00000000 0.00000000 
296297848 0.00000000 0.00000000 -61.22410081 5.97433896 0.00000000 0.00000000 0.00000000 0.00000000 
298215366 0.00000000 0.00000000 -62.54788161 44.51455704 0.00000000 0.00000000 0.00000000 0.00000000 
300132886 0.00000000 0.00000000 -59.93568626 40.70804002 0.00000000 0.00000000 0.00000000 0.00000000 
302050404 0.00000000 0.00000000 -60.74740442 39.27568759 0.00000000 0.00000000 0.00000000 0.00000000 
303967922 0.00000000 0.00000000 -61.96864660 39.00177159 0.00000000 0.00000000 0.00000000 0.00000000 
305885440 0.00000000 0.00000000 -62.98976790 57.34386881 0.00000000 0.00000000 0.00000000 0.00000000 
307802960 0.00000000 0.00000000 -64.48246237 36.84811328 0.00000000 0.00000000 0.00000000 0.00000000 
309720478 0.00000000 0.00000000 -63.03995384 60.73769566 0.00000000 0.00000000 0.00000000 0.00000000 
311637996 0.00000000 0.00000000 -64.57100062 72.19928666 0.00000000 0.00000000 0.00000000 0.00000000 
313555514 0.00000000 0.00000000 -64.38383400 71.39672767 0.00000000 0.00000000 0.00000000 0.00000000 
315473034 0.00000000 0.00000000 -67.53110402 101.65202591 0.00000000 0.00000000 0.00000000 0.00000000 
317390552 0.00000000 0.00000000 -71.01347365 96.08807097 0.00000000 0.00000000 0.00000000 0.00000000 
319308070 0.00000000 0.00000000 -64.61322193 123.32576500 0.00000000 0.00000000 0.00000000 0.00000000 
321225588 0.00000000 0.00000000 -62.19395228 99.43910356 0.00000000 0.00000000 0.00000000 0.00000000 
323143108 0.00000000 0.00000000 -61.53651492 144.02794739 0.00000000 0.00000000 0.00000000 0.00000000 
325060626 0.00000000 0.00000000 -59.25038815 133.94180704 0.00000000 0.00000000 0.00000000 0.00000000 
326978144 0.00000000 0.00000000 -60.46368224 123.95784011 0.00000000 0.00000000 0.00000000 0.00000000 
328895662 0.00000000 0.00000000 -60.69836414 110.81681469 0.00000000 0.00000000 0.00000000 0.00000000 
330813182 0.00000000 0.00000000 -58.03724631 120.28978689 0.00000000 0.00000000 0.00000000 0.00000000 
332730700 0.00000000 0.00000000 -58.47963358 127.23920837 0.00000000 0.00000000 0.00000000 0.00000000 
334648218 0.00000000 0.00000000 -57.80914913 127.39281925 0.00000000 0.00000000 0.00000000 0.00000000 
336565736 0.00000000 0.00000000 -56.56394092 112.95594708 0.00000000 0.00000000 0.00000000 0.00000000 
338483256 0.00000000 0.00000000 -55.37786136 126.32291886 0.00000000 0.00000000 0.00000000 0.00000000 
340400774 0.00000000 0.00000000 -54.40114986 129.21206052 0.00000000 0.00000000 0.00000000 0.00000000 
342318292 0.00000000 0.00000000 -53.28799033 133.70483869 0.00000000 0.00000000 0.00000000 0.00000000 
344235810 0.00000000 0.00000000 -53.98468757 126.87255905 0.00000000 0.00000000 0.00000000 0.00000000 
346153330 0.00000000 0.00000000 -52.28951787 134.55080125 0.00000000 0.00000000 0.00000000 0.00000000 
348070848 0.00000000 0.00000000 -52.98599212 127.31677362 0.00000000 0.00000000 0.00000000 0.00000000 
349988366 0.00000000 0.00000000 -52.44737590 132.76450425 0.00000000 0.00000000 0.00000000 0.00000000 
351905884 0.00000000 0.00000000 -52.62592777 134.18214303 0.00000000 0.00000000 0.00000000 0.00000000 
353823404 0.00000000 0.00000000 -52.21357929 141.65715996 0.00000000 0.00000000 0.00000000 0.00000000 
355740922 0.00000000 0.00000000 -52.62135245 124.48502729 0.00000000 0.00000000 0.00000000 0.00000000 
357658440 0.00000000 0.00000000 -50.85151012 114.89474634 0.00000000 0.00000000 0.00000000 0.00000000 
359575958 0.00000000 0.00000000 -50.05200286 118.81218998 0.00000000 0.00000000 0.00000000 0.00000000 
361493478 0.00000000 0.00000000 -48.36767976 117.59717455 0.00000000 0.00000000 0.00000000 0.00000000 
363410996 0.00000000 0.00000000 -48.48111225 110.56511978 0.00000000 0.00000000 0.00000000 0.00000000 
365328514 0.00000000 0.00000000 -48.42439393 108.12055900 0.00000000 0.00000000 0.00000000 0.00000000 
367246032 0.00000000 0.00000000 -47.51416390 112.87193409 0.00000000 0.00000000 0.00000000 0.00000000 
369163552 0.00000000 0.00000000 -47.08655493 109.73252138 0.00000000 0.00000000 0.00000000 0.00000000 
371081070 0.00000000 0.00000000 -48.02849862 103.08578043 0.00000000 0.00000000 0.00000000 0.00000000 
