! created by ADMIN at Mon Apr 20 18:54:19 IST 2026
! generated using vna/J Version 3.2.10
# Hz S DB R 50
001000000 0.00000000 0.00000000 -60.25567578 54.50664354 0.00000000 0.00000000 0.00000000 0.00000000 
002917518 0.00000000 0.00000000 -64.97651283 77.11672717 0.00000000 0.00000000 0.00000000 0.00000000 
004835036 0.00000000 0.00000000 -68.82834766 84.46855244 0.00000000 0.00000000 0.00000000 0.00000000 
006752554 0.00000000 0.00000000 -70.58964812 17.42610772 0.00000000 0.00000000 0.00000000 0.00000000 
008670074 0.00000000 0.00000000 -80.00000000 -52.72561947 0.00000000 0.00000000 0.00000000 0.00000000 
010587592 0.00000000 0.00000000 -69.77333004 27.15689136 0.00000000 0.00000000 0.00000000 0.00000000 
012505110 0.00000000 0.00000000 -66.81711311 27.08520521 0.00000000 0.00000000 0.00000000 0.00000000 
014422628 0.00000000 0.00000000 -65.24596515 29.66888174 0.00000000 0.00000000 0.00000000 0.00000000 
016340148 0.00000000 0.00000000 -63.37621057 29.80755705 0.00000000 0.00000000 0.00000000 0.00000000 
018257666 0.00000000 0.00000000 -61.98901086 33.36479928 0.00000000 0.00000000 0.00000000 0.00000000 
020175184 0.00000000 0.00000000 -61.72747681 36.85153440 0.00000000 0.00000000 0.00000000 0.00000000 
022092702 0.00000000 0.00000000 -61.35569252 36.66191976 0.00000000 0.00000000 0.00000000 0.00000000 
024010222 0.00000000 0.00000000 -65.10590749 46.66533120 0.00000000 0.00000000 0.00000000 0.00000000 
025927740 0.00000000 0.00000000 -60.71990991 32.15187925 0.00000000 0.00000000 0.00000000 0.00000000 
027845258 0.00000000 0.00000000 -61.67772255 52.25355418 0.00000000 0.00000000 0.00000000 0.00000000 
029762776 0.00000000 0.00000000 -61.54738327 60.05591862 0.00000000 0.00000000 0.00000000 0.00000000 
031680296 0.00000000 0.00000000 -58.16008406 55.88359402 0.00000000 0.00000000 0.00000000 0.00000000 
033597814 0.00000000 0.00000000 -59.71941564 60.74140894 0.00000000 0.00000000 0.00000000 0.00000000 
035515332 0.00000000 0.00000000 -58.13521890 66.23508783 0.00000000 0.00000000 0.00000000 0.00000000 
037432850 0.00000000 0.00000000 -58.88835895 77.20278092 0.00000000 0.00000000 0.00000000 0.00000000 
039350370 0.00000000 0.00000000 -57.09383204 75.88198841 0.00000000 0.00000000 0.00000000 0.00000000 
041267888 0.00000000 0.00000000 -55.91435725 65.84419576 0.00000000 0.00000000 0.00000000 0.00000000 
043185406 0.00000000 0.00000000 -54.41555913 62.76282658 0.00000000 0.00000000 0.00000000 0.00000000 
045102924 0.00000000 0.00000000 -51.59884248 63.45103759 0.00000000 0.00000000 0.00000000 0.00000000 
047020444 0.00000000 0.00000000 -50.53053747 62.36467519 0.00000000 0.00000000 0.00000000 0.00000000 
048937962 0.00000000 0.00000000 -37.77582644 19.68963023 0.00000000 0.00000000 0.00000000 0.00000000 
050855480 0.00000000 0.00000000 -32.24327448 22.00994416 0.00000000 0.00000000 0.00000000 0.00000000 
052772998 0.00000000 0.00000000 -28.85708281 27.89397124 0.00000000 0.00000000 0.00000000 0.00000000 
054690518 0.00000000 0.00000000 -26.39566135 35.06454537 0.00000000 0.00000000 0.00000000 0.00000000 
056608036 0.00000000 0.00000000 -29.00608192 43.73611407 0.00000000 0.00000000 0.00000000 0.00000000 
058525554 0.00000000 0.00000000 -32.87905581 51.97771453 0.00000000 0.00000000 0.00000000 0.00000000 
060443072 0.00000000 0.00000000 -39.95255326 60.22124620 0.00000000 0.00000000 0.00000000 0.00000000 
062360592 0.00000000 0.00000000 -50.81663923 -119.01978149 0.00000000 0.00000000 0.00000000 0.00000000 
064278110 0.00000000 0.00000000 -52.67080331 -118.12218770 0.00000000 0.00000000 0.00000000 0.00000000 
066195628 0.00000000 0.00000000 -52.90526963 -117.21794682 0.00000000 0.00000000 0.00000000 0.00000000 
068113146 0.00000000 0.00000000 -55.46545769 -118.06106028 0.00000000 0.00000000 0.00000000 0.00000000 
070030666 0.00000000 0.00000000 -58.20621746 -130.10996553 0.00000000 0.00000000 0.00000000 0.00000000 
071948184 0.00000000 0.00000000 -60.92157368 -118.91220433 0.00000000 0.00000000 0.00000000 0.00000000 
073865702 0.00000000 0.00000000 -67.67519495 -142.47996935 0.00000000 0.00000000 0.00000000 0.00000000 
075783220 0.00000000 0.00000000 -66.79680961 130.89792897 0.00000000 0.00000000 0.00000000 0.00000000 
077700740 0.00000000 0.00000000 -59.80889527 112.47563933 0.00000000 0.00000000 0.00000000 0.00000000 
079618258 0.00000000 0.00000000 -63.18652488 110.95076124 0.00000000 0.00000000 0.00000000 0.00000000 
081535776 0.00000000 0.00000000 -61.45828928 93.78144642 0.00000000 0.00000000 0.00000000 0.00000000 
083453294 0.00000000 0.00000000 -63.24752329 79.98539370 0.00000000 0.00000000 0.00000000 0.00000000 
085370814 0.00000000 0.00000000 -62.46924232 87.05259832 0.00000000 0.00000000 0.00000000 0.00000000 
087288332 0.00000000 0.00000000 -64.68025097 82.80170692 0.00000000 0.00000000 0.00000000 0.00000000 
089205850 0.00000000 0.00000000 -59.48441269 80.77334588 0.00000000 0.00000000 0.00000000 0.00000000 
091123368 0.00000000 0.00000000 -59.06338040 80.94031593 0.00000000 0.00000000 0.00000000 0.00000000 
093040888 0.00000000 0.00000000 -58.42381508 91.78481406 0.00000000 0.00000000 0.00000000 0.00000000 
094958406 0.00000000 0.00000000 -60.00024917 92.76271496 0.00000000 0.00000000 0.00000000 0.00000000 
096875924 0.00000000 0.00000000 -61.36014197 85.03936572 0.00000000 0.00000000 0.00000000 0.00000000 
098793442 0.00000000 0.00000000 -62.87257287 73.31221332 0.00000000 0.00000000 0.00000000 0.00000000 
100710962 0.00000000 0.00000000 -64.14757748 59.42166457 0.00000000 0.00000000 0.00000000 0.00000000 
102628480 0.00000000 0.00000000 -61.15808800 73.28720187 0.00000000 0.00000000 0.00000000 0.00000000 
104545998 0.00000000 0.00000000 -61.73727964 100.81925993 0.00000000 0.00000000 0.00000000 0.00000000 
106463516 0.00000000 0.00000000 -60.83337006 115.49212422 0.00000000 0.00000000 0.00000000 0.00000000 
108381036 0.00000000 0.00000000 -60.25086291 98.12221269 0.00000000 0.00000000 0.00000000 0.00000000 
110298554 0.00000000 0.00000000 -57.58632208 98.81423364 0.00000000 0.00000000 0.00000000 0.00000000 
112216072 0.00000000 0.00000000 -53.07227449 93.39029454 0.00000000 0.00000000 0.00000000 0.00000000 
114133590 0.00000000 0.00000000 -51.33072213 98.66173354 0.00000000 0.00000000 0.00000000 0.00000000 
116051110 0.00000000 0.00000000 -49.27594047 95.28881377 0.00000000 0.00000000 0.00000000 0.00000000 
117968628 0.00000000 0.00000000 -50.06880020 94.40143292 0.00000000 0.00000000 0.00000000 0.00000000 
119886146 0.00000000 0.00000000 -50.87077395 89.10020197 0.00000000 0.00000000 0.00000000 0.00000000 
121803664 0.00000000 0.00000000 -51.11507348 83.78033882 0.00000000 0.00000000 0.00000000 0.00000000 
123721184 0.00000000 0.00000000 -49.90066251 84.11804709 0.00000000 0.00000000 0.00000000 0.00000000 
125638702 0.00000000 0.00000000 -51.39635597 78.37401780 0.00000000 0.00000000 0.00000000 0.00000000 
127556220 0.00000000 0.00000000 -51.18638615 69.58367756 0.00000000 0.00000000 0.00000000 0.00000000 
129473738 0.00000000 0.00000000 -51.01351529 67.49839287 0.00000000 0.00000000 0.00000000 0.00000000 
131391258 0.00000000 0.00000000 -50.25267293 66.14351910 0.00000000 0.00000000 0.00000000 0.00000000 
133308776 0.00000000 0.00000000 -50.97462948 71.69506263 0.00000000 0.00000000 0.00000000 0.00000000 
135226294 0.00000000 0.00000000 -49.45012922 68.50830211 0.00000000 0.00000000 0.00000000 0.00000000 
137143812 0.00000000 0.00000000 -49.38221084 63.85682187 0.00000000 0.00000000 0.00000000 0.00000000 
139061332 0.00000000 0.00000000 -49.02382584 66.35906276 0.00000000 0.00000000 0.00000000 0.00000000 
140978850 0.00000000 0.00000000 -48.46903502 66.86136759 0.00000000 0.00000000 0.00000000 0.00000000 
142896368 0.00000000 0.00000000 -47.62826488 67.65569750 0.00000000 0.00000000 0.00000000 0.00000000 
144813886 0.00000000 0.00000000 -47.97915913 69.72469604 0.00000000 0.00000000 0.00000000 0.00000000 
146731406 0.00000000 0.00000000 -47.37960970 73.86291435 0.00000000 0.00000000 0.00000000 0.00000000 
148648924 0.00000000 0.00000000 -46.12783306 68.73325143 0.00000000 0.00000000 0.00000000 0.00000000 
150566442 0.00000000 0.00000000 -45.17637622 66.35944222 0.00000000 0.00000000 0.00000000 0.00000000 
152483960 0.00000000 0.00000000 -43.95154952 64.74156036 0.00000000 0.00000000 0.00000000 0.00000000 
154401480 0.00000000 0.00000000 -43.02069333 68.67314579 0.00000000 0.00000000 0.00000000 0.00000000 
156318998 0.00000000 0.00000000 -42.91322379 66.68841835 0.00000000 0.00000000 0.00000000 0.00000000 
158236516 0.00000000 0.00000000 -42.40415694 63.01194862 0.00000000 0.00000000 0.00000000 0.00000000 
160154034 0.00000000 0.00000000 -41.50332457 63.59696432 0.00000000 0.00000000 0.00000000 0.00000000 
162071554 0.00000000 0.00000000 -40.74359087 65.13359919 0.00000000 0.00000000 0.00000000 0.00000000 
163989072 0.00000000 0.00000000 -40.55711357 61.26687493 0.00000000 0.00000000 0.00000000 0.00000000 
165906590 0.00000000 0.00000000 -39.40825257 57.38346235 0.00000000 0.00000000 0.00000000 0.00000000 
167824108 0.00000000 0.00000000 -38.88709883 57.72954145 0.00000000 0.00000000 0.00000000 0.00000000 
169741628 0.00000000 0.00000000 -37.64029123 58.82363716 0.00000000 0.00000000 0.00000000 0.00000000 
171659146 0.00000000 0.00000000 -37.04267203 51.48329325 0.00000000 0.00000000 0.00000000 0.00000000 
173576664 0.00000000 0.00000000 -35.93236831 46.26686890 0.00000000 0.00000000 0.00000000 0.00000000 
175494182 0.00000000 0.00000000 -34.55439752 44.38076093 0.00000000 0.00000000 0.00000000 0.00000000 
177411702 0.00000000 0.00000000 -33.21874400 44.99896051 0.00000000 0.00000000 0.00000000 0.00000000 
179329220 0.00000000 0.00000000 -31.38772935 28.42325729 0.00000000 0.00000000 0.00000000 0.00000000 
181246738 0.00000000 0.00000000 -29.06517248 21.14728356 0.00000000 0.00000000 0.00000000 0.00000000 
183164256 0.00000000 0.00000000 -26.93550482 20.64393604 0.00000000 0.00000000 0.00000000 0.00000000 
185081776 0.00000000 0.00000000 -25.02820540 22.39373757 0.00000000 0.00000000 0.00000000 0.00000000 
186999294 0.00000000 0.00000000 -31.51375399 23.84066093 0.00000000 0.00000000 0.00000000 0.00000000 
188916812 0.00000000 0.00000000 -42.85855953 -87.21401621 0.00000000 0.00000000 0.00000000 0.00000000 
190834330 0.00000000 0.00000000 -28.73368013 -119.10985782 0.00000000 0.00000000 0.00000000 0.00000000 
192751850 0.00000000 0.00000000 -23.32565075 -115.24532877 0.00000000 0.00000000 0.00000000 0.00000000 
194669368 0.00000000 0.00000000 -25.33838486 -111.35958304 0.00000000 0.00000000 0.00000000 0.00000000 
196586886 0.00000000 0.00000000 -27.88211914 -110.81125803 0.00000000 0.00000000 0.00000000 0.00000000 
198504404 0.00000000 0.00000000 -31.14989938 -117.67002515 0.00000000 0.00000000 0.00000000 0.00000000 
200421924 0.00000000 0.00000000 -34.36247726 -142.61386416 0.00000000 0.00000000 0.00000000 0.00000000 
202339442 0.00000000 0.00000000 -35.56496657 -140.09506987 0.00000000 0.00000000 0.00000000 0.00000000 
204256960 0.00000000 0.00000000 -36.91183609 -139.44288620 0.00000000 0.00000000 0.00000000 0.00000000 
206174478 0.00000000 0.00000000 -38.65205734 -142.44370902 0.00000000 0.00000000 0.00000000 0.00000000 
208091998 0.00000000 0.00000000 -39.78483780 -149.43909230 0.00000000 0.00000000 0.00000000 0.00000000 
210009516 0.00000000 0.00000000 -41.02233401 -149.11966112 0.00000000 0.00000000 0.00000000 0.00000000 
211927034 0.00000000 0.00000000 -41.66800660 -152.13692279 0.00000000 0.00000000 0.00000000 0.00000000 
213844552 0.00000000 0.00000000 -42.50490839 -156.10745739 0.00000000 0.00000000 0.00000000 0.00000000 
215762072 0.00000000 0.00000000 -42.84510585 -158.78344504 0.00000000 0.00000000 0.00000000 0.00000000 
217679590 0.00000000 0.00000000 -44.24038052 -162.56345379 0.00000000 0.00000000 0.00000000 0.00000000 
219597108 0.00000000 0.00000000 -45.85785433 -169.64157541 0.00000000 0.00000000 0.00000000 0.00000000 
221514626 0.00000000 0.00000000 -47.22456278 -176.88732834 0.00000000 0.00000000 0.00000000 0.00000000 
223432146 0.00000000 0.00000000 -47.04930663 168.82039853 0.00000000 0.00000000 0.00000000 0.00000000 
225349664 0.00000000 0.00000000 -47.86225677 166.69215642 0.00000000 0.00000000 0.00000000 0.00000000 
227267182 0.00000000 0.00000000 -49.34409717 159.92641682 0.00000000 0.00000000 0.00000000 0.00000000 
229184700 0.00000000 0.00000000 -50.29610169 153.33113385 0.00000000 0.00000000 0.00000000 0.00000000 
231102220 0.00000000 0.00000000 -50.45384032 136.90154578 0.00000000 0.00000000 0.00000000 0.00000000 
233019738 0.00000000 0.00000000 -51.49098606 137.94549673 0.00000000 0.00000000 0.00000000 0.00000000 
234937256 0.00000000 0.00000000 -51.73570458 128.70811515 0.00000000 0.00000000 0.00000000 0.00000000 
236854774 0.00000000 0.00000000 -50.56042245 127.72411214 0.00000000 0.00000000 0.00000000 0.00000000 
238772294 0.00000000 0.00000000 -51.18474360 123.81962542 0.00000000 0.00000000 0.00000000 0.00000000 
240689812 0.00000000 0.00000000 -51.45998487 122.20935222 0.00000000 0.00000000 0.00000000 0.00000000 
242607330 0.00000000 0.00000000 -52.42485585 115.74926532 0.00000000 0.00000000 0.00000000 0.00000000 
244524848 0.00000000 0.00000000 -52.07199453 114.00042590 0.00000000 0.00000000 0.00000000 0.00000000 
246442368 0.00000000 0.00000000 -51.28487847 108.90087950 0.00000000 0.00000000 0.00000000 0.00000000 
248359886 0.00000000 0.00000000 -51.82124992 98.04897645 0.00000000 0.00000000 0.00000000 0.00000000 
250277404 0.00000000 0.00000000 -52.43509810 97.79756919 0.00000000 0.00000000 0.00000000 0.00000000 
252194922 0.00000000 0.00000000 -50.39287448 93.72235955 0.00000000 0.00000000 0.00000000 0.00000000 
254112442 0.00000000 0.00000000 -49.66951342 95.78058502 0.00000000 0.00000000 0.00000000 0.00000000 
256029960 0.00000000 0.00000000 -49.26532632 88.97763018 0.00000000 0.00000000 0.00000000 0.00000000 
257947478 0.00000000 0.00000000 -48.71639282 80.18687078 0.00000000 0.00000000 0.00000000 0.00000000 
259864996 0.00000000 0.00000000 -47.33408972 75.22269483 0.00000000 0.00000000 0.00000000 0.00000000 
261782516 0.00000000 0.00000000 -45.85831564 76.65813335 0.00000000 0.00000000 0.00000000 0.00000000 
263700034 0.00000000 0.00000000 -45.50558364 70.44381150 0.00000000 0.00000000 0.00000000 0.00000000 
265617552 0.00000000 0.00000000 -44.33925864 69.73359347 0.00000000 0.00000000 0.00000000 0.00000000 
267535070 0.00000000 0.00000000 -43.06345932 67.18478359 0.00000000 0.00000000 0.00000000 0.00000000 
269452590 0.00000000 0.00000000 -42.04245406 68.80441695 0.00000000 0.00000000 0.00000000 0.00000000 
271370108 0.00000000 0.00000000 -41.88012056 55.67559324 0.00000000 0.00000000 0.00000000 0.00000000 
273287626 0.00000000 0.00000000 -40.59467504 49.27415455 0.00000000 0.00000000 0.00000000 0.00000000 
275205144 0.00000000 0.00000000 -39.14417325 47.16025635 0.00000000 0.00000000 0.00000000 0.00000000 
277122664 0.00000000 0.00000000 -37.86749268 45.11094609 0.00000000 0.00000000 0.00000000 0.00000000 
279040182 0.00000000 0.00000000 -37.59892306 38.73247734 0.00000000 0.00000000 0.00000000 0.00000000 
280957700 0.00000000 0.00000000 -37.39323316 35.17641748 0.00000000 0.00000000 0.00000000 0.00000000 
282875218 0.00000000 0.00000000 -36.31527103 29.81049950 0.00000000 0.00000000 0.00000000 0.00000000 
284792738 0.00000000 0.00000000 -35.22453079 29.32415632 0.00000000 0.00000000 0.00000000 0.00000000 
286710256 0.00000000 0.00000000 -34.95972681 21.56469684 0.00000000 0.00000000 0.00000000 0.00000000 
288627774 0.00000000 0.00000000 -34.21946086 17.41957051 0.00000000 0.00000000 0.00000000 0.00000000 
290545292 0.00000000 0.00000000 -33.03589196 14.00320454 0.00000000 0.00000000 0.00000000 0.00000000 
292462812 0.00000000 0.00000000 -31.87303883 14.98076504 0.00000000 0.00000000 0.00000000 0.00000000 
294380330 0.00000000 0.00000000 -30.32453653 -5.35578312 0.00000000 0.00000000 0.00000000 0.00000000 
296297848 0.00000000 0.00000000 -27.66097458 -14.29032651 0.00000000 0.00000000 0.00000000 0.00000000 
298215366 0.00000000 0.00000000 -25.47313970 -15.52725689 0.00000000 0.00000000 0.00000000 0.00000000 
300132886 0.00000000 0.00000000 -23.52699086 -13.44681819 0.00000000 0.00000000 0.00000000 0.00000000 
302050404 0.00000000 0.00000000 -27.66074710 -13.86780640 0.00000000 0.00000000 0.00000000 0.00000000 
303967922 0.00000000 0.00000000 -34.27962102 -35.78524980 0.00000000 0.00000000 0.00000000 0.00000000 
305885440 0.00000000 0.00000000 -33.71982601 -111.10275951 0.00000000 0.00000000 0.00000000 0.00000000 
307802960 0.00000000 0.00000000 -27.25942869 -128.97618803 0.00000000 0.00000000 0.00000000 0.00000000 
309720478 0.00000000 0.00000000 -28.95425845 -126.75060327 0.00000000 0.00000000 0.00000000 0.00000000 
311637996 0.00000000 0.00000000 -30.84144697 -127.02295492 0.00000000 0.00000000 0.00000000 0.00000000 
313555514 0.00000000 0.00000000 -32.95924925 -131.78878365 0.00000000 0.00000000 0.00000000 0.00000000 
315473034 0.00000000 0.00000000 -34.68128085 -144.14194820 0.00000000 0.00000000 0.00000000 0.00000000 
317390552 0.00000000 0.00000000 -35.77667017 -140.73573472 0.00000000 0.00000000 0.00000000 0.00000000 
319308070 0.00000000 0.00000000 -36.90016785 -140.50362423 0.00000000 0.00000000 0.00000000 0.00000000 
321225588 0.00000000 0.00000000 -38.29932489 -141.30379869 0.00000000 0.00000000 0.00000000 0.00000000 
323143108 0.00000000 0.00000000 -38.89756255 -144.82781450 0.00000000 0.00000000 0.00000000 0.00000000 
325060626 0.00000000 0.00000000 -39.59483418 -144.58587068 0.00000000 0.00000000 0.00000000 0.00000000 
326978144 0.00000000 0.00000000 -40.26838708 -142.75368163 0.00000000 0.00000000 0.00000000 0.00000000 
328895662 0.00000000 0.00000000 -40.84323845 -141.81982910 0.00000000 0.00000000 0.00000000 0.00000000 
330813182 0.00000000 0.00000000 -40.96054294 -144.05304781 0.00000000 0.00000000 0.00000000 0.00000000 
332730700 0.00000000 0.00000000 -41.34466768 -143.49293784 0.00000000 0.00000000 0.00000000 0.00000000 
334648218 0.00000000 0.00000000 -41.68313307 -144.55242979 0.00000000 0.00000000 0.00000000 0.00000000 
336565736 0.00000000 0.00000000 -42.20858318 -146.42751939 0.00000000 0.00000000 0.00000000 0.00000000 
338483256 0.00000000 0.00000000 -41.70318603 -148.82851241 0.00000000 0.00000000 0.00000000 0.00000000 
340400774 0.00000000 0.00000000 -41.95701362 -150.84820895 0.00000000 0.00000000 0.00000000 0.00000000 
342318292 0.00000000 0.00000000 -41.87151710 -153.52999621 0.00000000 0.00000000 0.00000000 0.00000000 
344235810 0.00000000 0.00000000 -42.08254871 -153.61401976 0.00000000 0.00000000 0.00000000 0.00000000 
346153330 0.00000000 0.00000000 -41.37966064 -156.39151356 0.00000000 0.00000000 0.00000000 0.00000000 
348070848 0.00000000 0.00000000 -42.38824824 -159.15438949 0.00000000 0.00000000 0.00000000 0.00000000 
349988366 0.00000000 0.00000000 -42.39905789 -164.25189671 0.00000000 0.00000000 0.00000000 0.00000000 
351905884 0.00000000 0.00000000 -42.27422681 -168.38709571 0.00000000 0.00000000 0.00000000 0.00000000 
353823404 0.00000000 0.00000000 -41.48634209 -171.38076020 0.00000000 0.00000000 0.00000000 0.00000000 
355740922 0.00000000 0.00000000 -42.30162159 -178.00305145 0.00000000 0.00000000 0.00000000 0.00000000 
357658440 0.00000000 0.00000000 -42.14306062 172.99556955 0.00000000 0.00000000 0.00000000 0.00000000 
359575958 0.00000000 0.00000000 -41.22074420 169.81134570 0.00000000 0.00000000 0.00000000 0.00000000 
361493478 0.00000000 0.00000000 -40.18666529 165.78292141 0.00000000 0.00000000 0.00000000 0.00000000 
363410996 0.00000000 0.00000000 -41.39428550 159.54142359 0.00000000 0.00000000 0.00000000 0.00000000 
365328514 0.00000000 0.00000000 -41.95110198 152.14365896 0.00000000 0.00000000 0.00000000 0.00000000 
367246032 0.00000000 0.00000000 -41.31379679 145.51398995 0.00000000 0.00000000 0.00000000 0.00000000 
369163552 0.00000000 0.00000000 -40.76961385 138.72590820 0.00000000 0.00000000 0.00000000 0.00000000 
