! created by ADMIN at Tue Apr 21 15:39:23 IST 2026
! generated using vna/J Version 3.2.10
# Hz S DB R 50
001000000 0.00000000 0.00000000 -68.11539742 52.88822946 0.00000000 0.00000000 0.00000000 0.00000000 
002917518 0.00000000 0.00000000 -77.34297799 99.56449630 0.00000000 0.00000000 0.00000000 0.00000000 
004835036 0.00000000 0.00000000 -80.00000000 150.12886796 0.00000000 0.00000000 0.00000000 0.00000000 
006752554 0.00000000 0.00000000 -71.97057083 -34.14415384 0.00000000 0.00000000 0.00000000 0.00000000 
008670074 0.00000000 0.00000000 -72.83878850 -105.30043539 0.00000000 0.00000000 0.00000000 0.00000000 
010587592 0.00000000 0.00000000 -79.91110451 -31.91841435 0.00000000 0.00000000 0.00000000 0.00000000 
012505110 0.00000000 0.00000000 -77.48240543 -28.24568818 0.00000000 0.00000000 0.00000000 0.00000000 
014422628 0.00000000 0.00000000 -76.15153916 -39.99407874 0.00000000 0.00000000 0.00000000 0.00000000 
016340148 0.00000000 0.00000000 -72.20756984 -38.38808195 0.00000000 0.00000000 0.00000000 0.00000000 
018257666 0.00000000 0.00000000 -70.10044582 -1.36726482 0.00000000 0.00000000 0.00000000 0.00000000 
020175184 0.00000000 0.00000000 -69.32498347 14.51665362 0.00000000 0.00000000 0.00000000 0.00000000 
022092702 0.00000000 0.00000000 -68.03661193 20.86209639 0.00000000 0.00000000 0.00000000 0.00000000 
024010222 0.00000000 0.00000000 -80.00000000 35.28520386 0.00000000 0.00000000 0.00000000 0.00000000 
025927740 0.00000000 0.00000000 -68.82317641 2.65149067 0.00000000 0.00000000 0.00000000 0.00000000 
027845258 0.00000000 0.00000000 -80.00000000 -29.97599955 0.00000000 0.00000000 0.00000000 0.00000000 
029762776 0.00000000 0.00000000 -75.48516635 -121.57741970 0.00000000 0.00000000 0.00000000 0.00000000 
031680296 0.00000000 0.00000000 -73.20797976 -13.69788659 0.00000000 0.00000000 0.00000000 0.00000000 
033597814 0.00000000 0.00000000 -71.75575921 -71.09357515 0.00000000 0.00000000 0.00000000 0.00000000 
035515332 0.00000000 0.00000000 -76.31027165 -32.50834055 0.00000000 0.00000000 0.00000000 0.00000000 
037432850 0.00000000 0.00000000 -73.81670749 -101.53090449 0.00000000 0.00000000 0.00000000 0.00000000 
039350370 0.00000000 0.00000000 -77.64063541 -14.19753521 0.00000000 0.00000000 0.00000000 0.00000000 
041267888 0.00000000 0.00000000 -73.62461490 -32.73884793 0.00000000 0.00000000 0.00000000 0.00000000 
043185406 0.00000000 0.00000000 -71.98623979 -44.98020521 0.00000000 0.00000000 0.00000000 0.00000000 
045102924 0.00000000 0.00000000 -69.18298371 17.58462000 0.00000000 0.00000000 0.00000000 0.00000000 
047020444 0.00000000 0.00000000 -65.84905046 -7.46956710 0.00000000 0.00000000 0.00000000 0.00000000 
048937962 0.00000000 0.00000000 -75.61755262 3.34377242 0.00000000 0.00000000 0.00000000 0.00000000 
050855480 0.00000000 0.00000000 -78.01853986 7.49452917 0.00000000 0.00000000 0.00000000 0.00000000 
052772998 0.00000000 0.00000000 -77.25536163 -37.58759576 0.00000000 0.00000000 0.00000000 0.00000000 
054690518 0.00000000 0.00000000 -80.00000000 -19.52809249 0.00000000 0.00000000 0.00000000 0.00000000 
056608036 0.00000000 0.00000000 -71.30310871 99.56838685 0.00000000 0.00000000 0.00000000 0.00000000 
058525554 0.00000000 0.00000000 -80.00000000 94.78287483 0.00000000 0.00000000 0.00000000 0.00000000 
060443072 0.00000000 0.00000000 -70.82333852 24.84466316 0.00000000 0.00000000 0.00000000 0.00000000 
062360592 0.00000000 0.00000000 -73.07459338 53.34215292 0.00000000 0.00000000 0.00000000 0.00000000 
064278110 0.00000000 0.00000000 -69.13082496 76.49539261 0.00000000 0.00000000 0.00000000 0.00000000 
066195628 0.00000000 0.00000000 -80.00000000 155.36490598 0.00000000 0.00000000 0.00000000 0.00000000 
068113146 0.00000000 0.00000000 -72.98210118 76.40539921 0.00000000 0.00000000 0.00000000 0.00000000 
070030666 0.00000000 0.00000000 -67.08365807 83.40249718 0.00000000 0.00000000 0.00000000 0.00000000 
071948184 0.00000000 0.00000000 -75.04874845 78.17252328 0.00000000 0.00000000 0.00000000 0.00000000 
073865702 0.00000000 0.00000000 -72.80317041 114.52051469 0.00000000 0.00000000 0.00000000 0.00000000 
075783220 0.00000000 0.00000000 -70.26938158 117.98629356 0.00000000 0.00000000 0.00000000 0.00000000 
077700740 0.00000000 0.00000000 -68.73520590 113.29811043 0.00000000 0.00000000 0.00000000 0.00000000 
079618258 0.00000000 0.00000000 -75.00614196 136.82934744 0.00000000 0.00000000 0.00000000 0.00000000 
081535776 0.00000000 0.00000000 -68.85297060 106.63473495 0.00000000 0.00000000 0.00000000 0.00000000 
083453294 0.00000000 0.00000000 -75.61229268 115.80727343 0.00000000 0.00000000 0.00000000 0.00000000 
085370814 0.00000000 0.00000000 -69.89330979 157.26473732 0.00000000 0.00000000 0.00000000 0.00000000 
087288332 0.00000000 0.00000000 -73.38569717 -127.37400533 0.00000000 0.00000000 0.00000000 0.00000000 
089205850 0.00000000 0.00000000 -73.09663344 65.46071634 0.00000000 0.00000000 0.00000000 0.00000000 
091123368 0.00000000 0.00000000 -69.82991816 33.97351966 0.00000000 0.00000000 0.00000000 0.00000000 
093040888 0.00000000 0.00000000 -69.63304940 42.85900882 0.00000000 0.00000000 0.00000000 0.00000000 
094958406 0.00000000 0.00000000 -72.59259020 40.81821818 0.00000000 0.00000000 0.00000000 0.00000000 
096875924 0.00000000 0.00000000 -72.46614929 25.93068132 0.00000000 0.00000000 0.00000000 0.00000000 
098793442 0.00000000 0.00000000 -72.30495917 -1.06135042 0.00000000 0.00000000 0.00000000 0.00000000 
100710962 0.00000000 0.00000000 -71.01412372 -32.37131321 0.00000000 0.00000000 0.00000000 0.00000000 
102628480 0.00000000 0.00000000 -70.42057968 1.87759676 0.00000000 0.00000000 0.00000000 0.00000000 
104545998 0.00000000 0.00000000 -75.05400922 -63.32297691 0.00000000 0.00000000 0.00000000 0.00000000 
106463516 0.00000000 0.00000000 -72.49891012 -76.05522572 0.00000000 0.00000000 0.00000000 0.00000000 
108381036 0.00000000 0.00000000 -65.10527048 -11.09994792 0.00000000 0.00000000 0.00000000 0.00000000 
110298554 0.00000000 0.00000000 -72.86873271 -74.95605330 0.00000000 0.00000000 0.00000000 0.00000000 
112216072 0.00000000 0.00000000 -73.82393111 145.70339667 0.00000000 0.00000000 0.00000000 0.00000000 
114133590 0.00000000 0.00000000 -65.26213803 -168.92213358 0.00000000 0.00000000 0.00000000 0.00000000 
116051110 0.00000000 0.00000000 -69.12093743 -167.35393491 0.00000000 0.00000000 0.00000000 0.00000000 
117968628 0.00000000 0.00000000 -70.21411686 -164.35280657 0.00000000 0.00000000 0.00000000 0.00000000 
119886146 0.00000000 0.00000000 -74.94568117 -127.16560866 0.00000000 0.00000000 0.00000000 0.00000000 
121803664 0.00000000 0.00000000 -77.07110125 -88.30351281 0.00000000 0.00000000 0.00000000 0.00000000 
123721184 0.00000000 0.00000000 -70.63495701 121.16745165 0.00000000 0.00000000 0.00000000 0.00000000 
125638702 0.00000000 0.00000000 -76.72628084 -116.48966743 0.00000000 0.00000000 0.00000000 0.00000000 
127556220 0.00000000 0.00000000 -73.76293980 -37.99523063 0.00000000 0.00000000 0.00000000 0.00000000 
129473738 0.00000000 0.00000000 -73.74621198 -70.09349140 0.00000000 0.00000000 0.00000000 0.00000000 
131391258 0.00000000 0.00000000 -74.41691420 -78.96225764 0.00000000 0.00000000 0.00000000 0.00000000 
133308776 0.00000000 0.00000000 -68.11484454 -149.92743929 0.00000000 0.00000000 0.00000000 0.00000000 
135226294 0.00000000 0.00000000 -69.23060295 108.04078999 0.00000000 0.00000000 0.00000000 0.00000000 
137143812 0.00000000 0.00000000 -73.02862001 81.05765524 0.00000000 0.00000000 0.00000000 0.00000000 
139061332 0.00000000 0.00000000 -69.37613182 125.31951711 0.00000000 0.00000000 0.00000000 0.00000000 
140978850 0.00000000 0.00000000 -69.48521323 114.88274099 0.00000000 0.00000000 0.00000000 0.00000000 
142896368 0.00000000 0.00000000 -67.46273784 94.67072678 0.00000000 0.00000000 0.00000000 0.00000000 
144813886 0.00000000 0.00000000 -76.44091139 -177.15743791 0.00000000 0.00000000 0.00000000 0.00000000 
146731406 0.00000000 0.00000000 -72.73732708 -174.92115631 0.00000000 0.00000000 0.00000000 0.00000000 
148648924 0.00000000 0.00000000 -78.10303137 88.84350341 0.00000000 0.00000000 0.00000000 0.00000000 
150566442 0.00000000 0.00000000 -76.68043134 12.70548634 0.00000000 0.00000000 0.00000000 0.00000000 
152483960 0.00000000 0.00000000 -66.22592388 4.83426716 0.00000000 0.00000000 0.00000000 0.00000000 
154401480 0.00000000 0.00000000 -68.68102959 5.58830343 0.00000000 0.00000000 0.00000000 0.00000000 
156318998 0.00000000 0.00000000 -80.00000000 -3.08597201 0.00000000 0.00000000 0.00000000 0.00000000 
158236516 0.00000000 0.00000000 -76.95452170 -54.41229606 0.00000000 0.00000000 0.00000000 0.00000000 
160154034 0.00000000 0.00000000 -75.80514730 158.11122444 0.00000000 0.00000000 0.00000000 0.00000000 
162071554 0.00000000 0.00000000 -67.67637088 -176.12136336 0.00000000 0.00000000 0.00000000 0.00000000 
163989072 0.00000000 0.00000000 -66.04998456 -154.32647048 0.00000000 0.00000000 0.00000000 0.00000000 
165906590 0.00000000 0.00000000 -75.15411171 58.50836186 0.00000000 0.00000000 0.00000000 0.00000000 
167824108 0.00000000 0.00000000 -72.33056298 -152.22278406 0.00000000 0.00000000 0.00000000 0.00000000 
169741628 0.00000000 0.00000000 -69.70383262 81.30297356 0.00000000 0.00000000 0.00000000 0.00000000 
171659146 0.00000000 0.00000000 -67.22751100 119.59220174 0.00000000 0.00000000 0.00000000 0.00000000 
173576664 0.00000000 0.00000000 -67.71303310 132.18578617 0.00000000 0.00000000 0.00000000 0.00000000 
175494182 0.00000000 0.00000000 -67.60417064 126.76835141 0.00000000 0.00000000 0.00000000 0.00000000 
177411702 0.00000000 0.00000000 -69.09766017 135.71268116 0.00000000 0.00000000 0.00000000 0.00000000 
179329220 0.00000000 0.00000000 -75.09486747 111.68142910 0.00000000 0.00000000 0.00000000 0.00000000 
181246738 0.00000000 0.00000000 -77.97231299 -75.40780699 0.00000000 0.00000000 0.00000000 0.00000000 
183164256 0.00000000 0.00000000 -73.90268203 179.99572161 0.00000000 0.00000000 0.00000000 0.00000000 
185081776 0.00000000 0.00000000 -64.95934306 -58.27108932 0.00000000 0.00000000 0.00000000 0.00000000 
186999294 0.00000000 0.00000000 -64.23340811 -32.46115262 0.00000000 0.00000000 0.00000000 0.00000000 
188916812 0.00000000 0.00000000 -73.25490861 -25.34459049 0.00000000 0.00000000 0.00000000 0.00000000 
190834330 0.00000000 0.00000000 -72.40134868 -65.71317854 0.00000000 0.00000000 0.00000000 0.00000000 
192751850 0.00000000 0.00000000 -78.18888162 -138.25207406 0.00000000 0.00000000 0.00000000 0.00000000 
194669368 0.00000000 0.00000000 -80.00000000 -45.45863341 0.00000000 0.00000000 0.00000000 0.00000000 
196586886 0.00000000 0.00000000 -78.20863673 -153.19527773 0.00000000 0.00000000 0.00000000 0.00000000 
198504404 0.00000000 0.00000000 -72.96099336 -166.06125462 0.00000000 0.00000000 0.00000000 0.00000000 
200421924 0.00000000 0.00000000 -72.14655093 160.95953667 0.00000000 0.00000000 0.00000000 0.00000000 
202339442 0.00000000 0.00000000 -68.12968157 -159.44039138 0.00000000 0.00000000 0.00000000 0.00000000 
204256960 0.00000000 0.00000000 -66.01876536 -139.03761862 0.00000000 0.00000000 0.00000000 0.00000000 
206174478 0.00000000 0.00000000 -79.68465185 -153.33738338 0.00000000 0.00000000 0.00000000 0.00000000 
208091998 0.00000000 0.00000000 -71.28646481 -144.68000000 0.00000000 0.00000000 0.00000000 0.00000000 
210009516 0.00000000 0.00000000 -80.00000000 26.11563208 0.00000000 0.00000000 0.00000000 0.00000000 
211927034 0.00000000 0.00000000 -72.09655491 139.55242128 0.00000000 0.00000000 0.00000000 0.00000000 
213844552 0.00000000 0.00000000 -68.32850092 97.95004078 0.00000000 0.00000000 0.00000000 0.00000000 
215762072 0.00000000 0.00000000 -71.52925320 71.58009681 0.00000000 0.00000000 0.00000000 0.00000000 
217679590 0.00000000 0.00000000 -71.15865602 155.37880738 0.00000000 0.00000000 0.00000000 0.00000000 
219597108 0.00000000 0.00000000 -73.32023197 -160.76912870 0.00000000 0.00000000 0.00000000 0.00000000 
221514626 0.00000000 0.00000000 -64.00852850 -78.72563618 0.00000000 0.00000000 0.00000000 0.00000000 
223432146 0.00000000 0.00000000 -61.64621387 -75.47010693 0.00000000 0.00000000 0.00000000 0.00000000 
225349664 0.00000000 0.00000000 -66.72797787 -111.25595225 0.00000000 0.00000000 0.00000000 0.00000000 
227267182 0.00000000 0.00000000 -72.41398287 -150.31493072 0.00000000 0.00000000 0.00000000 0.00000000 
229184700 0.00000000 0.00000000 -67.35645605 -168.35660525 0.00000000 0.00000000 0.00000000 0.00000000 
231102220 0.00000000 0.00000000 -65.88054483 154.74852162 0.00000000 0.00000000 0.00000000 0.00000000 
233019738 0.00000000 0.00000000 -68.68952007 -167.10029201 0.00000000 0.00000000 0.00000000 0.00000000 
234937256 0.00000000 0.00000000 -79.80444374 144.87022182 0.00000000 0.00000000 0.00000000 0.00000000 
236854774 0.00000000 0.00000000 -68.95945808 145.15349769 0.00000000 0.00000000 0.00000000 0.00000000 
238772294 0.00000000 0.00000000 -80.00000000 -25.64869618 0.00000000 0.00000000 0.00000000 0.00000000 
240689812 0.00000000 0.00000000 -74.44415534 55.38150487 0.00000000 0.00000000 0.00000000 0.00000000 
242607330 0.00000000 0.00000000 -66.97301593 28.90653010 0.00000000 0.00000000 0.00000000 0.00000000 
244524848 0.00000000 0.00000000 -65.80670526 54.41980634 0.00000000 0.00000000 0.00000000 0.00000000 
246442368 0.00000000 0.00000000 -61.95629273 67.26399426 0.00000000 0.00000000 0.00000000 0.00000000 
248359886 0.00000000 0.00000000 -65.23322564 59.88402495 0.00000000 0.00000000 0.00000000 0.00000000 
250277404 0.00000000 0.00000000 -74.68008029 -135.97372615 0.00000000 0.00000000 0.00000000 0.00000000 
252194922 0.00000000 0.00000000 -69.10545726 -170.37069627 0.00000000 0.00000000 0.00000000 0.00000000 
254112442 0.00000000 0.00000000 -61.89471960 -140.27278208 0.00000000 0.00000000 0.00000000 0.00000000 
256029960 0.00000000 0.00000000 -63.21127477 -142.90167348 0.00000000 0.00000000 0.00000000 0.00000000 
257947478 0.00000000 0.00000000 -65.46091027 -120.22583434 0.00000000 0.00000000 0.00000000 0.00000000 
259864996 0.00000000 0.00000000 -71.15304957 -94.38267879 0.00000000 0.00000000 0.00000000 0.00000000 
261782516 0.00000000 0.00000000 -80.00000000 160.85261852 0.00000000 0.00000000 0.00000000 0.00000000 
263700034 0.00000000 0.00000000 -77.57071641 -133.97100961 0.00000000 0.00000000 0.00000000 0.00000000 
265617552 0.00000000 0.00000000 -68.14628667 155.14372924 0.00000000 0.00000000 0.00000000 0.00000000 
267535070 0.00000000 0.00000000 -69.30738887 124.09818851 0.00000000 0.00000000 0.00000000 0.00000000 
269452590 0.00000000 0.00000000 -67.34359114 141.61405459 0.00000000 0.00000000 0.00000000 0.00000000 
271370108 0.00000000 0.00000000 -74.01497329 -125.77247538 0.00000000 0.00000000 0.00000000 0.00000000 
273287626 0.00000000 0.00000000 -76.87334901 -161.26911851 0.00000000 0.00000000 0.00000000 0.00000000 
275205144 0.00000000 0.00000000 -72.06828097 167.39991818 0.00000000 0.00000000 0.00000000 0.00000000 
277122664 0.00000000 0.00000000 -66.19334564 -90.95386190 0.00000000 0.00000000 0.00000000 0.00000000 
279040182 0.00000000 0.00000000 -71.65732160 -19.85084389 0.00000000 0.00000000 0.00000000 0.00000000 
280957700 0.00000000 0.00000000 -66.08267971 177.34729226 0.00000000 0.00000000 0.00000000 0.00000000 
282875218 0.00000000 0.00000000 -74.54013289 -114.88514178 0.00000000 0.00000000 0.00000000 0.00000000 
284792738 0.00000000 0.00000000 -71.85842184 -164.12828818 0.00000000 0.00000000 0.00000000 0.00000000 
286710256 0.00000000 0.00000000 -69.22065841 -112.84457499 0.00000000 0.00000000 0.00000000 0.00000000 
288627774 0.00000000 0.00000000 -68.11623210 -170.35254919 0.00000000 0.00000000 0.00000000 0.00000000 
290545292 0.00000000 0.00000000 -69.82052694 -105.26874959 0.00000000 0.00000000 0.00000000 0.00000000 
292462812 0.00000000 0.00000000 -70.06310942 163.22707556 0.00000000 0.00000000 0.00000000 0.00000000 
294380330 0.00000000 0.00000000 -62.35550908 -167.52424747 0.00000000 0.00000000 0.00000000 0.00000000 
296297848 0.00000000 0.00000000 -68.12078676 -97.15471483 0.00000000 0.00000000 0.00000000 0.00000000 
298215366 0.00000000 0.00000000 -66.66584178 174.57106928 0.00000000 0.00000000 0.00000000 0.00000000 
300132886 0.00000000 0.00000000 -68.90069830 155.26239583 0.00000000 0.00000000 0.00000000 0.00000000 
302050404 0.00000000 0.00000000 -71.21044542 164.09707706 0.00000000 0.00000000 0.00000000 0.00000000 
303967922 0.00000000 0.00000000 -71.62778164 176.30716885 0.00000000 0.00000000 0.00000000 0.00000000 
305885440 0.00000000 0.00000000 -66.84497696 161.34193280 0.00000000 0.00000000 0.00000000 0.00000000 
307802960 0.00000000 0.00000000 -70.59131871 -170.16172237 0.00000000 0.00000000 0.00000000 0.00000000 
309720478 0.00000000 0.00000000 -69.66235733 167.26784605 0.00000000 0.00000000 0.00000000 0.00000000 
311637996 0.00000000 0.00000000 -68.64359045 -165.46658227 0.00000000 0.00000000 0.00000000 0.00000000 
313555514 0.00000000 0.00000000 -71.56260456 -139.82536046 0.00000000 0.00000000 0.00000000 0.00000000 
315473034 0.00000000 0.00000000 -65.92204465 -129.18459058 0.00000000 0.00000000 0.00000000 0.00000000 
317390552 0.00000000 0.00000000 -65.33592288 -85.77990307 0.00000000 0.00000000 0.00000000 0.00000000 
319308070 0.00000000 0.00000000 -71.06360276 -80.42502046 0.00000000 0.00000000 0.00000000 0.00000000 
321225588 0.00000000 0.00000000 -65.37621131 13.09986144 0.00000000 0.00000000 0.00000000 0.00000000 
323143108 0.00000000 0.00000000 -72.75590124 8.66191056 0.00000000 0.00000000 0.00000000 0.00000000 
325060626 0.00000000 0.00000000 -71.90589117 64.87675913 0.00000000 0.00000000 0.00000000 0.00000000 
326978144 0.00000000 0.00000000 -68.72783540 19.33395376 0.00000000 0.00000000 0.00000000 0.00000000 
328895662 0.00000000 0.00000000 -64.17882098 8.04871138 0.00000000 0.00000000 0.00000000 0.00000000 
330813182 0.00000000 0.00000000 -66.48821917 25.59683892 0.00000000 0.00000000 0.00000000 0.00000000 
332730700 0.00000000 0.00000000 -72.40848545 5.64485142 0.00000000 0.00000000 0.00000000 0.00000000 
334648218 0.00000000 0.00000000 -78.22427558 2.60225687 0.00000000 0.00000000 0.00000000 0.00000000 
336565736 0.00000000 0.00000000 -68.10434329 35.51239957 0.00000000 0.00000000 0.00000000 0.00000000 
338483256 0.00000000 0.00000000 -79.89393170 121.47533711 0.00000000 0.00000000 0.00000000 0.00000000 
340400774 0.00000000 0.00000000 -73.17446352 -177.35135454 0.00000000 0.00000000 0.00000000 0.00000000 
342318292 0.00000000 0.00000000 -67.41781659 -161.15631591 0.00000000 0.00000000 0.00000000 0.00000000 
344235810 0.00000000 0.00000000 -69.74283964 -74.86991816 0.00000000 0.00000000 0.00000000 0.00000000 
346153330 0.00000000 0.00000000 -67.88915225 -111.45688642 0.00000000 0.00000000 0.00000000 0.00000000 
348070848 0.00000000 0.00000000 -72.10682843 -42.53772087 0.00000000 0.00000000 0.00000000 0.00000000 
349988366 0.00000000 0.00000000 -77.21830557 -137.47832828 0.00000000 0.00000000 0.00000000 0.00000000 
351905884 0.00000000 0.00000000 -75.46721086 -142.31594064 0.00000000 0.00000000 0.00000000 0.00000000 
353823404 0.00000000 0.00000000 -66.14667839 -151.52858220 0.00000000 0.00000000 0.00000000 0.00000000 
355740922 0.00000000 0.00000000 -74.93307671 -91.90996493 0.00000000 0.00000000 0.00000000 0.00000000 
357658440 0.00000000 0.00000000 -80.00000000 44.72034544 0.00000000 0.00000000 0.00000000 0.00000000 
359575958 0.00000000 0.00000000 -71.34847733 -117.77189911 0.00000000 0.00000000 0.00000000 0.00000000 
361493478 0.00000000 0.00000000 -77.08965177 -146.09778989 0.00000000 0.00000000 0.00000000 0.00000000 
363410996 0.00000000 0.00000000 -73.62597076 41.96367818 0.00000000 0.00000000 0.00000000 0.00000000 
365328514 0.00000000 0.00000000 -72.44227871 50.33997751 0.00000000 0.00000000 0.00000000 0.00000000 
367246032 0.00000000 0.00000000 -65.89033478 140.13746267 0.00000000 0.00000000 0.00000000 0.00000000 
369163552 0.00000000 0.00000000 -66.54076923 121.11217839 0.00000000 0.00000000 0.00000000 0.00000000 
