! created by ADMIN at Tue Apr 21 15:40:11 IST 2026
! generated using vna/J Version 3.2.10
# Hz S DB R 50
001000000 0.00000000 0.00000000 -65.66258244 128.11245120 0.00000000 0.00000000 0.00000000 0.00000000 
002917518 0.00000000 0.00000000 -68.30600245 170.80537470 0.00000000 0.00000000 0.00000000 0.00000000 
004835036 0.00000000 0.00000000 -72.46046273 -163.25180779 0.00000000 0.00000000 0.00000000 0.00000000 
006752554 0.00000000 0.00000000 -70.95774060 -44.93773646 0.00000000 0.00000000 0.00000000 0.00000000 
008670074 0.00000000 0.00000000 -73.98752090 -69.15225532 0.00000000 0.00000000 0.00000000 0.00000000 
010587592 0.00000000 0.00000000 -76.22512542 2.33776505 0.00000000 0.00000000 0.00000000 0.00000000 
012505110 0.00000000 0.00000000 -78.42103860 1.90461630 0.00000000 0.00000000 0.00000000 0.00000000 
014422628 0.00000000 0.00000000 -80.00000000 -38.22254924 0.00000000 0.00000000 0.00000000 0.00000000 
016340148 0.00000000 0.00000000 -76.96153132 -61.28281854 0.00000000 0.00000000 0.00000000 0.00000000 
018257666 0.00000000 0.00000000 -74.69385917 -25.12498387 0.00000000 0.00000000 0.00000000 0.00000000 
020175184 0.00000000 0.00000000 -73.55207299 -24.82913139 0.00000000 0.00000000 0.00000000 0.00000000 
022092702 0.00000000 0.00000000 -70.57544307 -27.02619632 0.00000000 0.00000000 0.00000000 0.00000000 
024010222 0.00000000 0.00000000 -69.72202972 -86.64119558 0.00000000 0.00000000 0.00000000 0.00000000 
025927740 0.00000000 0.00000000 -66.97631150 -29.28263808 0.00000000 0.00000000 0.00000000 0.00000000 
027845258 0.00000000 0.00000000 -77.88388105 -51.28972964 0.00000000 0.00000000 0.00000000 0.00000000 
029762776 0.00000000 0.00000000 -80.00000000 -117.03804061 0.00000000 0.00000000 0.00000000 0.00000000 
031680296 0.00000000 0.00000000 -72.03043136 36.98100912 0.00000000 0.00000000 0.00000000 0.00000000 
033597814 0.00000000 0.00000000 -80.00000000 -72.63151250 0.00000000 0.00000000 0.00000000 0.00000000 
035515332 0.00000000 0.00000000 -80.00000000 76.11192322 0.00000000 0.00000000 0.00000000 0.00000000 
037432850 0.00000000 0.00000000 -73.63293212 -156.07750200 0.00000000 0.00000000 0.00000000 0.00000000 
039350370 0.00000000 0.00000000 -80.00000000 145.18115476 0.00000000 0.00000000 0.00000000 0.00000000 
041267888 0.00000000 0.00000000 -76.80645529 -134.86598119 0.00000000 0.00000000 0.00000000 0.00000000 
043185406 0.00000000 0.00000000 -70.12981094 -126.03806672 0.00000000 0.00000000 0.00000000 0.00000000 
045102924 0.00000000 0.00000000 -78.33724650 -141.08292597 0.00000000 0.00000000 0.00000000 0.00000000 
047020444 0.00000000 0.00000000 -68.50854118 -83.92349274 0.00000000 0.00000000 0.00000000 0.00000000 
048937962 0.00000000 0.00000000 -70.47979956 -118.72232224 0.00000000 0.00000000 0.00000000 0.00000000 
050855480 0.00000000 0.00000000 -74.43128450 -104.92536251 0.00000000 0.00000000 0.00000000 0.00000000 
052772998 0.00000000 0.00000000 -74.65523674 -76.58922043 0.00000000 0.00000000 0.00000000 0.00000000 
054690518 0.00000000 0.00000000 -80.00000000 13.00879546 0.00000000 0.00000000 0.00000000 0.00000000 
056608036 0.00000000 0.00000000 -74.11402199 103.03493277 0.00000000 0.00000000 0.00000000 0.00000000 
058525554 0.00000000 0.00000000 -80.00000000 -79.44551956 0.00000000 0.00000000 0.00000000 0.00000000 
060443072 0.00000000 0.00000000 -68.41431608 -26.26536780 0.00000000 0.00000000 0.00000000 0.00000000 
062360592 0.00000000 0.00000000 -68.90388713 -34.01811100 0.00000000 0.00000000 0.00000000 0.00000000 
064278110 0.00000000 0.00000000 -74.85034750 12.80565291 0.00000000 0.00000000 0.00000000 0.00000000 
066195628 0.00000000 0.00000000 -72.92000859 -106.31496206 0.00000000 0.00000000 0.00000000 0.00000000 
068113146 0.00000000 0.00000000 -80.00000000 -159.85244664 0.00000000 0.00000000 0.00000000 0.00000000 
070030666 0.00000000 0.00000000 -72.51695797 126.18064868 0.00000000 0.00000000 0.00000000 0.00000000 
071948184 0.00000000 0.00000000 -80.00000000 -104.56448068 0.00000000 0.00000000 0.00000000 0.00000000 
073865702 0.00000000 0.00000000 -80.00000000 168.24666355 0.00000000 0.00000000 0.00000000 0.00000000 
075783220 0.00000000 0.00000000 -76.72724040 72.57675134 0.00000000 0.00000000 0.00000000 0.00000000 
077700740 0.00000000 0.00000000 -69.52805853 66.26244094 0.00000000 0.00000000 0.00000000 0.00000000 
079618258 0.00000000 0.00000000 -79.08194747 61.08734031 0.00000000 0.00000000 0.00000000 0.00000000 
081535776 0.00000000 0.00000000 -70.49917007 91.76231228 0.00000000 0.00000000 0.00000000 0.00000000 
083453294 0.00000000 0.00000000 -80.00000000 136.02545464 0.00000000 0.00000000 0.00000000 0.00000000 
085370814 0.00000000 0.00000000 -69.40160127 -172.20475793 0.00000000 0.00000000 0.00000000 0.00000000 
087288332 0.00000000 0.00000000 -69.61987139 -134.11287537 0.00000000 0.00000000 0.00000000 0.00000000 
089205850 0.00000000 0.00000000 -72.54219771 114.43747195 0.00000000 0.00000000 0.00000000 0.00000000 
091123368 0.00000000 0.00000000 -72.07995619 98.26602641 0.00000000 0.00000000 0.00000000 0.00000000 
093040888 0.00000000 0.00000000 -68.71119212 121.88012679 0.00000000 0.00000000 0.00000000 0.00000000 
094958406 0.00000000 0.00000000 -71.18385573 128.78589167 0.00000000 0.00000000 0.00000000 0.00000000 
096875924 0.00000000 0.00000000 -75.15512396 107.72225179 0.00000000 0.00000000 0.00000000 0.00000000 
098793442 0.00000000 0.00000000 -80.00000000 58.30407644 0.00000000 0.00000000 0.00000000 0.00000000 
100710962 0.00000000 0.00000000 -79.06103647 -8.26448813 0.00000000 0.00000000 0.00000000 0.00000000 
102628480 0.00000000 0.00000000 -71.04426762 35.88661472 0.00000000 0.00000000 0.00000000 0.00000000 
104545998 0.00000000 0.00000000 -80.00000000 33.88469787 0.00000000 0.00000000 0.00000000 0.00000000 
106463516 0.00000000 0.00000000 -80.00000000 12.99494905 0.00000000 0.00000000 0.00000000 0.00000000 
108381036 0.00000000 0.00000000 -64.42783659 19.65839186 0.00000000 0.00000000 0.00000000 0.00000000 
110298554 0.00000000 0.00000000 -73.22167949 -10.01906887 0.00000000 0.00000000 0.00000000 0.00000000 
112216072 0.00000000 0.00000000 -71.47253087 53.72846432 0.00000000 0.00000000 0.00000000 0.00000000 
114133590 0.00000000 0.00000000 -80.00000000 -118.78415136 0.00000000 0.00000000 0.00000000 0.00000000 
116051110 0.00000000 0.00000000 -68.35165295 4.78008863 0.00000000 0.00000000 0.00000000 0.00000000 
117968628 0.00000000 0.00000000 -72.24005345 28.81336674 0.00000000 0.00000000 0.00000000 0.00000000 
119886146 0.00000000 0.00000000 -73.74852573 26.47648931 0.00000000 0.00000000 0.00000000 0.00000000 
121803664 0.00000000 0.00000000 -79.35971075 39.27926921 0.00000000 0.00000000 0.00000000 0.00000000 
123721184 0.00000000 0.00000000 -66.69963486 125.38075573 0.00000000 0.00000000 0.00000000 0.00000000 
125638702 0.00000000 0.00000000 -78.64430130 -169.13397512 0.00000000 0.00000000 0.00000000 0.00000000 
127556220 0.00000000 0.00000000 -74.94854051 -4.16514794 0.00000000 0.00000000 0.00000000 0.00000000 
129473738 0.00000000 0.00000000 -76.01441906 -19.74003318 0.00000000 0.00000000 0.00000000 0.00000000 
131391258 0.00000000 0.00000000 -75.38172127 0.17159176 0.00000000 0.00000000 0.00000000 0.00000000 
133308776 0.00000000 0.00000000 -68.12380834 -159.05052859 0.00000000 0.00000000 0.00000000 0.00000000 
135226294 0.00000000 0.00000000 -69.60794080 139.62633157 0.00000000 0.00000000 0.00000000 0.00000000 
137143812 0.00000000 0.00000000 -73.79014290 -151.96678551 0.00000000 0.00000000 0.00000000 0.00000000 
139061332 0.00000000 0.00000000 -65.98112522 -148.34337265 0.00000000 0.00000000 0.00000000 0.00000000 
140978850 0.00000000 0.00000000 -69.20680119 -150.53859212 0.00000000 0.00000000 0.00000000 0.00000000 
142896368 0.00000000 0.00000000 -76.50484840 171.46553907 0.00000000 0.00000000 0.00000000 0.00000000 
144813886 0.00000000 0.00000000 -67.80255735 -126.25503808 0.00000000 0.00000000 0.00000000 0.00000000 
146731406 0.00000000 0.00000000 -67.63562891 -140.77381786 0.00000000 0.00000000 0.00000000 0.00000000 
148648924 0.00000000 0.00000000 -71.44611734 -139.25080681 0.00000000 0.00000000 0.00000000 0.00000000 
150566442 0.00000000 0.00000000 -68.06719780 -114.11272536 0.00000000 0.00000000 0.00000000 0.00000000 
152483960 0.00000000 0.00000000 -66.19889940 -77.34651649 0.00000000 0.00000000 0.00000000 0.00000000 
154401480 0.00000000 0.00000000 -63.86485561 -95.03871900 0.00000000 0.00000000 0.00000000 0.00000000 
156318998 0.00000000 0.00000000 -64.41682956 -96.67847007 0.00000000 0.00000000 0.00000000 0.00000000 
158236516 0.00000000 0.00000000 -64.36226126 -67.52636456 0.00000000 0.00000000 0.00000000 0.00000000 
160154034 0.00000000 0.00000000 -71.18254382 -37.95822976 0.00000000 0.00000000 0.00000000 0.00000000 
162071554 0.00000000 0.00000000 -78.86252156 3.32833547 0.00000000 0.00000000 0.00000000 0.00000000 
163989072 0.00000000 0.00000000 -70.59936084 -120.01633824 0.00000000 0.00000000 0.00000000 0.00000000 
165906590 0.00000000 0.00000000 -73.67259344 -6.81207770 0.00000000 0.00000000 0.00000000 0.00000000 
167824108 0.00000000 0.00000000 -65.58011719 -116.73670056 0.00000000 0.00000000 0.00000000 0.00000000 
169741628 0.00000000 0.00000000 -71.68180038 -101.18544464 0.00000000 0.00000000 0.00000000 0.00000000 
171659146 0.00000000 0.00000000 -71.63032050 -149.15681403 0.00000000 0.00000000 0.00000000 0.00000000 
173576664 0.00000000 0.00000000 -71.92351564 -149.15449528 0.00000000 0.00000000 0.00000000 0.00000000 
175494182 0.00000000 0.00000000 -76.75087309 -173.48145472 0.00000000 0.00000000 0.00000000 0.00000000 
177411702 0.00000000 0.00000000 -78.14395875 -171.00307398 0.00000000 0.00000000 0.00000000 0.00000000 
179329220 0.00000000 0.00000000 -77.46931747 80.00885961 0.00000000 0.00000000 0.00000000 0.00000000 
181246738 0.00000000 0.00000000 -80.00000000 74.28599114 0.00000000 0.00000000 0.00000000 0.00000000 
183164256 0.00000000 0.00000000 -65.60279806 136.07625245 0.00000000 0.00000000 0.00000000 0.00000000 
185081776 0.00000000 0.00000000 -80.00000000 165.46167776 0.00000000 0.00000000 0.00000000 0.00000000 
186999294 0.00000000 0.00000000 -72.46386551 17.63528669 0.00000000 0.00000000 0.00000000 0.00000000 
188916812 0.00000000 0.00000000 -72.17750678 84.51640397 0.00000000 0.00000000 0.00000000 0.00000000 
190834330 0.00000000 0.00000000 -79.01665380 59.66773978 0.00000000 0.00000000 0.00000000 0.00000000 
192751850 0.00000000 0.00000000 -71.88805984 89.68794733 0.00000000 0.00000000 0.00000000 0.00000000 
194669368 0.00000000 0.00000000 -68.57130964 31.83962364 0.00000000 0.00000000 0.00000000 0.00000000 
196586886 0.00000000 0.00000000 -68.02566794 22.19594738 0.00000000 0.00000000 0.00000000 0.00000000 
198504404 0.00000000 0.00000000 -65.85666556 20.23061712 0.00000000 0.00000000 0.00000000 0.00000000 
200421924 0.00000000 0.00000000 -62.04656016 30.48786623 0.00000000 0.00000000 0.00000000 0.00000000 
202339442 0.00000000 0.00000000 -69.93904801 33.65512100 0.00000000 0.00000000 0.00000000 0.00000000 
204256960 0.00000000 0.00000000 -80.00000000 -93.45480216 0.00000000 0.00000000 0.00000000 0.00000000 
206174478 0.00000000 0.00000000 -80.00000000 40.99633939 0.00000000 0.00000000 0.00000000 0.00000000 
208091998 0.00000000 0.00000000 -69.00610963 -133.67837893 0.00000000 0.00000000 0.00000000 0.00000000 
210009516 0.00000000 0.00000000 -78.55606009 -112.88434830 0.00000000 0.00000000 0.00000000 0.00000000 
211927034 0.00000000 0.00000000 -67.91481876 -171.10598098 0.00000000 0.00000000 0.00000000 0.00000000 
213844552 0.00000000 0.00000000 -69.66126206 170.24949986 0.00000000 0.00000000 0.00000000 0.00000000 
215762072 0.00000000 0.00000000 -70.60784959 -139.18593395 0.00000000 0.00000000 0.00000000 0.00000000 
217679590 0.00000000 0.00000000 -68.31357645 -167.65328400 0.00000000 0.00000000 0.00000000 0.00000000 
219597108 0.00000000 0.00000000 -73.08230233 176.84412021 0.00000000 0.00000000 0.00000000 0.00000000 
221514626 0.00000000 0.00000000 -71.42265960 -61.48550028 0.00000000 0.00000000 0.00000000 0.00000000 
223432146 0.00000000 0.00000000 -74.37361812 -37.93891815 0.00000000 0.00000000 0.00000000 0.00000000 
225349664 0.00000000 0.00000000 -71.86060662 151.01284586 0.00000000 0.00000000 0.00000000 0.00000000 
227267182 0.00000000 0.00000000 -68.08809603 125.63915664 0.00000000 0.00000000 0.00000000 0.00000000 
229184700 0.00000000 0.00000000 -66.75220859 145.36235024 0.00000000 0.00000000 0.00000000 0.00000000 
231102220 0.00000000 0.00000000 -64.42991556 123.31280738 0.00000000 0.00000000 0.00000000 0.00000000 
233019738 0.00000000 0.00000000 -71.48062074 166.75499795 0.00000000 0.00000000 0.00000000 0.00000000 
234937256 0.00000000 0.00000000 -80.00000000 64.59083142 0.00000000 0.00000000 0.00000000 0.00000000 
236854774 0.00000000 0.00000000 -76.92404177 150.86163759 0.00000000 0.00000000 0.00000000 0.00000000 
238772294 0.00000000 0.00000000 -66.97125047 -40.13344655 0.00000000 0.00000000 0.00000000 0.00000000 
240689812 0.00000000 0.00000000 -71.57331958 -36.64650449 0.00000000 0.00000000 0.00000000 0.00000000 
242607330 0.00000000 0.00000000 -67.59690931 -30.17942187 0.00000000 0.00000000 0.00000000 0.00000000 
244524848 0.00000000 0.00000000 -72.57337123 -44.74591887 0.00000000 0.00000000 0.00000000 0.00000000 
246442368 0.00000000 0.00000000 -77.87422542 -16.81953541 0.00000000 0.00000000 0.00000000 0.00000000 
248359886 0.00000000 0.00000000 -68.20092704 -10.83108558 0.00000000 0.00000000 0.00000000 0.00000000 
250277404 0.00000000 0.00000000 -67.27295075 -62.98261860 0.00000000 0.00000000 0.00000000 0.00000000 
252194922 0.00000000 0.00000000 -78.03928242 8.45134150 0.00000000 0.00000000 0.00000000 0.00000000 
254112442 0.00000000 0.00000000 -78.16164217 -142.70208155 0.00000000 0.00000000 0.00000000 0.00000000 
256029960 0.00000000 0.00000000 -79.23575301 171.27775758 0.00000000 0.00000000 0.00000000 0.00000000 
257947478 0.00000000 0.00000000 -78.58669002 -22.34240874 0.00000000 0.00000000 0.00000000 0.00000000 
259864996 0.00000000 0.00000000 -69.78002269 20.57119164 0.00000000 0.00000000 0.00000000 0.00000000 
261782516 0.00000000 0.00000000 -67.13227192 60.52627002 0.00000000 0.00000000 0.00000000 0.00000000 
263700034 0.00000000 0.00000000 -72.11989893 76.54232817 0.00000000 0.00000000 0.00000000 0.00000000 
265617552 0.00000000 0.00000000 -65.09111427 126.23176425 0.00000000 0.00000000 0.00000000 0.00000000 
267535070 0.00000000 0.00000000 -65.02475483 118.86552502 0.00000000 0.00000000 0.00000000 0.00000000 
269452590 0.00000000 0.00000000 -64.12624648 142.96045699 0.00000000 0.00000000 0.00000000 0.00000000 
271370108 0.00000000 0.00000000 -69.02082997 -168.59129584 0.00000000 0.00000000 0.00000000 0.00000000 
273287626 0.00000000 0.00000000 -67.23469751 178.55357466 0.00000000 0.00000000 0.00000000 0.00000000 
275205144 0.00000000 0.00000000 -64.32844535 174.42317250 0.00000000 0.00000000 0.00000000 0.00000000 
277122664 0.00000000 0.00000000 -63.10773361 -127.24779302 0.00000000 0.00000000 0.00000000 0.00000000 
279040182 0.00000000 0.00000000 -80.00000000 -87.51353057 0.00000000 0.00000000 0.00000000 0.00000000 
280957700 0.00000000 0.00000000 -64.29045593 167.56687875 0.00000000 0.00000000 0.00000000 0.00000000 
282875218 0.00000000 0.00000000 -78.64185744 131.25446339 0.00000000 0.00000000 0.00000000 0.00000000 
284792738 0.00000000 0.00000000 -67.63884340 117.31386861 0.00000000 0.00000000 0.00000000 0.00000000 
286710256 0.00000000 0.00000000 -75.60755300 125.32025401 0.00000000 0.00000000 0.00000000 0.00000000 
288627774 0.00000000 0.00000000 -65.18608170 132.11506871 0.00000000 0.00000000 0.00000000 0.00000000 
290545292 0.00000000 0.00000000 -73.65642862 116.60906403 0.00000000 0.00000000 0.00000000 0.00000000 
292462812 0.00000000 0.00000000 -63.07788996 119.04342196 0.00000000 0.00000000 0.00000000 0.00000000 
294380330 0.00000000 0.00000000 -62.84342242 165.20884845 0.00000000 0.00000000 0.00000000 0.00000000 
296297848 0.00000000 0.00000000 -73.13091481 -53.28971110 0.00000000 0.00000000 0.00000000 0.00000000 
298215366 0.00000000 0.00000000 -73.90986566 123.57259712 0.00000000 0.00000000 0.00000000 0.00000000 
300132886 0.00000000 0.00000000 -69.80498684 47.17029063 0.00000000 0.00000000 0.00000000 0.00000000 
302050404 0.00000000 0.00000000 -71.19522084 50.67401719 0.00000000 0.00000000 0.00000000 0.00000000 
303967922 0.00000000 0.00000000 -74.36143978 68.95331386 0.00000000 0.00000000 0.00000000 0.00000000 
305885440 0.00000000 0.00000000 -68.69677351 124.05488247 0.00000000 0.00000000 0.00000000 0.00000000 
307802960 0.00000000 0.00000000 -74.80281373 153.90092080 0.00000000 0.00000000 0.00000000 0.00000000 
309720478 0.00000000 0.00000000 -70.89989739 135.29732733 0.00000000 0.00000000 0.00000000 0.00000000 
311637996 0.00000000 0.00000000 -72.07274677 172.24950117 0.00000000 0.00000000 0.00000000 0.00000000 
313555514 0.00000000 0.00000000 -79.53914249 -154.49901826 0.00000000 0.00000000 0.00000000 0.00000000 
315473034 0.00000000 0.00000000 -69.29193142 -128.97648162 0.00000000 0.00000000 0.00000000 0.00000000 
317390552 0.00000000 0.00000000 -65.54368583 -92.98479403 0.00000000 0.00000000 0.00000000 0.00000000 
319308070 0.00000000 0.00000000 -67.00007375 -110.16091036 0.00000000 0.00000000 0.00000000 0.00000000 
321225588 0.00000000 0.00000000 -69.96370300 -41.68082004 0.00000000 0.00000000 0.00000000 0.00000000 
323143108 0.00000000 0.00000000 -65.64439406 -100.15435973 0.00000000 0.00000000 0.00000000 0.00000000 
325060626 0.00000000 0.00000000 -70.20196044 -140.10983270 0.00000000 0.00000000 0.00000000 0.00000000 
326978144 0.00000000 0.00000000 -73.16181107 -106.65915225 0.00000000 0.00000000 0.00000000 0.00000000 
328895662 0.00000000 0.00000000 -73.51358795 -59.32763245 0.00000000 0.00000000 0.00000000 0.00000000 
330813182 0.00000000 0.00000000 -73.89398230 -168.88073782 0.00000000 0.00000000 0.00000000 0.00000000 
332730700 0.00000000 0.00000000 -69.28480782 -157.18595101 0.00000000 0.00000000 0.00000000 0.00000000 
334648218 0.00000000 0.00000000 -67.81282301 -172.40975400 0.00000000 0.00000000 0.00000000 0.00000000 
336565736 0.00000000 0.00000000 -69.24184798 129.17717933 0.00000000 0.00000000 0.00000000 0.00000000 
338483256 0.00000000 0.00000000 -63.35660978 161.39663428 0.00000000 0.00000000 0.00000000 0.00000000 
340400774 0.00000000 0.00000000 -64.56331074 161.74134772 0.00000000 0.00000000 0.00000000 0.00000000 
342318292 0.00000000 0.00000000 -64.91048245 159.82353192 0.00000000 0.00000000 0.00000000 0.00000000 
344235810 0.00000000 0.00000000 -72.13381228 61.90774765 0.00000000 0.00000000 0.00000000 0.00000000 
346153330 0.00000000 0.00000000 -67.79473553 92.22113028 0.00000000 0.00000000 0.00000000 0.00000000 
348070848 0.00000000 0.00000000 -66.35512256 75.62106049 0.00000000 0.00000000 0.00000000 0.00000000 
349988366 0.00000000 0.00000000 -66.46458522 131.49857366 0.00000000 0.00000000 0.00000000 0.00000000 
351905884 0.00000000 0.00000000 -66.64609803 163.35474133 0.00000000 0.00000000 0.00000000 0.00000000 
353823404 0.00000000 0.00000000 -61.68648579 -163.89150591 0.00000000 0.00000000 0.00000000 0.00000000 
355740922 0.00000000 0.00000000 -75.23185604 -148.17631284 0.00000000 0.00000000 0.00000000 0.00000000 
357658440 0.00000000 0.00000000 -69.94060817 68.89442223 0.00000000 0.00000000 0.00000000 0.00000000 
359575958 0.00000000 0.00000000 -74.60275141 71.61474902 0.00000000 0.00000000 0.00000000 0.00000000 
361493478 0.00000000 0.00000000 -64.60026645 74.84985459 0.00000000 0.00000000 0.00000000 0.00000000 
363410996 0.00000000 0.00000000 -64.67011813 59.55673032 0.00000000 0.00000000 0.00000000 0.00000000 
365328514 0.00000000 0.00000000 -69.03394351 44.93675445 0.00000000 0.00000000 0.00000000 0.00000000 
367246032 0.00000000 0.00000000 -71.48881429 158.80610974 0.00000000 0.00000000 0.00000000 0.00000000 
369163552 0.00000000 0.00000000 -79.82461345 -74.33233072 0.00000000 0.00000000 0.00000000 0.00000000 
