! created by ADMIN at Tue Apr 21 15:42:22 IST 2026
! generated using vna/J Version 3.2.10
# Hz S DB R 50
001000000 0.00000000 0.00000000 -66.55857900 68.85912593 0.00000000 0.00000000 0.00000000 0.00000000 
002917518 0.00000000 0.00000000 -74.28335644 111.76079771 0.00000000 0.00000000 0.00000000 0.00000000 
004835036 0.00000000 0.00000000 -80.00000000 150.08904118 0.00000000 0.00000000 0.00000000 0.00000000 
006752554 0.00000000 0.00000000 -70.09217695 -31.44954279 0.00000000 0.00000000 0.00000000 0.00000000 
008670074 0.00000000 0.00000000 -72.00403483 -75.44707817 0.00000000 0.00000000 0.00000000 0.00000000 
010587592 0.00000000 0.00000000 -72.20553886 4.64607144 0.00000000 0.00000000 0.00000000 0.00000000 
012505110 0.00000000 0.00000000 -70.27747004 21.92614378 0.00000000 0.00000000 0.00000000 0.00000000 
014422628 0.00000000 0.00000000 -69.79462098 34.61873537 0.00000000 0.00000000 0.00000000 0.00000000 
016340148 0.00000000 0.00000000 -68.53216214 38.57675057 0.00000000 0.00000000 0.00000000 0.00000000 
018257666 0.00000000 0.00000000 -68.14988539 36.44891909 0.00000000 0.00000000 0.00000000 0.00000000 
020175184 0.00000000 0.00000000 -69.74524158 30.12646830 0.00000000 0.00000000 0.00000000 0.00000000 
022092702 0.00000000 0.00000000 -69.81114463 8.89455897 0.00000000 0.00000000 0.00000000 0.00000000 
024010222 0.00000000 0.00000000 -73.13764543 -73.61626478 0.00000000 0.00000000 0.00000000 0.00000000 
025927740 0.00000000 0.00000000 -69.61031966 -13.44791786 0.00000000 0.00000000 0.00000000 0.00000000 
027845258 0.00000000 0.00000000 -78.78499421 159.97139907 0.00000000 0.00000000 0.00000000 0.00000000 
029762776 0.00000000 0.00000000 -69.17486273 176.56074382 0.00000000 0.00000000 0.00000000 0.00000000 
031680296 0.00000000 0.00000000 -71.02502864 139.46648927 0.00000000 0.00000000 0.00000000 0.00000000 
033597814 0.00000000 0.00000000 -70.67316253 -163.13869245 0.00000000 0.00000000 0.00000000 0.00000000 
035515332 0.00000000 0.00000000 -75.77151470 170.17854665 0.00000000 0.00000000 0.00000000 0.00000000 
037432850 0.00000000 0.00000000 -71.21360283 -155.89382334 0.00000000 0.00000000 0.00000000 0.00000000 
039350370 0.00000000 0.00000000 -80.00000000 94.86917550 0.00000000 0.00000000 0.00000000 0.00000000 
041267888 0.00000000 0.00000000 -80.00000000 -9.60480891 0.00000000 0.00000000 0.00000000 0.00000000 
043185406 0.00000000 0.00000000 -80.00000000 -104.41883486 0.00000000 0.00000000 0.00000000 0.00000000 
045102924 0.00000000 0.00000000 -71.95547779 66.90560379 0.00000000 0.00000000 0.00000000 0.00000000 
047020444 0.00000000 0.00000000 -72.60136703 13.98332626 0.00000000 0.00000000 0.00000000 0.00000000 
048937962 0.00000000 0.00000000 -80.00000000 127.95161496 0.00000000 0.00000000 0.00000000 0.00000000 
050855480 0.00000000 0.00000000 -80.00000000 129.56326462 0.00000000 0.00000000 0.00000000 0.00000000 
052772998 0.00000000 0.00000000 -80.00000000 -75.52588095 0.00000000 0.00000000 0.00000000 0.00000000 
054690518 0.00000000 0.00000000 -80.00000000 -21.22226536 0.00000000 0.00000000 0.00000000 0.00000000 
056608036 0.00000000 0.00000000 -71.31295636 104.80382085 0.00000000 0.00000000 0.00000000 0.00000000 
058525554 0.00000000 0.00000000 -80.00000000 116.08826905 0.00000000 0.00000000 0.00000000 0.00000000 
060443072 0.00000000 0.00000000 -72.33494477 21.37874306 0.00000000 0.00000000 0.00000000 0.00000000 
062360592 0.00000000 0.00000000 -75.82099174 53.41487597 0.00000000 0.00000000 0.00000000 0.00000000 
064278110 0.00000000 0.00000000 -71.23729168 74.33578920 0.00000000 0.00000000 0.00000000 0.00000000 
066195628 0.00000000 0.00000000 -80.00000000 -124.57168358 0.00000000 0.00000000 0.00000000 0.00000000 
068113146 0.00000000 0.00000000 -75.66632111 42.22278290 0.00000000 0.00000000 0.00000000 0.00000000 
070030666 0.00000000 0.00000000 -68.60871942 63.44055533 0.00000000 0.00000000 0.00000000 0.00000000 
071948184 0.00000000 0.00000000 -76.70236976 12.68440565 0.00000000 0.00000000 0.00000000 0.00000000 
073865702 0.00000000 0.00000000 -80.00000000 61.51669352 0.00000000 0.00000000 0.00000000 0.00000000 
075783220 0.00000000 0.00000000 -80.00000000 103.69920206 0.00000000 0.00000000 0.00000000 0.00000000 
077700740 0.00000000 0.00000000 -80.00000000 77.52192634 0.00000000 0.00000000 0.00000000 0.00000000 
079618258 0.00000000 0.00000000 -80.00000000 -66.56845640 0.00000000 0.00000000 0.00000000 0.00000000 
081535776 0.00000000 0.00000000 -72.79864071 83.16775899 0.00000000 0.00000000 0.00000000 0.00000000 
083453294 0.00000000 0.00000000 -80.00000000 76.61380833 0.00000000 0.00000000 0.00000000 0.00000000 
085370814 0.00000000 0.00000000 -71.39232061 160.55980171 0.00000000 0.00000000 0.00000000 0.00000000 
087288332 0.00000000 0.00000000 -71.34728899 -93.92311219 0.00000000 0.00000000 0.00000000 0.00000000 
089205850 0.00000000 0.00000000 -70.47961868 10.80248813 0.00000000 0.00000000 0.00000000 0.00000000 
091123368 0.00000000 0.00000000 -64.82496185 1.35836431 0.00000000 0.00000000 0.00000000 0.00000000 
093040888 0.00000000 0.00000000 -63.54678474 5.50722518 0.00000000 0.00000000 0.00000000 0.00000000 
094958406 0.00000000 0.00000000 -65.78409983 13.84040078 0.00000000 0.00000000 0.00000000 0.00000000 
096875924 0.00000000 0.00000000 -67.05064662 22.88490736 0.00000000 0.00000000 0.00000000 0.00000000 
098793442 0.00000000 0.00000000 -69.97501393 23.60894984 0.00000000 0.00000000 0.00000000 0.00000000 
100710962 0.00000000 0.00000000 -78.05314412 1.72204707 0.00000000 0.00000000 0.00000000 0.00000000 
102628480 0.00000000 0.00000000 -70.17159034 46.00326713 0.00000000 0.00000000 0.00000000 0.00000000 
104545998 0.00000000 0.00000000 -78.07340796 89.48627359 0.00000000 0.00000000 0.00000000 0.00000000 
106463516 0.00000000 0.00000000 -77.60412990 105.43672872 0.00000000 0.00000000 0.00000000 0.00000000 
108381036 0.00000000 0.00000000 -65.54365094 37.92794938 0.00000000 0.00000000 0.00000000 0.00000000 
110298554 0.00000000 0.00000000 -77.46115845 75.70540664 0.00000000 0.00000000 0.00000000 0.00000000 
112216072 0.00000000 0.00000000 -67.40818984 99.65096390 0.00000000 0.00000000 0.00000000 0.00000000 
114133590 0.00000000 0.00000000 -68.70175979 147.02590596 0.00000000 0.00000000 0.00000000 0.00000000 
116051110 0.00000000 0.00000000 -71.34327302 86.82995329 0.00000000 0.00000000 0.00000000 0.00000000 
117968628 0.00000000 0.00000000 -72.80567699 105.11235340 0.00000000 0.00000000 0.00000000 0.00000000 
119886146 0.00000000 0.00000000 -80.00000000 71.46036214 0.00000000 0.00000000 0.00000000 0.00000000 
121803664 0.00000000 0.00000000 -80.00000000 5.90472958 0.00000000 0.00000000 0.00000000 0.00000000 
123721184 0.00000000 0.00000000 -69.82988360 112.67568901 0.00000000 0.00000000 0.00000000 0.00000000 
125638702 0.00000000 0.00000000 -80.00000000 -148.15314653 0.00000000 0.00000000 0.00000000 0.00000000 
127556220 0.00000000 0.00000000 -80.00000000 -13.95440619 0.00000000 0.00000000 0.00000000 0.00000000 
129473738 0.00000000 0.00000000 -80.00000000 -122.95009758 0.00000000 0.00000000 0.00000000 0.00000000 
131391258 0.00000000 0.00000000 -75.49662826 -151.36434826 0.00000000 0.00000000 0.00000000 0.00000000 
133308776 0.00000000 0.00000000 -68.30673512 -166.49329749 0.00000000 0.00000000 0.00000000 0.00000000 
135226294 0.00000000 0.00000000 -66.36955261 89.43711515 0.00000000 0.00000000 0.00000000 0.00000000 
137143812 0.00000000 0.00000000 -65.41050568 59.10938296 0.00000000 0.00000000 0.00000000 0.00000000 
139061332 0.00000000 0.00000000 -63.56684804 76.71915854 0.00000000 0.00000000 0.00000000 0.00000000 
140978850 0.00000000 0.00000000 -63.12116046 77.52550986 0.00000000 0.00000000 0.00000000 0.00000000 
142896368 0.00000000 0.00000000 -61.66439048 75.56288899 0.00000000 0.00000000 0.00000000 0.00000000 
144813886 0.00000000 0.00000000 -68.72646702 83.34572783 0.00000000 0.00000000 0.00000000 0.00000000 
146731406 0.00000000 0.00000000 -69.17368554 102.64184550 0.00000000 0.00000000 0.00000000 0.00000000 
148648924 0.00000000 0.00000000 -66.25047161 75.63202814 0.00000000 0.00000000 0.00000000 0.00000000 
150566442 0.00000000 0.00000000 -67.30040206 57.58361738 0.00000000 0.00000000 0.00000000 0.00000000 
152483960 0.00000000 0.00000000 -63.66555461 32.79046292 0.00000000 0.00000000 0.00000000 0.00000000 
154401480 0.00000000 0.00000000 -65.48873192 38.84455420 0.00000000 0.00000000 0.00000000 0.00000000 
156318998 0.00000000 0.00000000 -68.19961172 63.81810013 0.00000000 0.00000000 0.00000000 0.00000000 
158236516 0.00000000 0.00000000 -67.75399798 50.45921478 0.00000000 0.00000000 0.00000000 0.00000000 
160154034 0.00000000 0.00000000 -64.49125243 83.96059767 0.00000000 0.00000000 0.00000000 0.00000000 
162071554 0.00000000 0.00000000 -63.70437119 107.14124933 0.00000000 0.00000000 0.00000000 0.00000000 
163989072 0.00000000 0.00000000 -66.33493270 132.88671498 0.00000000 0.00000000 0.00000000 0.00000000 
165906590 0.00000000 0.00000000 -63.90026457 77.07997133 0.00000000 0.00000000 0.00000000 0.00000000 
167824108 0.00000000 0.00000000 -69.61119890 128.09296025 0.00000000 0.00000000 0.00000000 0.00000000 
169741628 0.00000000 0.00000000 -64.46955106 85.25353746 0.00000000 0.00000000 0.00000000 0.00000000 
171659146 0.00000000 0.00000000 -63.83159975 103.73230327 0.00000000 0.00000000 0.00000000 0.00000000 
173576664 0.00000000 0.00000000 -64.89042727 105.02790308 0.00000000 0.00000000 0.00000000 0.00000000 
175494182 0.00000000 0.00000000 -64.37657142 95.08652583 0.00000000 0.00000000 0.00000000 0.00000000 
177411702 0.00000000 0.00000000 -65.04101979 89.33974004 0.00000000 0.00000000 0.00000000 0.00000000 
179329220 0.00000000 0.00000000 -63.64533273 73.92901887 0.00000000 0.00000000 0.00000000 0.00000000 
181246738 0.00000000 0.00000000 -65.15610708 65.43115797 0.00000000 0.00000000 0.00000000 0.00000000 
183164256 0.00000000 0.00000000 -62.12378639 96.68439059 0.00000000 0.00000000 0.00000000 0.00000000 
185081776 0.00000000 0.00000000 -65.69726111 57.35023455 0.00000000 0.00000000 0.00000000 0.00000000 
186999294 0.00000000 0.00000000 -62.85047424 42.32864030 0.00000000 0.00000000 0.00000000 0.00000000 
188916812 0.00000000 0.00000000 -63.06251074 67.28720882 0.00000000 0.00000000 0.00000000 0.00000000 
190834330 0.00000000 0.00000000 -65.27568407 62.14465293 0.00000000 0.00000000 0.00000000 0.00000000 
192751850 0.00000000 0.00000000 -63.94427260 75.43578064 0.00000000 0.00000000 0.00000000 0.00000000 
194669368 0.00000000 0.00000000 -63.31909775 65.02480810 0.00000000 0.00000000 0.00000000 0.00000000 
196586886 0.00000000 0.00000000 -64.37327322 76.76451935 0.00000000 0.00000000 0.00000000 0.00000000 
198504404 0.00000000 0.00000000 -64.67125444 85.61011481 0.00000000 0.00000000 0.00000000 0.00000000 
200421924 0.00000000 0.00000000 -62.77469480 86.03727065 0.00000000 0.00000000 0.00000000 0.00000000 
202339442 0.00000000 0.00000000 -67.53689487 99.90243693 0.00000000 0.00000000 0.00000000 0.00000000 
204256960 0.00000000 0.00000000 -76.29929159 105.83424957 0.00000000 0.00000000 0.00000000 0.00000000 
206174478 0.00000000 0.00000000 -66.26690982 50.52413519 0.00000000 0.00000000 0.00000000 0.00000000 
208091998 0.00000000 0.00000000 -68.97792227 42.37253130 0.00000000 0.00000000 0.00000000 0.00000000 
210009516 0.00000000 0.00000000 -65.50812973 46.75220757 0.00000000 0.00000000 0.00000000 0.00000000 
211927034 0.00000000 0.00000000 -67.44085472 100.28360008 0.00000000 0.00000000 0.00000000 0.00000000 
213844552 0.00000000 0.00000000 -65.82178682 98.76034129 0.00000000 0.00000000 0.00000000 0.00000000 
215762072 0.00000000 0.00000000 -73.10074373 100.17049830 0.00000000 0.00000000 0.00000000 0.00000000 
217679590 0.00000000 0.00000000 -68.63917345 118.92886774 0.00000000 0.00000000 0.00000000 0.00000000 
219597108 0.00000000 0.00000000 -67.42749114 91.42982321 0.00000000 0.00000000 0.00000000 0.00000000 
221514626 0.00000000 0.00000000 -67.87487115 29.11190370 0.00000000 0.00000000 0.00000000 0.00000000 
223432146 0.00000000 0.00000000 -65.67125331 41.95553821 0.00000000 0.00000000 0.00000000 0.00000000 
225349664 0.00000000 0.00000000 -66.60883358 72.93123872 0.00000000 0.00000000 0.00000000 0.00000000 
227267182 0.00000000 0.00000000 -64.11912128 61.54941493 0.00000000 0.00000000 0.00000000 0.00000000 
229184700 0.00000000 0.00000000 -64.93411534 52.48549478 0.00000000 0.00000000 0.00000000 0.00000000 
231102220 0.00000000 0.00000000 -60.54889081 49.35392342 0.00000000 0.00000000 0.00000000 0.00000000 
233019738 0.00000000 0.00000000 -62.23471613 35.83901041 0.00000000 0.00000000 0.00000000 0.00000000 
234937256 0.00000000 0.00000000 -59.70507848 36.79288895 0.00000000 0.00000000 0.00000000 0.00000000 
236854774 0.00000000 0.00000000 -60.33158374 54.45359178 0.00000000 0.00000000 0.00000000 0.00000000 
238772294 0.00000000 0.00000000 -59.64294047 32.24400100 0.00000000 0.00000000 0.00000000 0.00000000 
240689812 0.00000000 0.00000000 -59.58974656 45.48832809 0.00000000 0.00000000 0.00000000 0.00000000 
242607330 0.00000000 0.00000000 -58.75887881 41.73814985 0.00000000 0.00000000 0.00000000 0.00000000 
244524848 0.00000000 0.00000000 -59.19471392 54.73736845 0.00000000 0.00000000 0.00000000 0.00000000 
246442368 0.00000000 0.00000000 -58.12364547 64.10673922 0.00000000 0.00000000 0.00000000 0.00000000 
248359886 0.00000000 0.00000000 -58.88605839 59.49378277 0.00000000 0.00000000 0.00000000 0.00000000 
250277404 0.00000000 0.00000000 -64.93185433 68.79268023 0.00000000 0.00000000 0.00000000 0.00000000 
252194922 0.00000000 0.00000000 -62.32343375 90.57826548 0.00000000 0.00000000 0.00000000 0.00000000 
254112442 0.00000000 0.00000000 -64.67132239 123.66597133 0.00000000 0.00000000 0.00000000 0.00000000 
256029960 0.00000000 0.00000000 -64.70571017 113.46739396 0.00000000 0.00000000 0.00000000 0.00000000 
257947478 0.00000000 0.00000000 -66.47375293 79.06288476 0.00000000 0.00000000 0.00000000 0.00000000 
259864996 0.00000000 0.00000000 -62.37571116 59.55028405 0.00000000 0.00000000 0.00000000 0.00000000 
261782516 0.00000000 0.00000000 -59.44668336 68.75661946 0.00000000 0.00000000 0.00000000 0.00000000 
263700034 0.00000000 0.00000000 -61.02066883 58.53218916 0.00000000 0.00000000 0.00000000 0.00000000 
265617552 0.00000000 0.00000000 -59.91819981 70.60516810 0.00000000 0.00000000 0.00000000 0.00000000 
267535070 0.00000000 0.00000000 -58.07854978 58.40029149 0.00000000 0.00000000 0.00000000 0.00000000 
269452590 0.00000000 0.00000000 -57.80274065 58.49530195 0.00000000 0.00000000 0.00000000 0.00000000 
271370108 0.00000000 0.00000000 -59.36408963 46.10706928 0.00000000 0.00000000 0.00000000 0.00000000 
273287626 0.00000000 0.00000000 -58.93878382 59.66728527 0.00000000 0.00000000 0.00000000 0.00000000 
275205144 0.00000000 0.00000000 -58.59451076 75.20252619 0.00000000 0.00000000 0.00000000 0.00000000 
277122664 0.00000000 0.00000000 -62.77313067 59.89519017 0.00000000 0.00000000 0.00000000 0.00000000 
279040182 0.00000000 0.00000000 -58.94600208 54.69437532 0.00000000 0.00000000 0.00000000 0.00000000 
280957700 0.00000000 0.00000000 -60.30639544 91.28873262 0.00000000 0.00000000 0.00000000 0.00000000 
282875218 0.00000000 0.00000000 -61.01006443 56.85073215 0.00000000 0.00000000 0.00000000 0.00000000 
284792738 0.00000000 0.00000000 -60.26564582 63.89574409 0.00000000 0.00000000 0.00000000 0.00000000 
286710256 0.00000000 0.00000000 -61.20763572 42.63001537 0.00000000 0.00000000 0.00000000 0.00000000 
288627774 0.00000000 0.00000000 -59.97581367 59.37464121 0.00000000 0.00000000 0.00000000 0.00000000 
290545292 0.00000000 0.00000000 -58.63879452 36.33625207 0.00000000 0.00000000 0.00000000 0.00000000 
292462812 0.00000000 0.00000000 -56.50599087 55.25701106 0.00000000 0.00000000 0.00000000 0.00000000 
294380330 0.00000000 0.00000000 -62.56838211 77.84691294 0.00000000 0.00000000 0.00000000 0.00000000 
296297848 0.00000000 0.00000000 -62.76229175 16.87544501 0.00000000 0.00000000 0.00000000 0.00000000 
298215366 0.00000000 0.00000000 -67.77547577 55.63321837 0.00000000 0.00000000 0.00000000 0.00000000 
300132886 0.00000000 0.00000000 -67.22422739 18.26232474 0.00000000 0.00000000 0.00000000 0.00000000 
302050404 0.00000000 0.00000000 -63.34091842 17.11714767 0.00000000 0.00000000 0.00000000 0.00000000 
303967922 0.00000000 0.00000000 -61.24665730 22.23396394 0.00000000 0.00000000 0.00000000 0.00000000 
305885440 0.00000000 0.00000000 -59.90186929 42.51947159 0.00000000 0.00000000 0.00000000 0.00000000 
307802960 0.00000000 0.00000000 -58.34156641 38.16478292 0.00000000 0.00000000 0.00000000 0.00000000 
309720478 0.00000000 0.00000000 -58.16462694 54.10237158 0.00000000 0.00000000 0.00000000 0.00000000 
311637996 0.00000000 0.00000000 -59.63375598 62.79088575 0.00000000 0.00000000 0.00000000 0.00000000 
313555514 0.00000000 0.00000000 -60.04597832 65.15439034 0.00000000 0.00000000 0.00000000 0.00000000 
315473034 0.00000000 0.00000000 -63.07413589 83.01259522 0.00000000 0.00000000 0.00000000 0.00000000 
317390552 0.00000000 0.00000000 -68.46405703 57.35629302 0.00000000 0.00000000 0.00000000 0.00000000 
319308070 0.00000000 0.00000000 -70.03334167 82.13813263 0.00000000 0.00000000 0.00000000 0.00000000 
321225588 0.00000000 0.00000000 -64.41560641 43.77072921 0.00000000 0.00000000 0.00000000 0.00000000 
323143108 0.00000000 0.00000000 -77.25971927 12.34173913 0.00000000 0.00000000 0.00000000 0.00000000 
325060626 0.00000000 0.00000000 -69.17341014 66.72932682 0.00000000 0.00000000 0.00000000 0.00000000 
326978144 0.00000000 0.00000000 -64.81734391 36.09308894 0.00000000 0.00000000 0.00000000 0.00000000 
328895662 0.00000000 0.00000000 -60.88772170 30.34802548 0.00000000 0.00000000 0.00000000 0.00000000 
330813182 0.00000000 0.00000000 -60.41395929 51.22786065 0.00000000 0.00000000 0.00000000 0.00000000 
332730700 0.00000000 0.00000000 -62.03745606 45.84962512 0.00000000 0.00000000 0.00000000 0.00000000 
334648218 0.00000000 0.00000000 -61.53367765 46.74486377 0.00000000 0.00000000 0.00000000 0.00000000 
336565736 0.00000000 0.00000000 -57.70288370 46.57597692 0.00000000 0.00000000 0.00000000 0.00000000 
338483256 0.00000000 0.00000000 -58.79762077 57.38941945 0.00000000 0.00000000 0.00000000 0.00000000 
340400774 0.00000000 0.00000000 -59.39193623 73.33727093 0.00000000 0.00000000 0.00000000 0.00000000 
342318292 0.00000000 0.00000000 -59.71579206 92.72129595 0.00000000 0.00000000 0.00000000 0.00000000 
344235810 0.00000000 0.00000000 -60.11517220 75.83412458 0.00000000 0.00000000 0.00000000 0.00000000 
346153330 0.00000000 0.00000000 -60.08080449 102.17472640 0.00000000 0.00000000 0.00000000 0.00000000 
348070848 0.00000000 0.00000000 -59.81653581 79.90837686 0.00000000 0.00000000 0.00000000 0.00000000 
349988366 0.00000000 0.00000000 -60.39479248 90.24647067 0.00000000 0.00000000 0.00000000 0.00000000 
351905884 0.00000000 0.00000000 -61.14964336 83.64452912 0.00000000 0.00000000 0.00000000 0.00000000 
353823404 0.00000000 0.00000000 -62.80694104 94.01005864 0.00000000 0.00000000 0.00000000 0.00000000 
355740922 0.00000000 0.00000000 -59.75568601 73.38611919 0.00000000 0.00000000 0.00000000 0.00000000 
357658440 0.00000000 0.00000000 -56.73776225 80.62779422 0.00000000 0.00000000 0.00000000 0.00000000 
359575958 0.00000000 0.00000000 -57.59301377 96.40252267 0.00000000 0.00000000 0.00000000 0.00000000 
361493478 0.00000000 0.00000000 -55.55235952 102.86883981 0.00000000 0.00000000 0.00000000 0.00000000 
363410996 0.00000000 0.00000000 -56.15937305 91.82939412 0.00000000 0.00000000 0.00000000 0.00000000 
365328514 0.00000000 0.00000000 -57.30633635 87.18376712 0.00000000 0.00000000 0.00000000 0.00000000 
367246032 0.00000000 0.00000000 -57.27801485 102.79191789 0.00000000 0.00000000 0.00000000 0.00000000 
369163552 0.00000000 0.00000000 -57.59463928 87.78442759 0.00000000 0.00000000 0.00000000 0.00000000 
371081070 0.00000000 0.00000000 -58.00647400 72.27981064 0.00000000 0.00000000 0.00000000 0.00000000 
