! created by ADMIN at Mon Apr 20 19:01:50 IST 2026
! generated using vna/J Version 3.2.10
# Hz S DB R 50
001000000 0.00000000 0.00000000 -60.18563571 43.21416639 0.00000000 0.00000000 0.00000000 0.00000000 
002917518 0.00000000 0.00000000 -64.39658999 59.77400038 0.00000000 0.00000000 0.00000000 0.00000000 
004835036 0.00000000 0.00000000 -66.81608528 61.95773230 0.00000000 0.00000000 0.00000000 0.00000000 
006752554 0.00000000 0.00000000 -66.25360848 23.78311787 0.00000000 0.00000000 0.00000000 0.00000000 
008670074 0.00000000 0.00000000 -73.69280281 33.67803816 0.00000000 0.00000000 0.00000000 0.00000000 
010587592 0.00000000 0.00000000 -67.64990787 48.62467015 0.00000000 0.00000000 0.00000000 0.00000000 
012505110 0.00000000 0.00000000 -67.70597090 52.74159793 0.00000000 0.00000000 0.00000000 0.00000000 
014422628 0.00000000 0.00000000 -68.75173945 58.35070482 0.00000000 0.00000000 0.00000000 0.00000000 
016340148 0.00000000 0.00000000 -69.53969542 52.66881307 0.00000000 0.00000000 0.00000000 0.00000000 
018257666 0.00000000 0.00000000 -65.51876051 54.29757880 0.00000000 0.00000000 0.00000000 0.00000000 
020175184 0.00000000 0.00000000 -64.01443785 61.29885384 0.00000000 0.00000000 0.00000000 0.00000000 
022092702 0.00000000 0.00000000 -63.00348480 64.46774770 0.00000000 0.00000000 0.00000000 0.00000000 
024010222 0.00000000 0.00000000 -64.57501939 95.51093141 0.00000000 0.00000000 0.00000000 0.00000000 
025927740 0.00000000 0.00000000 -65.28334702 55.23169807 0.00000000 0.00000000 0.00000000 0.00000000 
027845258 0.00000000 0.00000000 -68.40770688 80.30468226 0.00000000 0.00000000 0.00000000 0.00000000 
029762776 0.00000000 0.00000000 -72.52465367 74.06913772 0.00000000 0.00000000 0.00000000 0.00000000 
031680296 0.00000000 0.00000000 -64.62732923 34.04939463 0.00000000 0.00000000 0.00000000 0.00000000 
033597814 0.00000000 0.00000000 -65.84399036 20.41154532 0.00000000 0.00000000 0.00000000 0.00000000 
035515332 0.00000000 0.00000000 -62.17771571 32.92539186 0.00000000 0.00000000 0.00000000 0.00000000 
037432850 0.00000000 0.00000000 -62.70692177 37.47225628 0.00000000 0.00000000 0.00000000 0.00000000 
039350370 0.00000000 0.00000000 -58.87789552 43.15083060 0.00000000 0.00000000 0.00000000 0.00000000 
041267888 0.00000000 0.00000000 -58.89216619 30.92384172 0.00000000 0.00000000 0.00000000 0.00000000 
043185406 0.00000000 0.00000000 -58.33767294 22.12492379 0.00000000 0.00000000 0.00000000 0.00000000 
045102924 0.00000000 0.00000000 -55.71004062 26.35282719 0.00000000 0.00000000 0.00000000 0.00000000 
047020444 0.00000000 0.00000000 -54.27511003 18.40731871 0.00000000 0.00000000 0.00000000 0.00000000 
048937962 0.00000000 0.00000000 -57.90873619 7.95442463 0.00000000 0.00000000 0.00000000 0.00000000 
050855480 0.00000000 0.00000000 -58.25723397 -18.40797859 0.00000000 0.00000000 0.00000000 0.00000000 
052772998 0.00000000 0.00000000 -55.66127531 -39.97813674 0.00000000 0.00000000 0.00000000 0.00000000 
054690518 0.00000000 0.00000000 -53.33540212 -45.22428245 0.00000000 0.00000000 0.00000000 0.00000000 
056608036 0.00000000 0.00000000 -55.99069586 -36.69744152 0.00000000 0.00000000 0.00000000 0.00000000 
058525554 0.00000000 0.00000000 -56.95746959 -39.66778102 0.00000000 0.00000000 0.00000000 0.00000000 
060443072 0.00000000 0.00000000 -57.32429114 -34.24416090 0.00000000 0.00000000 0.00000000 0.00000000 
062360592 0.00000000 0.00000000 -59.99798307 -41.23763869 0.00000000 0.00000000 0.00000000 0.00000000 
064278110 0.00000000 0.00000000 -63.89867790 -42.79268234 0.00000000 0.00000000 0.00000000 0.00000000 
066195628 0.00000000 0.00000000 -62.37911053 -85.29243572 0.00000000 0.00000000 0.00000000 0.00000000 
068113146 0.00000000 0.00000000 -63.24467817 -91.94207139 0.00000000 0.00000000 0.00000000 0.00000000 
070030666 0.00000000 0.00000000 -63.32045177 -106.26269717 0.00000000 0.00000000 0.00000000 0.00000000 
071948184 0.00000000 0.00000000 -63.36096152 -89.94138139 0.00000000 0.00000000 0.00000000 0.00000000 
073865702 0.00000000 0.00000000 -68.87199420 -88.42507654 0.00000000 0.00000000 0.00000000 0.00000000 
075783220 0.00000000 0.00000000 -80.00000000 -0.14542134 0.00000000 0.00000000 0.00000000 0.00000000 
077700740 0.00000000 0.00000000 -68.89963153 92.34233853 0.00000000 0.00000000 0.00000000 0.00000000 
079618258 0.00000000 0.00000000 -80.00000000 27.09035527 0.00000000 0.00000000 0.00000000 0.00000000 
081535776 0.00000000 0.00000000 -70.95346425 38.93294751 0.00000000 0.00000000 0.00000000 0.00000000 
083453294 0.00000000 0.00000000 -68.21866067 -9.88430605 0.00000000 0.00000000 0.00000000 0.00000000 
085370814 0.00000000 0.00000000 -69.62300601 -15.94289234 0.00000000 0.00000000 0.00000000 0.00000000 
087288332 0.00000000 0.00000000 -65.07142080 -58.94067252 0.00000000 0.00000000 0.00000000 0.00000000 
089205850 0.00000000 0.00000000 -66.65238886 -33.88314133 0.00000000 0.00000000 0.00000000 0.00000000 
091123368 0.00000000 0.00000000 -63.47671094 -45.30185088 0.00000000 0.00000000 0.00000000 0.00000000 
093040888 0.00000000 0.00000000 -62.21149817 -57.42072581 0.00000000 0.00000000 0.00000000 0.00000000 
094958406 0.00000000 0.00000000 -63.16123475 -58.18633967 0.00000000 0.00000000 0.00000000 0.00000000 
096875924 0.00000000 0.00000000 -63.75369328 -53.77391319 0.00000000 0.00000000 0.00000000 0.00000000 
098793442 0.00000000 0.00000000 -63.79570993 -56.03016471 0.00000000 0.00000000 0.00000000 0.00000000 
100710962 0.00000000 0.00000000 -63.48554458 -65.30821317 0.00000000 0.00000000 0.00000000 0.00000000 
102628480 0.00000000 0.00000000 -68.64845931 -43.95389590 0.00000000 0.00000000 0.00000000 0.00000000 
104545998 0.00000000 0.00000000 -71.31613150 -111.62669571 0.00000000 0.00000000 0.00000000 0.00000000 
106463516 0.00000000 0.00000000 -68.61282952 -145.98088812 0.00000000 0.00000000 0.00000000 0.00000000 
108381036 0.00000000 0.00000000 -80.00000000 -125.23841996 0.00000000 0.00000000 0.00000000 0.00000000 
110298554 0.00000000 0.00000000 -69.02881464 161.82455161 0.00000000 0.00000000 0.00000000 0.00000000 
112216072 0.00000000 0.00000000 -61.18338210 120.69282872 0.00000000 0.00000000 0.00000000 0.00000000 
114133590 0.00000000 0.00000000 -58.44644435 133.06685543 0.00000000 0.00000000 0.00000000 0.00000000 
116051110 0.00000000 0.00000000 -56.95450096 120.40414955 0.00000000 0.00000000 0.00000000 0.00000000 
117968628 0.00000000 0.00000000 -58.47055520 112.89935401 0.00000000 0.00000000 0.00000000 0.00000000 
119886146 0.00000000 0.00000000 -59.96449613 92.96066894 0.00000000 0.00000000 0.00000000 0.00000000 
121803664 0.00000000 0.00000000 -59.15715825 75.25001555 0.00000000 0.00000000 0.00000000 0.00000000 
123721184 0.00000000 0.00000000 -55.64180982 78.27679569 0.00000000 0.00000000 0.00000000 0.00000000 
125638702 0.00000000 0.00000000 -57.44204205 69.16429452 0.00000000 0.00000000 0.00000000 0.00000000 
127556220 0.00000000 0.00000000 -56.28217832 59.65251576 0.00000000 0.00000000 0.00000000 0.00000000 
129473738 0.00000000 0.00000000 -56.07153983 62.03383683 0.00000000 0.00000000 0.00000000 0.00000000 
131391258 0.00000000 0.00000000 -55.20505654 64.93825410 0.00000000 0.00000000 0.00000000 0.00000000 
133308776 0.00000000 0.00000000 -56.58071214 75.69087358 0.00000000 0.00000000 0.00000000 0.00000000 
135226294 0.00000000 0.00000000 -54.10107318 69.62175745 0.00000000 0.00000000 0.00000000 0.00000000 
137143812 0.00000000 0.00000000 -54.30623486 61.18967144 0.00000000 0.00000000 0.00000000 0.00000000 
139061332 0.00000000 0.00000000 -54.15847805 64.70140460 0.00000000 0.00000000 0.00000000 0.00000000 
140978850 0.00000000 0.00000000 -53.01847377 63.89623450 0.00000000 0.00000000 0.00000000 0.00000000 
142896368 0.00000000 0.00000000 -51.55311819 64.29564416 0.00000000 0.00000000 0.00000000 0.00000000 
144813886 0.00000000 0.00000000 -52.08433005 66.02614018 0.00000000 0.00000000 0.00000000 0.00000000 
146731406 0.00000000 0.00000000 -51.19409975 71.66092080 0.00000000 0.00000000 0.00000000 0.00000000 
148648924 0.00000000 0.00000000 -50.14566168 66.86449983 0.00000000 0.00000000 0.00000000 0.00000000 
150566442 0.00000000 0.00000000 -49.63926926 63.69652835 0.00000000 0.00000000 0.00000000 0.00000000 
152483960 0.00000000 0.00000000 -48.58488893 59.83076999 0.00000000 0.00000000 0.00000000 0.00000000 
154401480 0.00000000 0.00000000 -48.01657456 63.75552192 0.00000000 0.00000000 0.00000000 0.00000000 
156318998 0.00000000 0.00000000 -47.46771835 58.30309411 0.00000000 0.00000000 0.00000000 0.00000000 
158236516 0.00000000 0.00000000 -46.22052727 51.84599585 0.00000000 0.00000000 0.00000000 0.00000000 
160154034 0.00000000 0.00000000 -44.70486644 53.31104551 0.00000000 0.00000000 0.00000000 0.00000000 
162071554 0.00000000 0.00000000 -43.54982116 55.75446684 0.00000000 0.00000000 0.00000000 0.00000000 
163989072 0.00000000 0.00000000 -43.16401311 41.43098663 0.00000000 0.00000000 0.00000000 0.00000000 
165906590 0.00000000 0.00000000 -41.00609004 32.63959551 0.00000000 0.00000000 0.00000000 0.00000000 
167824108 0.00000000 0.00000000 -39.72486062 29.28263487 0.00000000 0.00000000 0.00000000 0.00000000 
169741628 0.00000000 0.00000000 -37.81322776 30.84878635 0.00000000 0.00000000 0.00000000 0.00000000 
171659146 0.00000000 0.00000000 -37.45024631 10.08847213 0.00000000 0.00000000 0.00000000 0.00000000 
173576664 0.00000000 0.00000000 -35.39611488 -3.55333328 0.00000000 0.00000000 0.00000000 0.00000000 
175494182 0.00000000 0.00000000 -33.07682679 -8.11341548 0.00000000 0.00000000 0.00000000 0.00000000 
177411702 0.00000000 0.00000000 -31.02007754 -7.90611391 0.00000000 0.00000000 0.00000000 0.00000000 
179329220 0.00000000 0.00000000 -35.50441154 -19.72278962 0.00000000 0.00000000 0.00000000 0.00000000 
181246738 0.00000000 0.00000000 -38.28354595 -66.43426686 0.00000000 0.00000000 0.00000000 0.00000000 
183164256 0.00000000 0.00000000 -33.99008281 -102.95851440 0.00000000 0.00000000 0.00000000 0.00000000 
185081776 0.00000000 0.00000000 -29.65190817 -108.76241947 0.00000000 0.00000000 0.00000000 0.00000000 
186999294 0.00000000 0.00000000 -31.75335503 -106.94418991 0.00000000 0.00000000 0.00000000 0.00000000 
188916812 0.00000000 0.00000000 -34.27312571 -111.37248118 0.00000000 0.00000000 0.00000000 0.00000000 
190834330 0.00000000 0.00000000 -36.75139169 -124.98308373 0.00000000 0.00000000 0.00000000 0.00000000 
192751850 0.00000000 0.00000000 -37.60821752 -151.79697098 0.00000000 0.00000000 0.00000000 0.00000000 
194669368 0.00000000 0.00000000 -39.19033208 -149.46993016 0.00000000 0.00000000 0.00000000 0.00000000 
196586886 0.00000000 0.00000000 -40.74029152 -150.51663734 0.00000000 0.00000000 0.00000000 0.00000000 
198504404 0.00000000 0.00000000 -42.35085746 -155.92975297 0.00000000 0.00000000 0.00000000 0.00000000 
200421924 0.00000000 0.00000000 -43.71157900 -167.94545535 0.00000000 0.00000000 0.00000000 0.00000000 
202339442 0.00000000 0.00000000 -44.28190124 -166.39593467 0.00000000 0.00000000 0.00000000 0.00000000 
204256960 0.00000000 0.00000000 -44.89609914 -166.11867747 0.00000000 0.00000000 0.00000000 0.00000000 
206174478 0.00000000 0.00000000 -45.96917261 -171.30780482 0.00000000 0.00000000 0.00000000 0.00000000 
208091998 0.00000000 0.00000000 -45.91010839 -174.33720166 0.00000000 0.00000000 0.00000000 0.00000000 
210009516 0.00000000 0.00000000 -47.57824153 -175.40017076 0.00000000 0.00000000 0.00000000 0.00000000 
211927034 0.00000000 0.00000000 -48.04042668 -178.73528253 0.00000000 0.00000000 0.00000000 0.00000000 
213844552 0.00000000 0.00000000 -49.15262870 174.37438655 0.00000000 0.00000000 0.00000000 0.00000000 
215762072 0.00000000 0.00000000 -49.97538755 171.09636244 0.00000000 0.00000000 0.00000000 0.00000000 
217679590 0.00000000 0.00000000 -50.27508044 166.49890994 0.00000000 0.00000000 0.00000000 0.00000000 
219597108 0.00000000 0.00000000 -51.05978044 159.29581645 0.00000000 0.00000000 0.00000000 0.00000000 
221514626 0.00000000 0.00000000 -52.40655540 156.14481219 0.00000000 0.00000000 0.00000000 0.00000000 
223432146 0.00000000 0.00000000 -51.74735303 148.22749658 0.00000000 0.00000000 0.00000000 0.00000000 
225349664 0.00000000 0.00000000 -51.88882093 149.99178493 0.00000000 0.00000000 0.00000000 0.00000000 
227267182 0.00000000 0.00000000 -53.17153935 145.18189357 0.00000000 0.00000000 0.00000000 0.00000000 
229184700 0.00000000 0.00000000 -54.38847578 144.10506110 0.00000000 0.00000000 0.00000000 0.00000000 
231102220 0.00000000 0.00000000 -54.96999854 127.86688689 0.00000000 0.00000000 0.00000000 0.00000000 
233019738 0.00000000 0.00000000 -56.28601621 138.30795628 0.00000000 0.00000000 0.00000000 0.00000000 
234937256 0.00000000 0.00000000 -56.81981008 133.39269736 0.00000000 0.00000000 0.00000000 0.00000000 
236854774 0.00000000 0.00000000 -55.38315375 140.22859274 0.00000000 0.00000000 0.00000000 0.00000000 
238772294 0.00000000 0.00000000 -57.96314561 146.22361767 0.00000000 0.00000000 0.00000000 0.00000000 
240689812 0.00000000 0.00000000 -58.73179924 137.86821279 0.00000000 0.00000000 0.00000000 0.00000000 
242607330 0.00000000 0.00000000 -61.23740029 118.11883743 0.00000000 0.00000000 0.00000000 0.00000000 
244524848 0.00000000 0.00000000 -59.78299702 109.10184179 0.00000000 0.00000000 0.00000000 0.00000000 
246442368 0.00000000 0.00000000 -57.36783949 97.27338835 0.00000000 0.00000000 0.00000000 0.00000000 
248359886 0.00000000 0.00000000 -58.06911833 87.89690647 0.00000000 0.00000000 0.00000000 0.00000000 
250277404 0.00000000 0.00000000 -60.61139001 101.63996675 0.00000000 0.00000000 0.00000000 0.00000000 
252194922 0.00000000 0.00000000 -57.50413849 101.87878785 0.00000000 0.00000000 0.00000000 0.00000000 
254112442 0.00000000 0.00000000 -57.50556017 113.79027558 0.00000000 0.00000000 0.00000000 0.00000000 
256029960 0.00000000 0.00000000 -58.50023415 106.71458591 0.00000000 0.00000000 0.00000000 0.00000000 
257947478 0.00000000 0.00000000 -60.17563280 83.92972600 0.00000000 0.00000000 0.00000000 0.00000000 
259864996 0.00000000 0.00000000 -58.10095849 63.82317772 0.00000000 0.00000000 0.00000000 0.00000000 
261782516 0.00000000 0.00000000 -55.75514307 64.15710568 0.00000000 0.00000000 0.00000000 0.00000000 
263700034 0.00000000 0.00000000 -57.54884224 50.65515434 0.00000000 0.00000000 0.00000000 0.00000000 
265617552 0.00000000 0.00000000 -57.40931498 51.41749449 0.00000000 0.00000000 0.00000000 0.00000000 
267535070 0.00000000 0.00000000 -55.49718983 37.51551002 0.00000000 0.00000000 0.00000000 0.00000000 
269452590 0.00000000 0.00000000 -54.67605776 32.22297467 0.00000000 0.00000000 0.00000000 0.00000000 
271370108 0.00000000 0.00000000 -56.06777757 5.10909381 0.00000000 0.00000000 0.00000000 0.00000000 
273287626 0.00000000 0.00000000 -56.35320256 -6.53728871 0.00000000 0.00000000 0.00000000 0.00000000 
275205144 0.00000000 0.00000000 -55.90739825 -17.71071423 0.00000000 0.00000000 0.00000000 0.00000000 
277122664 0.00000000 0.00000000 -52.19695522 -35.14755626 0.00000000 0.00000000 0.00000000 0.00000000 
279040182 0.00000000 0.00000000 -52.19884258 -27.73415933 0.00000000 0.00000000 0.00000000 0.00000000 
280957700 0.00000000 0.00000000 -54.75615063 -39.19850363 0.00000000 0.00000000 0.00000000 0.00000000 
282875218 0.00000000 0.00000000 -52.23118418 -39.17681451 0.00000000 0.00000000 0.00000000 0.00000000 
284792738 0.00000000 0.00000000 -52.06370907 -40.25490130 0.00000000 0.00000000 0.00000000 0.00000000 
286710256 0.00000000 0.00000000 -51.72154432 -47.26435141 0.00000000 0.00000000 0.00000000 0.00000000 
288627774 0.00000000 0.00000000 -53.03474793 -52.98637690 0.00000000 0.00000000 0.00000000 0.00000000 
290545292 0.00000000 0.00000000 -51.25690826 -55.64222040 0.00000000 0.00000000 0.00000000 0.00000000 
292462812 0.00000000 0.00000000 -51.95890509 -57.32810161 0.00000000 0.00000000 0.00000000 0.00000000 
294380330 0.00000000 0.00000000 -52.50138026 -74.11101732 0.00000000 0.00000000 0.00000000 0.00000000 
296297848 0.00000000 0.00000000 -51.06948602 -67.00952241 0.00000000 0.00000000 0.00000000 0.00000000 
298215366 0.00000000 0.00000000 -52.67059367 -77.49459482 0.00000000 0.00000000 0.00000000 0.00000000 
300132886 0.00000000 0.00000000 -52.16817733 -77.88533799 0.00000000 0.00000000 0.00000000 0.00000000 
302050404 0.00000000 0.00000000 -52.21921373 -82.86236194 0.00000000 0.00000000 0.00000000 0.00000000 
303967922 0.00000000 0.00000000 -51.86034926 -88.98056381 0.00000000 0.00000000 0.00000000 0.00000000 
305885440 0.00000000 0.00000000 -51.63953658 -97.46493544 0.00000000 0.00000000 0.00000000 0.00000000 
307802960 0.00000000 0.00000000 -50.17224583 -96.79433685 0.00000000 0.00000000 0.00000000 0.00000000 
309720478 0.00000000 0.00000000 -52.22980211 -100.69416163 0.00000000 0.00000000 0.00000000 0.00000000 
311637996 0.00000000 0.00000000 -53.09781212 -108.47742645 0.00000000 0.00000000 0.00000000 0.00000000 
313555514 0.00000000 0.00000000 -53.87692937 -115.43077038 0.00000000 0.00000000 0.00000000 0.00000000 
315473034 0.00000000 0.00000000 -52.76236886 -127.64795338 0.00000000 0.00000000 0.00000000 0.00000000 
317390552 0.00000000 0.00000000 -51.87445184 -121.17362294 0.00000000 0.00000000 0.00000000 0.00000000 
319308070 0.00000000 0.00000000 -51.41587272 -124.36627273 0.00000000 0.00000000 0.00000000 0.00000000 
321225588 0.00000000 0.00000000 -51.97342913 -117.52147798 0.00000000 0.00000000 0.00000000 0.00000000 
323143108 0.00000000 0.00000000 -49.99210886 -118.49910197 0.00000000 0.00000000 0.00000000 0.00000000 
325060626 0.00000000 0.00000000 -50.70345284 -128.30955933 0.00000000 0.00000000 0.00000000 0.00000000 
326978144 0.00000000 0.00000000 -50.69621625 -129.68660955 0.00000000 0.00000000 0.00000000 0.00000000 
328895662 0.00000000 0.00000000 -50.43090227 -130.54096483 0.00000000 0.00000000 0.00000000 0.00000000 
330813182 0.00000000 0.00000000 -49.29300536 -137.38961745 0.00000000 0.00000000 0.00000000 0.00000000 
332730700 0.00000000 0.00000000 -49.80109477 -137.72572813 0.00000000 0.00000000 0.00000000 0.00000000 
334648218 0.00000000 0.00000000 -50.48881135 -141.69060410 0.00000000 0.00000000 0.00000000 0.00000000 
336565736 0.00000000 0.00000000 -52.02707654 -148.24465864 0.00000000 0.00000000 0.00000000 0.00000000 
338483256 0.00000000 0.00000000 -50.75987305 -156.10308534 0.00000000 0.00000000 0.00000000 0.00000000 
340400774 0.00000000 0.00000000 -50.44566080 -162.73299344 0.00000000 0.00000000 0.00000000 0.00000000 
342318292 0.00000000 0.00000000 -49.52157671 -168.09349486 0.00000000 0.00000000 0.00000000 0.00000000 
344235810 0.00000000 0.00000000 -49.86386886 -168.22450784 0.00000000 0.00000000 0.00000000 0.00000000 
346153330 0.00000000 0.00000000 -48.17774417 -171.30873343 0.00000000 0.00000000 0.00000000 0.00000000 
348070848 0.00000000 0.00000000 -49.16864631 -179.74412622 0.00000000 0.00000000 0.00000000 0.00000000 
349988366 0.00000000 0.00000000 -48.11119312 173.38706981 0.00000000 0.00000000 0.00000000 0.00000000 
351905884 0.00000000 0.00000000 -47.28986725 169.59271839 0.00000000 0.00000000 0.00000000 0.00000000 
353823404 0.00000000 0.00000000 -45.82062844 169.72643373 0.00000000 0.00000000 0.00000000 0.00000000 
355740922 0.00000000 0.00000000 -46.84818362 163.25623116 0.00000000 0.00000000 0.00000000 0.00000000 
357658440 0.00000000 0.00000000 -46.64913142 154.66087708 0.00000000 0.00000000 0.00000000 0.00000000 
359575958 0.00000000 0.00000000 -45.95201253 154.77085595 0.00000000 0.00000000 0.00000000 0.00000000 
361493478 0.00000000 0.00000000 -45.02805841 150.68709004 0.00000000 0.00000000 0.00000000 0.00000000 
363410996 0.00000000 0.00000000 -46.66170125 139.29651325 0.00000000 0.00000000 0.00000000 0.00000000 
365328514 0.00000000 0.00000000 -47.25549494 126.49938243 0.00000000 0.00000000 0.00000000 0.00000000 
367246032 0.00000000 0.00000000 -46.05213962 118.89759443 0.00000000 0.00000000 0.00000000 0.00000000 
369163552 0.00000000 0.00000000 -44.91786845 109.01946150 0.00000000 0.00000000 0.00000000 0.00000000 
