! created by ADMIN at Tue Apr 21 15:41:30 IST 2026
! generated using vna/J Version 3.2.10
# Hz S DB R 50
001000000 0.00000000 0.00000000 -64.09397509 67.25141743 0.00000000 0.00000000 0.00000000 0.00000000 
002917518 0.00000000 0.00000000 -69.92824710 76.58325458 0.00000000 0.00000000 0.00000000 0.00000000 
004835036 0.00000000 0.00000000 -71.38327185 48.56579305 0.00000000 0.00000000 0.00000000 0.00000000 
006752554 0.00000000 0.00000000 -64.66324798 7.88354533 0.00000000 0.00000000 0.00000000 0.00000000 
008670074 0.00000000 0.00000000 -66.93497106 13.02258072 0.00000000 0.00000000 0.00000000 0.00000000 
010587592 0.00000000 0.00000000 -64.44063146 30.26818980 0.00000000 0.00000000 0.00000000 0.00000000 
012505110 0.00000000 0.00000000 -64.75031958 32.80835337 0.00000000 0.00000000 0.00000000 0.00000000 
014422628 0.00000000 0.00000000 -65.72031163 33.62777608 0.00000000 0.00000000 0.00000000 0.00000000 
016340148 0.00000000 0.00000000 -65.86642457 27.40203227 0.00000000 0.00000000 0.00000000 0.00000000 
018257666 0.00000000 0.00000000 -62.37941821 33.17269341 0.00000000 0.00000000 0.00000000 0.00000000 
020175184 0.00000000 0.00000000 -60.76959773 39.01860898 0.00000000 0.00000000 0.00000000 0.00000000 
022092702 0.00000000 0.00000000 -59.37267380 42.51650414 0.00000000 0.00000000 0.00000000 0.00000000 
024010222 0.00000000 0.00000000 -60.87401803 55.99525903 0.00000000 0.00000000 0.00000000 0.00000000 
025927740 0.00000000 0.00000000 -61.46264331 17.90673584 0.00000000 0.00000000 0.00000000 0.00000000 
027845258 0.00000000 0.00000000 -63.73951096 -18.19609812 0.00000000 0.00000000 0.00000000 0.00000000 
029762776 0.00000000 0.00000000 -59.35671013 -41.54214364 0.00000000 0.00000000 0.00000000 0.00000000 
031680296 0.00000000 0.00000000 -55.01718044 -30.55232954 0.00000000 0.00000000 0.00000000 0.00000000 
033597814 0.00000000 0.00000000 -56.70014945 -35.70149926 0.00000000 0.00000000 0.00000000 0.00000000 
035515332 0.00000000 0.00000000 -59.01888193 -28.69241034 0.00000000 0.00000000 0.00000000 0.00000000 
037432850 0.00000000 0.00000000 -61.86533160 -47.38967629 0.00000000 0.00000000 0.00000000 0.00000000 
039350370 0.00000000 0.00000000 -63.82184883 -45.28665374 0.00000000 0.00000000 0.00000000 0.00000000 
041267888 0.00000000 0.00000000 -63.68040673 -51.59528658 0.00000000 0.00000000 0.00000000 0.00000000 
043185406 0.00000000 0.00000000 -63.48131701 -61.86259877 0.00000000 0.00000000 0.00000000 0.00000000 
045102924 0.00000000 0.00000000 -65.60489493 -42.70910808 0.00000000 0.00000000 0.00000000 0.00000000 
047020444 0.00000000 0.00000000 -62.13184991 -50.90940395 0.00000000 0.00000000 0.00000000 0.00000000 
048937962 0.00000000 0.00000000 -65.56617920 -62.81965367 0.00000000 0.00000000 0.00000000 0.00000000 
050855480 0.00000000 0.00000000 -66.54669212 -55.16249385 0.00000000 0.00000000 0.00000000 0.00000000 
052772998 0.00000000 0.00000000 -65.97641292 -53.06371407 0.00000000 0.00000000 0.00000000 0.00000000 
054690518 0.00000000 0.00000000 -68.65031656 -41.99510883 0.00000000 0.00000000 0.00000000 0.00000000 
056608036 0.00000000 0.00000000 -80.00000000 7.06233570 0.00000000 0.00000000 0.00000000 0.00000000 
058525554 0.00000000 0.00000000 -73.07323376 -73.23181957 0.00000000 0.00000000 0.00000000 0.00000000 
060443072 0.00000000 0.00000000 -68.12143473 -43.31971079 0.00000000 0.00000000 0.00000000 0.00000000 
062360592 0.00000000 0.00000000 -69.41585342 -66.41808897 0.00000000 0.00000000 0.00000000 0.00000000 
064278110 0.00000000 0.00000000 -73.11345970 -127.20777012 0.00000000 0.00000000 0.00000000 0.00000000 
066195628 0.00000000 0.00000000 -62.33880818 -130.02264565 0.00000000 0.00000000 0.00000000 0.00000000 
068113146 0.00000000 0.00000000 -62.07506473 -133.44986506 0.00000000 0.00000000 0.00000000 0.00000000 
070030666 0.00000000 0.00000000 -61.01330449 -138.81857262 0.00000000 0.00000000 0.00000000 0.00000000 
071948184 0.00000000 0.00000000 -61.60015378 -132.69152870 0.00000000 0.00000000 0.00000000 0.00000000 
073865702 0.00000000 0.00000000 -62.61395724 -153.65750678 0.00000000 0.00000000 0.00000000 0.00000000 
075783220 0.00000000 0.00000000 -62.29903511 -177.53861600 0.00000000 0.00000000 0.00000000 0.00000000 
077700740 0.00000000 0.00000000 -60.60297074 165.68377274 0.00000000 0.00000000 0.00000000 0.00000000 
079618258 0.00000000 0.00000000 -59.97061565 -177.12364450 0.00000000 0.00000000 0.00000000 0.00000000 
081535776 0.00000000 0.00000000 -59.28169002 176.24563482 0.00000000 0.00000000 0.00000000 0.00000000 
083453294 0.00000000 0.00000000 -58.58031568 -166.99686863 0.00000000 0.00000000 0.00000000 0.00000000 
085370814 0.00000000 0.00000000 -56.38182050 -162.22719160 0.00000000 0.00000000 0.00000000 0.00000000 
087288332 0.00000000 0.00000000 -53.33104800 -168.96992489 0.00000000 0.00000000 0.00000000 0.00000000 
089205850 0.00000000 0.00000000 -50.91538765 179.08855969 0.00000000 0.00000000 0.00000000 0.00000000 
091123368 0.00000000 0.00000000 -48.67200876 -177.37473956 0.00000000 0.00000000 0.00000000 0.00000000 
093040888 0.00000000 0.00000000 -46.45321121 -172.70818990 0.00000000 0.00000000 0.00000000 0.00000000 
094958406 0.00000000 0.00000000 -48.25810088 147.40507416 0.00000000 0.00000000 0.00000000 0.00000000 
096875924 0.00000000 0.00000000 -44.75008063 116.31493661 0.00000000 0.00000000 0.00000000 0.00000000 
098793442 0.00000000 0.00000000 -41.00399941 108.55424515 0.00000000 0.00000000 0.00000000 0.00000000 
100710962 0.00000000 0.00000000 -38.14549725 109.47698862 0.00000000 0.00000000 0.00000000 0.00000000 
102628480 0.00000000 0.00000000 -40.02412472 106.87151337 0.00000000 0.00000000 0.00000000 0.00000000 
104545998 0.00000000 0.00000000 -42.17991327 100.41526240 0.00000000 0.00000000 0.00000000 0.00000000 
106463516 0.00000000 0.00000000 -43.66263622 84.05467131 0.00000000 0.00000000 0.00000000 0.00000000 
108381036 0.00000000 0.00000000 -42.78769232 61.00662423 0.00000000 0.00000000 0.00000000 0.00000000 
110298554 0.00000000 0.00000000 -43.84049605 63.51312405 0.00000000 0.00000000 0.00000000 0.00000000 
112216072 0.00000000 0.00000000 -44.03519673 64.98021237 0.00000000 0.00000000 0.00000000 0.00000000 
114133590 0.00000000 0.00000000 -44.77905481 64.80600882 0.00000000 0.00000000 0.00000000 0.00000000 
116051110 0.00000000 0.00000000 -44.53312510 60.52379750 0.00000000 0.00000000 0.00000000 0.00000000 
117968628 0.00000000 0.00000000 -45.14486651 61.61978414 0.00000000 0.00000000 0.00000000 0.00000000 
119886146 0.00000000 0.00000000 -45.60978110 60.02143203 0.00000000 0.00000000 0.00000000 0.00000000 
121803664 0.00000000 0.00000000 -45.84988888 58.54613928 0.00000000 0.00000000 0.00000000 0.00000000 
123721184 0.00000000 0.00000000 -45.53051866 61.32578908 0.00000000 0.00000000 0.00000000 0.00000000 
125638702 0.00000000 0.00000000 -45.94653243 58.55867492 0.00000000 0.00000000 0.00000000 0.00000000 
127556220 0.00000000 0.00000000 -45.48982346 56.96766958 0.00000000 0.00000000 0.00000000 0.00000000 
129473738 0.00000000 0.00000000 -45.25897595 58.49217967 0.00000000 0.00000000 0.00000000 0.00000000 
131391258 0.00000000 0.00000000 -44.74348977 60.58724061 0.00000000 0.00000000 0.00000000 0.00000000 
133308776 0.00000000 0.00000000 -45.12236904 61.64409649 0.00000000 0.00000000 0.00000000 0.00000000 
135226294 0.00000000 0.00000000 -44.07489021 59.91555102 0.00000000 0.00000000 0.00000000 0.00000000 
137143812 0.00000000 0.00000000 -43.63831197 56.82280259 0.00000000 0.00000000 0.00000000 0.00000000 
139061332 0.00000000 0.00000000 -43.07013246 58.10722435 0.00000000 0.00000000 0.00000000 0.00000000 
140978850 0.00000000 0.00000000 -42.35159405 56.16673907 0.00000000 0.00000000 0.00000000 0.00000000 
142896368 0.00000000 0.00000000 -41.37196464 55.61796571 0.00000000 0.00000000 0.00000000 0.00000000 
144813886 0.00000000 0.00000000 -40.87842117 55.70222277 0.00000000 0.00000000 0.00000000 0.00000000 
146731406 0.00000000 0.00000000 -39.97316292 58.33393758 0.00000000 0.00000000 0.00000000 0.00000000 
148648924 0.00000000 0.00000000 -39.18547639 53.84778534 0.00000000 0.00000000 0.00000000 0.00000000 
150566442 0.00000000 0.00000000 -38.32768421 50.91883247 0.00000000 0.00000000 0.00000000 0.00000000 
152483960 0.00000000 0.00000000 -37.21731128 49.61239328 0.00000000 0.00000000 0.00000000 0.00000000 
154401480 0.00000000 0.00000000 -36.27441233 51.52456190 0.00000000 0.00000000 0.00000000 0.00000000 
156318998 0.00000000 0.00000000 -35.56602020 42.62215258 0.00000000 0.00000000 0.00000000 0.00000000 
158236516 0.00000000 0.00000000 -34.22870125 36.63420837 0.00000000 0.00000000 0.00000000 0.00000000 
160154034 0.00000000 0.00000000 -32.78001574 35.58967932 0.00000000 0.00000000 0.00000000 0.00000000 
162071554 0.00000000 0.00000000 -31.43933437 36.80996781 0.00000000 0.00000000 0.00000000 0.00000000 
163989072 0.00000000 0.00000000 -31.98637704 18.56903098 0.00000000 0.00000000 0.00000000 0.00000000 
165906590 0.00000000 0.00000000 -30.62564132 3.57659870 0.00000000 0.00000000 0.00000000 0.00000000 
167824108 0.00000000 0.00000000 -28.78334417 -4.85494002 0.00000000 0.00000000 0.00000000 0.00000000 
169741628 0.00000000 0.00000000 -26.80615676 -6.22192601 0.00000000 0.00000000 0.00000000 0.00000000 
171659146 0.00000000 0.00000000 -28.86406672 -13.50747374 0.00000000 0.00000000 0.00000000 0.00000000 
173576664 0.00000000 0.00000000 -30.20246746 -28.53628114 0.00000000 0.00000000 0.00000000 0.00000000 
175494182 0.00000000 0.00000000 -29.88532061 -46.47192543 0.00000000 0.00000000 0.00000000 0.00000000 
177411702 0.00000000 0.00000000 -28.17826745 -58.94992544 0.00000000 0.00000000 0.00000000 0.00000000 
179329220 0.00000000 0.00000000 -29.77970787 -60.66197077 0.00000000 0.00000000 0.00000000 0.00000000 
181246738 0.00000000 0.00000000 -31.21031148 -67.24178769 0.00000000 0.00000000 0.00000000 0.00000000 
183164256 0.00000000 0.00000000 -32.17029634 -79.34508018 0.00000000 0.00000000 0.00000000 0.00000000 
185081776 0.00000000 0.00000000 -31.75995881 -91.85130627 0.00000000 0.00000000 0.00000000 0.00000000 
186999294 0.00000000 0.00000000 -32.88472100 -90.18167564 0.00000000 0.00000000 0.00000000 0.00000000 
188916812 0.00000000 0.00000000 -34.03345011 -92.11557033 0.00000000 0.00000000 0.00000000 0.00000000 
190834330 0.00000000 0.00000000 -34.87919459 -96.08313492 0.00000000 0.00000000 0.00000000 0.00000000 
192751850 0.00000000 0.00000000 -35.46493148 -103.00905661 0.00000000 0.00000000 0.00000000 0.00000000 
194669368 0.00000000 0.00000000 -36.16956925 -101.49457055 0.00000000 0.00000000 0.00000000 0.00000000 
196586886 0.00000000 0.00000000 -36.73050189 -102.20305820 0.00000000 0.00000000 0.00000000 0.00000000 
198504404 0.00000000 0.00000000 -37.14897369 -103.96474129 0.00000000 0.00000000 0.00000000 0.00000000 
200421924 0.00000000 0.00000000 -37.43985883 -106.33749132 0.00000000 0.00000000 0.00000000 0.00000000 
202339442 0.00000000 0.00000000 -37.96050176 -105.49057461 0.00000000 0.00000000 0.00000000 0.00000000 
204256960 0.00000000 0.00000000 -38.42579943 -105.27549022 0.00000000 0.00000000 0.00000000 0.00000000 
206174478 0.00000000 0.00000000 -39.14984860 -105.22011681 0.00000000 0.00000000 0.00000000 0.00000000 
208091998 0.00000000 0.00000000 -39.30054411 -107.39651608 0.00000000 0.00000000 0.00000000 0.00000000 
210009516 0.00000000 0.00000000 -39.94035092 -104.63166225 0.00000000 0.00000000 0.00000000 0.00000000 
211927034 0.00000000 0.00000000 -40.29734090 -105.28361885 0.00000000 0.00000000 0.00000000 0.00000000 
213844552 0.00000000 0.00000000 -40.72155818 -104.18417250 0.00000000 0.00000000 0.00000000 0.00000000 
215762072 0.00000000 0.00000000 -40.68096560 -102.58457221 0.00000000 0.00000000 0.00000000 0.00000000 
217679590 0.00000000 0.00000000 -41.44518139 -104.73533257 0.00000000 0.00000000 0.00000000 0.00000000 
219597108 0.00000000 0.00000000 -42.07539027 -106.09802612 0.00000000 0.00000000 0.00000000 0.00000000 
221514626 0.00000000 0.00000000 -42.12498934 -106.01538909 0.00000000 0.00000000 0.00000000 0.00000000 
223432146 0.00000000 0.00000000 -42.14799324 -109.07899023 0.00000000 0.00000000 0.00000000 0.00000000 
225349664 0.00000000 0.00000000 -42.63438548 -110.56985856 0.00000000 0.00000000 0.00000000 0.00000000 
227267182 0.00000000 0.00000000 -43.13479449 -109.92378862 0.00000000 0.00000000 0.00000000 0.00000000 
229184700 0.00000000 0.00000000 -43.14123171 -109.89800175 0.00000000 0.00000000 0.00000000 0.00000000 
231102220 0.00000000 0.00000000 -43.43719770 -109.30830173 0.00000000 0.00000000 0.00000000 0.00000000 
233019738 0.00000000 0.00000000 -42.89775205 -106.99817914 0.00000000 0.00000000 0.00000000 0.00000000 
234937256 0.00000000 0.00000000 -42.78571787 -104.03335894 0.00000000 0.00000000 0.00000000 0.00000000 
236854774 0.00000000 0.00000000 -42.40557543 -104.05055726 0.00000000 0.00000000 0.00000000 0.00000000 
238772294 0.00000000 0.00000000 -41.66665312 -98.57287295 0.00000000 0.00000000 0.00000000 0.00000000 
240689812 0.00000000 0.00000000 -41.81774629 -98.74351398 0.00000000 0.00000000 0.00000000 0.00000000 
242607330 0.00000000 0.00000000 -41.68026064 -96.86382256 0.00000000 0.00000000 0.00000000 0.00000000 
244524848 0.00000000 0.00000000 -41.47087659 -97.27416546 0.00000000 0.00000000 0.00000000 0.00000000 
246442368 0.00000000 0.00000000 -41.25602824 -96.39221438 0.00000000 0.00000000 0.00000000 0.00000000 
248359886 0.00000000 0.00000000 -41.32915408 -95.30361978 0.00000000 0.00000000 0.00000000 0.00000000 
250277404 0.00000000 0.00000000 -40.89322361 -96.99081910 0.00000000 0.00000000 0.00000000 0.00000000 
252194922 0.00000000 0.00000000 -40.98102855 -98.22517322 0.00000000 0.00000000 0.00000000 0.00000000 
254112442 0.00000000 0.00000000 -40.42341163 -99.20074507 0.00000000 0.00000000 0.00000000 0.00000000 
256029960 0.00000000 0.00000000 -40.53546228 -101.79607465 0.00000000 0.00000000 0.00000000 0.00000000 
257947478 0.00000000 0.00000000 -40.29570376 -102.59566933 0.00000000 0.00000000 0.00000000 0.00000000 
259864996 0.00000000 0.00000000 -40.01656694 -103.13349674 0.00000000 0.00000000 0.00000000 0.00000000 
261782516 0.00000000 0.00000000 -39.58664503 -104.30854299 0.00000000 0.00000000 0.00000000 0.00000000 
263700034 0.00000000 0.00000000 -39.89674041 -105.78698214 0.00000000 0.00000000 0.00000000 0.00000000 
265617552 0.00000000 0.00000000 -40.21203417 -109.85450308 0.00000000 0.00000000 0.00000000 0.00000000 
267535070 0.00000000 0.00000000 -40.25410520 -111.27831511 0.00000000 0.00000000 0.00000000 0.00000000 
269452590 0.00000000 0.00000000 -39.83547459 -113.41006207 0.00000000 0.00000000 0.00000000 0.00000000 
271370108 0.00000000 0.00000000 -39.84560923 -113.92331124 0.00000000 0.00000000 0.00000000 0.00000000 
273287626 0.00000000 0.00000000 -39.88551524 -117.03279574 0.00000000 0.00000000 0.00000000 0.00000000 
275205144 0.00000000 0.00000000 -39.56924344 -119.99762866 0.00000000 0.00000000 0.00000000 0.00000000 
277122664 0.00000000 0.00000000 -38.70851109 -118.53704556 0.00000000 0.00000000 0.00000000 0.00000000 
279040182 0.00000000 0.00000000 -39.45043223 -120.27444607 0.00000000 0.00000000 0.00000000 0.00000000 
280957700 0.00000000 0.00000000 -39.25787212 -126.29300530 0.00000000 0.00000000 0.00000000 0.00000000 
282875218 0.00000000 0.00000000 -39.09266719 -126.06127424 0.00000000 0.00000000 0.00000000 0.00000000 
284792738 0.00000000 0.00000000 -38.58127579 -128.32280932 0.00000000 0.00000000 0.00000000 0.00000000 
286710256 0.00000000 0.00000000 -39.27525285 -126.78422494 0.00000000 0.00000000 0.00000000 0.00000000 
288627774 0.00000000 0.00000000 -39.95845759 -130.00609324 0.00000000 0.00000000 0.00000000 0.00000000 
290545292 0.00000000 0.00000000 -40.37282168 -130.33177792 0.00000000 0.00000000 0.00000000 0.00000000 
292462812 0.00000000 0.00000000 -40.58059133 -136.35204027 0.00000000 0.00000000 0.00000000 0.00000000 
294380330 0.00000000 0.00000000 -40.57615339 -137.47816646 0.00000000 0.00000000 0.00000000 0.00000000 
296297848 0.00000000 0.00000000 -41.18872901 -134.56021562 0.00000000 0.00000000 0.00000000 0.00000000 
298215366 0.00000000 0.00000000 -41.22340126 -140.18816224 0.00000000 0.00000000 0.00000000 0.00000000 
300132886 0.00000000 0.00000000 -41.19974780 -141.72183945 0.00000000 0.00000000 0.00000000 0.00000000 
302050404 0.00000000 0.00000000 -41.33004157 -140.81753162 0.00000000 0.00000000 0.00000000 0.00000000 
303967922 0.00000000 0.00000000 -41.27750874 -140.31318885 0.00000000 0.00000000 0.00000000 0.00000000 
305885440 0.00000000 0.00000000 -41.05853746 -141.32802892 0.00000000 0.00000000 0.00000000 0.00000000 
307802960 0.00000000 0.00000000 -40.75319172 -139.04307070 0.00000000 0.00000000 0.00000000 0.00000000 
309720478 0.00000000 0.00000000 -41.28559710 -139.89658667 0.00000000 0.00000000 0.00000000 0.00000000 
311637996 0.00000000 0.00000000 -41.46772540 -140.01847896 0.00000000 0.00000000 0.00000000 0.00000000 
313555514 0.00000000 0.00000000 -41.66777538 -140.08773300 0.00000000 0.00000000 0.00000000 0.00000000 
315473034 0.00000000 0.00000000 -41.34732570 -140.50739263 0.00000000 0.00000000 0.00000000 0.00000000 
317390552 0.00000000 0.00000000 -41.41841592 -137.87629537 0.00000000 0.00000000 0.00000000 0.00000000 
319308070 0.00000000 0.00000000 -41.34575273 -138.41079434 0.00000000 0.00000000 0.00000000 0.00000000 
321225588 0.00000000 0.00000000 -41.59836903 -136.80376403 0.00000000 0.00000000 0.00000000 0.00000000 
323143108 0.00000000 0.00000000 -40.83576153 -135.47985008 0.00000000 0.00000000 0.00000000 0.00000000 
325060626 0.00000000 0.00000000 -40.99865764 -139.29813335 0.00000000 0.00000000 0.00000000 0.00000000 
326978144 0.00000000 0.00000000 -40.91940864 -139.95060771 0.00000000 0.00000000 0.00000000 0.00000000 
328895662 0.00000000 0.00000000 -40.62875047 -140.06337074 0.00000000 0.00000000 0.00000000 0.00000000 
330813182 0.00000000 0.00000000 -39.89733430 -141.39849474 0.00000000 0.00000000 0.00000000 0.00000000 
332730700 0.00000000 0.00000000 -39.88289946 -142.43385444 0.00000000 0.00000000 0.00000000 0.00000000 
334648218 0.00000000 0.00000000 -39.72839904 -144.02603189 0.00000000 0.00000000 0.00000000 0.00000000 
336565736 0.00000000 0.00000000 -39.65686157 -145.30491407 0.00000000 0.00000000 0.00000000 0.00000000 
338483256 0.00000000 0.00000000 -38.82365773 -145.88422496 0.00000000 0.00000000 0.00000000 0.00000000 
340400774 0.00000000 0.00000000 -38.87625530 -149.48958059 0.00000000 0.00000000 0.00000000 0.00000000 
342318292 0.00000000 0.00000000 -38.52525407 -153.04546612 0.00000000 0.00000000 0.00000000 0.00000000 
344235810 0.00000000 0.00000000 -38.26620573 -154.15534108 0.00000000 0.00000000 0.00000000 0.00000000 
346153330 0.00000000 0.00000000 -37.34386937 -155.93841631 0.00000000 0.00000000 0.00000000 0.00000000 
348070848 0.00000000 0.00000000 -37.97102323 -160.62618102 0.00000000 0.00000000 0.00000000 0.00000000 
349988366 0.00000000 0.00000000 -37.73805054 -166.35172569 0.00000000 0.00000000 0.00000000 0.00000000 
351905884 0.00000000 0.00000000 -37.24780946 -170.67613411 0.00000000 0.00000000 0.00000000 0.00000000 
353823404 0.00000000 0.00000000 -36.28593813 -173.06565653 0.00000000 0.00000000 0.00000000 0.00000000 
355740922 0.00000000 0.00000000 -37.20570834 -176.95751628 0.00000000 0.00000000 0.00000000 0.00000000 
357658440 0.00000000 0.00000000 -37.53682640 176.62363410 0.00000000 0.00000000 0.00000000 0.00000000 
359575958 0.00000000 0.00000000 -37.24586657 172.54031998 0.00000000 0.00000000 0.00000000 0.00000000 
361493478 0.00000000 0.00000000 -36.65117687 167.54195935 0.00000000 0.00000000 0.00000000 0.00000000 
363410996 0.00000000 0.00000000 -37.72760052 161.61052745 0.00000000 0.00000000 0.00000000 0.00000000 
365328514 0.00000000 0.00000000 -38.20952743 154.31292280 0.00000000 0.00000000 0.00000000 0.00000000 
367246032 0.00000000 0.00000000 -37.69607299 147.58543440 0.00000000 0.00000000 0.00000000 0.00000000 
