! created by ADMIN at Mon Apr 20 18:41:25 IST 2026
! generated using vna/J Version 3.2.10
# Hz S DB R 50
001000000 0.00000000 0.00000000 -63.70973188 62.62580935 0.00000000 0.00000000 0.00000000 0.00000000 
002917518 0.00000000 0.00000000 -69.77145456 113.00375010 0.00000000 0.00000000 0.00000000 0.00000000 
004835036 0.00000000 0.00000000 -72.13484099 165.29919193 0.00000000 0.00000000 0.00000000 0.00000000 
006752554 0.00000000 0.00000000 -71.33901306 -92.40304343 0.00000000 0.00000000 0.00000000 0.00000000 
008670074 0.00000000 0.00000000 -65.20178037 -119.24670555 0.00000000 0.00000000 0.00000000 0.00000000 
010587592 0.00000000 0.00000000 -70.57149143 -98.47407041 0.00000000 0.00000000 0.00000000 0.00000000 
012505110 0.00000000 0.00000000 -71.54398285 -80.92540756 0.00000000 0.00000000 0.00000000 0.00000000 
014422628 0.00000000 0.00000000 -71.77942667 -72.47476524 0.00000000 0.00000000 0.00000000 0.00000000 
016340148 0.00000000 0.00000000 -70.60608010 -55.49951780 0.00000000 0.00000000 0.00000000 0.00000000 
018257666 0.00000000 0.00000000 -72.13937397 -14.28373247 0.00000000 0.00000000 0.00000000 0.00000000 
020175184 0.00000000 0.00000000 -73.86133262 15.79237699 0.00000000 0.00000000 0.00000000 0.00000000 
022092702 0.00000000 0.00000000 -74.17975618 34.34176968 0.00000000 0.00000000 0.00000000 0.00000000 
024010222 0.00000000 0.00000000 -72.78167123 177.61189345 0.00000000 0.00000000 0.00000000 0.00000000 
025927740 0.00000000 0.00000000 -74.90318521 -8.03645392 0.00000000 0.00000000 0.00000000 0.00000000 
027845258 0.00000000 0.00000000 -80.00000000 169.22016109 0.00000000 0.00000000 0.00000000 0.00000000 
029762776 0.00000000 0.00000000 -79.42767429 -159.18007979 0.00000000 0.00000000 0.00000000 0.00000000 
031680296 0.00000000 0.00000000 -70.66892482 27.33047199 0.00000000 0.00000000 0.00000000 0.00000000 
033597814 0.00000000 0.00000000 -79.61087694 -44.83345506 0.00000000 0.00000000 0.00000000 0.00000000 
035515332 0.00000000 0.00000000 -79.48615008 29.97425812 0.00000000 0.00000000 0.00000000 0.00000000 
037432850 0.00000000 0.00000000 -76.75432037 -140.01639998 0.00000000 0.00000000 0.00000000 0.00000000 
039350370 0.00000000 0.00000000 -80.00000000 21.33865897 0.00000000 0.00000000 0.00000000 0.00000000 
041267888 0.00000000 0.00000000 -76.15440609 -99.11817241 0.00000000 0.00000000 0.00000000 0.00000000 
043185406 0.00000000 0.00000000 -68.84018055 -109.00963447 0.00000000 0.00000000 0.00000000 0.00000000 
045102924 0.00000000 0.00000000 -73.27613727 -91.86560915 0.00000000 0.00000000 0.00000000 0.00000000 
047020444 0.00000000 0.00000000 -64.72367573 -76.57441058 0.00000000 0.00000000 0.00000000 0.00000000 
048937962 0.00000000 0.00000000 -69.46713121 -89.23418127 0.00000000 0.00000000 0.00000000 0.00000000 
050855480 0.00000000 0.00000000 -74.33998714 -50.58632772 0.00000000 0.00000000 0.00000000 0.00000000 
052772998 0.00000000 0.00000000 -73.76075712 -9.26690444 0.00000000 0.00000000 0.00000000 0.00000000 
054690518 0.00000000 0.00000000 -69.54380117 54.83931095 0.00000000 0.00000000 0.00000000 0.00000000 
056608036 0.00000000 0.00000000 -66.65776246 90.27819418 0.00000000 0.00000000 0.00000000 0.00000000 
058525554 0.00000000 0.00000000 -74.99759431 108.55235188 0.00000000 0.00000000 0.00000000 0.00000000 
060443072 0.00000000 0.00000000 -75.31287544 10.49538331 0.00000000 0.00000000 0.00000000 0.00000000 
062360592 0.00000000 0.00000000 -80.00000000 -55.62819504 0.00000000 0.00000000 0.00000000 0.00000000 
064278110 0.00000000 0.00000000 -78.30546358 108.61310624 0.00000000 0.00000000 0.00000000 0.00000000 
066195628 0.00000000 0.00000000 -70.06404886 -142.67868044 0.00000000 0.00000000 0.00000000 0.00000000 
068113146 0.00000000 0.00000000 -76.00985752 -166.44787533 0.00000000 0.00000000 0.00000000 0.00000000 
070030666 0.00000000 0.00000000 -72.87023039 140.94330776 0.00000000 0.00000000 0.00000000 0.00000000 
071948184 0.00000000 0.00000000 -72.22596927 -114.24322934 0.00000000 0.00000000 0.00000000 0.00000000 
073865702 0.00000000 0.00000000 -71.26649852 -111.24189851 0.00000000 0.00000000 0.00000000 0.00000000 
075783220 0.00000000 0.00000000 -72.67939619 -88.87924219 0.00000000 0.00000000 0.00000000 0.00000000 
077700740 0.00000000 0.00000000 -72.34334649 -46.19496291 0.00000000 0.00000000 0.00000000 0.00000000 
079618258 0.00000000 0.00000000 -68.08027292 -55.82539604 0.00000000 0.00000000 0.00000000 0.00000000 
081535776 0.00000000 0.00000000 -70.37343467 -7.25905448 0.00000000 0.00000000 0.00000000 0.00000000 
083453294 0.00000000 0.00000000 -68.24232659 -26.00231735 0.00000000 0.00000000 0.00000000 0.00000000 
085370814 0.00000000 0.00000000 -74.77001946 -39.54527462 0.00000000 0.00000000 0.00000000 0.00000000 
087288332 0.00000000 0.00000000 -71.24717269 -66.01162746 0.00000000 0.00000000 0.00000000 0.00000000 
089205850 0.00000000 0.00000000 -71.71834219 57.10299639 0.00000000 0.00000000 0.00000000 0.00000000 
091123368 0.00000000 0.00000000 -72.22566423 71.65532714 0.00000000 0.00000000 0.00000000 0.00000000 
093040888 0.00000000 0.00000000 -69.82346184 127.22485583 0.00000000 0.00000000 0.00000000 0.00000000 
094958406 0.00000000 0.00000000 -70.41485061 141.73484836 0.00000000 0.00000000 0.00000000 0.00000000 
096875924 0.00000000 0.00000000 -72.68047115 142.56493861 0.00000000 0.00000000 0.00000000 0.00000000 
098793442 0.00000000 0.00000000 -75.93462917 164.50623344 0.00000000 0.00000000 0.00000000 0.00000000 
100710962 0.00000000 0.00000000 -74.39544136 -152.74545497 0.00000000 0.00000000 0.00000000 0.00000000 
102628480 0.00000000 0.00000000 -72.55851812 123.01762224 0.00000000 0.00000000 0.00000000 0.00000000 
104545998 0.00000000 0.00000000 -66.65860850 159.46128128 0.00000000 0.00000000 0.00000000 0.00000000 
106463516 0.00000000 0.00000000 -64.29497168 161.60189697 0.00000000 0.00000000 0.00000000 0.00000000 
108381036 0.00000000 0.00000000 -67.31697254 123.70770872 0.00000000 0.00000000 0.00000000 0.00000000 
110298554 0.00000000 0.00000000 -66.61048245 166.62341636 0.00000000 0.00000000 0.00000000 0.00000000 
112216072 0.00000000 0.00000000 -65.68474232 133.28806941 0.00000000 0.00000000 0.00000000 0.00000000 
114133590 0.00000000 0.00000000 -66.57753558 154.91998118 0.00000000 0.00000000 0.00000000 0.00000000 
116051110 0.00000000 0.00000000 -69.49557826 78.59533305 0.00000000 0.00000000 0.00000000 0.00000000 
117968628 0.00000000 0.00000000 -71.39770101 107.65904845 0.00000000 0.00000000 0.00000000 0.00000000 
119886146 0.00000000 0.00000000 -80.00000000 126.90805742 0.00000000 0.00000000 0.00000000 0.00000000 
121803664 0.00000000 0.00000000 -80.00000000 -133.38639553 0.00000000 0.00000000 0.00000000 0.00000000 
123721184 0.00000000 0.00000000 -70.01941422 150.77857053 0.00000000 0.00000000 0.00000000 0.00000000 
125638702 0.00000000 0.00000000 -71.03528797 -131.11807923 0.00000000 0.00000000 0.00000000 0.00000000 
127556220 0.00000000 0.00000000 -73.79592384 -73.19606052 0.00000000 0.00000000 0.00000000 0.00000000 
129473738 0.00000000 0.00000000 -72.71072834 -97.30541392 0.00000000 0.00000000 0.00000000 0.00000000 
131391258 0.00000000 0.00000000 -73.79957315 -108.81290853 0.00000000 0.00000000 0.00000000 0.00000000 
133308776 0.00000000 0.00000000 -68.00805139 -144.59094961 0.00000000 0.00000000 0.00000000 0.00000000 
135226294 0.00000000 0.00000000 -71.25882941 75.54320467 0.00000000 0.00000000 0.00000000 0.00000000 
137143812 0.00000000 0.00000000 -68.49284009 26.69232416 0.00000000 0.00000000 0.00000000 0.00000000 
139061332 0.00000000 0.00000000 -68.39709079 51.00624996 0.00000000 0.00000000 0.00000000 0.00000000 
140978850 0.00000000 0.00000000 -69.36858364 73.57709690 0.00000000 0.00000000 0.00000000 0.00000000 
142896368 0.00000000 0.00000000 -68.21935345 87.56409564 0.00000000 0.00000000 0.00000000 0.00000000 
144813886 0.00000000 0.00000000 -69.62807804 -155.40689528 0.00000000 0.00000000 0.00000000 0.00000000 
146731406 0.00000000 0.00000000 -64.36296387 -150.42425610 0.00000000 0.00000000 0.00000000 0.00000000 
148648924 0.00000000 0.00000000 -68.95184647 -156.42574038 0.00000000 0.00000000 0.00000000 0.00000000 
150566442 0.00000000 0.00000000 -69.35612449 -136.20958202 0.00000000 0.00000000 0.00000000 0.00000000 
152483960 0.00000000 0.00000000 -71.61801934 -81.91532916 0.00000000 0.00000000 0.00000000 0.00000000 
154401480 0.00000000 0.00000000 -69.67569340 -116.72339308 0.00000000 0.00000000 0.00000000 0.00000000 
156318998 0.00000000 0.00000000 -66.80830742 -135.52756568 0.00000000 0.00000000 0.00000000 0.00000000 
158236516 0.00000000 0.00000000 -67.07559376 -112.53241369 0.00000000 0.00000000 0.00000000 0.00000000 
160154034 0.00000000 0.00000000 -69.84325374 -149.41234971 0.00000000 0.00000000 0.00000000 0.00000000 
162071554 0.00000000 0.00000000 -66.41816593 -161.10583921 0.00000000 0.00000000 0.00000000 0.00000000 
163989072 0.00000000 0.00000000 -63.19481898 -158.31533580 0.00000000 0.00000000 0.00000000 0.00000000 
165906590 0.00000000 0.00000000 -71.33352785 155.15002585 0.00000000 0.00000000 0.00000000 0.00000000 
167824108 0.00000000 0.00000000 -62.46102001 -169.15934728 0.00000000 0.00000000 0.00000000 0.00000000 
169741628 0.00000000 0.00000000 -63.62625928 161.09339669 0.00000000 0.00000000 0.00000000 0.00000000 
171659146 0.00000000 0.00000000 -63.77831002 161.30480686 0.00000000 0.00000000 0.00000000 0.00000000 
173576664 0.00000000 0.00000000 -67.34030384 161.53783992 0.00000000 0.00000000 0.00000000 0.00000000 
175494182 0.00000000 0.00000000 -71.59457579 117.41060838 0.00000000 0.00000000 0.00000000 0.00000000 
177411702 0.00000000 0.00000000 -70.43823677 70.09558244 0.00000000 0.00000000 0.00000000 0.00000000 
179329220 0.00000000 0.00000000 -66.55305840 68.28796435 0.00000000 0.00000000 0.00000000 0.00000000 
181246738 0.00000000 0.00000000 -68.64122413 77.02845800 0.00000000 0.00000000 0.00000000 0.00000000 
183164256 0.00000000 0.00000000 -62.35636184 118.92459162 0.00000000 0.00000000 0.00000000 0.00000000 
185081776 0.00000000 0.00000000 -69.77799869 122.01871337 0.00000000 0.00000000 0.00000000 0.00000000 
186999294 0.00000000 0.00000000 -73.75624518 20.16671579 0.00000000 0.00000000 0.00000000 0.00000000 
188916812 0.00000000 0.00000000 -78.80744382 19.82724329 0.00000000 0.00000000 0.00000000 0.00000000 
190834330 0.00000000 0.00000000 -67.48232854 -44.62949697 0.00000000 0.00000000 0.00000000 0.00000000 
192751850 0.00000000 0.00000000 -65.15974567 -30.36245815 0.00000000 0.00000000 0.00000000 0.00000000 
194669368 0.00000000 0.00000000 -63.06366003 -11.07159505 0.00000000 0.00000000 0.00000000 0.00000000 
196586886 0.00000000 0.00000000 -64.62593665 -0.27311284 0.00000000 0.00000000 0.00000000 0.00000000 
198504404 0.00000000 0.00000000 -65.56479795 16.50539261 0.00000000 0.00000000 0.00000000 0.00000000 
200421924 0.00000000 0.00000000 -63.59538598 41.43139992 0.00000000 0.00000000 0.00000000 0.00000000 
202339442 0.00000000 0.00000000 -71.42471646 50.00550971 0.00000000 0.00000000 0.00000000 0.00000000 
204256960 0.00000000 0.00000000 -80.00000000 -95.99724781 0.00000000 0.00000000 0.00000000 0.00000000 
206174478 0.00000000 0.00000000 -73.62605279 34.89600662 0.00000000 0.00000000 0.00000000 0.00000000 
208091998 0.00000000 0.00000000 -78.23635780 -116.61497267 0.00000000 0.00000000 0.00000000 0.00000000 
210009516 0.00000000 0.00000000 -73.85722956 -27.63300254 0.00000000 0.00000000 0.00000000 0.00000000 
211927034 0.00000000 0.00000000 -75.43801429 -128.43427981 0.00000000 0.00000000 0.00000000 0.00000000 
213844552 0.00000000 0.00000000 -78.11080182 -56.29838049 0.00000000 0.00000000 0.00000000 0.00000000 
215762072 0.00000000 0.00000000 -66.05860448 -56.34511917 0.00000000 0.00000000 0.00000000 0.00000000 
217679590 0.00000000 0.00000000 -75.76396508 -90.05313821 0.00000000 0.00000000 0.00000000 0.00000000 
219597108 0.00000000 0.00000000 -80.00000000 64.85538528 0.00000000 0.00000000 0.00000000 0.00000000 
221514626 0.00000000 0.00000000 -71.24075498 -50.62805020 0.00000000 0.00000000 0.00000000 0.00000000 
223432146 0.00000000 0.00000000 -79.74002358 -71.61264763 0.00000000 0.00000000 0.00000000 0.00000000 
225349664 0.00000000 0.00000000 -68.70633306 166.23698153 0.00000000 0.00000000 0.00000000 0.00000000 
227267182 0.00000000 0.00000000 -67.69680397 151.10633671 0.00000000 0.00000000 0.00000000 0.00000000 
229184700 0.00000000 0.00000000 -65.93875569 173.04989487 0.00000000 0.00000000 0.00000000 0.00000000 
231102220 0.00000000 0.00000000 -66.79467629 152.43224650 0.00000000 0.00000000 0.00000000 0.00000000 
233019738 0.00000000 0.00000000 -67.64751767 -174.86033083 0.00000000 0.00000000 0.00000000 0.00000000 
234937256 0.00000000 0.00000000 -71.63861779 153.81189178 0.00000000 0.00000000 0.00000000 0.00000000 
236854774 0.00000000 0.00000000 -64.27349779 153.71046442 0.00000000 0.00000000 0.00000000 0.00000000 
238772294 0.00000000 0.00000000 -70.17592890 -175.29373738 0.00000000 0.00000000 0.00000000 0.00000000 
240689812 0.00000000 0.00000000 -67.06197133 172.09830212 0.00000000 0.00000000 0.00000000 0.00000000 
242607330 0.00000000 0.00000000 -70.35670696 -170.77297479 0.00000000 0.00000000 0.00000000 0.00000000 
244524848 0.00000000 0.00000000 -66.10057589 -175.50872470 0.00000000 0.00000000 0.00000000 0.00000000 
246442368 0.00000000 0.00000000 -65.40525396 174.73502444 0.00000000 0.00000000 0.00000000 0.00000000 
248359886 0.00000000 0.00000000 -75.15428765 -141.69245089 0.00000000 0.00000000 0.00000000 0.00000000 
250277404 0.00000000 0.00000000 -65.88033721 -111.47017718 0.00000000 0.00000000 0.00000000 0.00000000 
252194922 0.00000000 0.00000000 -78.88558565 -131.46866618 0.00000000 0.00000000 0.00000000 0.00000000 
254112442 0.00000000 0.00000000 -73.78012801 -135.74068595 0.00000000 0.00000000 0.00000000 0.00000000 
256029960 0.00000000 0.00000000 -73.94790501 -163.79271157 0.00000000 0.00000000 0.00000000 0.00000000 
257947478 0.00000000 0.00000000 -76.51007677 -97.65313692 0.00000000 0.00000000 0.00000000 0.00000000 
259864996 0.00000000 0.00000000 -76.37114731 -11.77490391 0.00000000 0.00000000 0.00000000 0.00000000 
261782516 0.00000000 0.00000000 -73.60984656 76.46066190 0.00000000 0.00000000 0.00000000 0.00000000 
263700034 0.00000000 0.00000000 -78.85278864 -86.46068438 0.00000000 0.00000000 0.00000000 0.00000000 
265617552 0.00000000 0.00000000 -73.97771784 -170.71650962 0.00000000 0.00000000 0.00000000 0.00000000 
267535070 0.00000000 0.00000000 -78.29407027 -55.18311401 0.00000000 0.00000000 0.00000000 0.00000000 
269452590 0.00000000 0.00000000 -71.41270263 -74.18571456 0.00000000 0.00000000 0.00000000 0.00000000 
271370108 0.00000000 0.00000000 -65.75950667 -63.05520685 0.00000000 0.00000000 0.00000000 0.00000000 
273287626 0.00000000 0.00000000 -74.77351682 -44.28699909 0.00000000 0.00000000 0.00000000 0.00000000 
275205144 0.00000000 0.00000000 -74.19414583 125.08289875 0.00000000 0.00000000 0.00000000 0.00000000 
277122664 0.00000000 0.00000000 -71.07403984 -110.11399796 0.00000000 0.00000000 0.00000000 0.00000000 
279040182 0.00000000 0.00000000 -76.59045061 -8.58767477 0.00000000 0.00000000 0.00000000 0.00000000 
280957700 0.00000000 0.00000000 -64.70814199 -178.57175853 0.00000000 0.00000000 0.00000000 0.00000000 
282875218 0.00000000 0.00000000 -68.05010831 -109.01359862 0.00000000 0.00000000 0.00000000 0.00000000 
284792738 0.00000000 0.00000000 -67.12525895 -117.25934523 0.00000000 0.00000000 0.00000000 0.00000000 
286710256 0.00000000 0.00000000 -64.92178640 -87.77215758 0.00000000 0.00000000 0.00000000 0.00000000 
288627774 0.00000000 0.00000000 -73.09324733 -120.36284528 0.00000000 0.00000000 0.00000000 0.00000000 
290545292 0.00000000 0.00000000 -67.79241390 -52.34874212 0.00000000 0.00000000 0.00000000 0.00000000 
292462812 0.00000000 0.00000000 -71.73778456 67.65309159 0.00000000 0.00000000 0.00000000 0.00000000 
294380330 0.00000000 0.00000000 -69.96741412 166.88672447 0.00000000 0.00000000 0.00000000 0.00000000 
296297848 0.00000000 0.00000000 -67.37918625 -15.87026666 0.00000000 0.00000000 0.00000000 0.00000000 
298215366 0.00000000 0.00000000 -67.23820448 83.20899185 0.00000000 0.00000000 0.00000000 0.00000000 
300132886 0.00000000 0.00000000 -63.56067320 72.07372576 0.00000000 0.00000000 0.00000000 0.00000000 
302050404 0.00000000 0.00000000 -64.09652119 67.96495785 0.00000000 0.00000000 0.00000000 0.00000000 
303967922 0.00000000 0.00000000 -64.64969397 69.12418254 0.00000000 0.00000000 0.00000000 0.00000000 
305885440 0.00000000 0.00000000 -62.90353360 88.07406562 0.00000000 0.00000000 0.00000000 0.00000000 
307802960 0.00000000 0.00000000 -65.04282313 76.78350644 0.00000000 0.00000000 0.00000000 0.00000000 
309720478 0.00000000 0.00000000 -67.50365066 68.68684806 0.00000000 0.00000000 0.00000000 0.00000000 
311637996 0.00000000 0.00000000 -72.61116545 -3.85203277 0.00000000 0.00000000 0.00000000 0.00000000 
313555514 0.00000000 0.00000000 -63.64745852 -27.29600810 0.00000000 0.00000000 0.00000000 0.00000000 
315473034 0.00000000 0.00000000 -60.30152960 -42.32667915 0.00000000 0.00000000 0.00000000 0.00000000 
317390552 0.00000000 0.00000000 -59.11259153 -47.83370195 0.00000000 0.00000000 0.00000000 0.00000000 
319308070 0.00000000 0.00000000 -61.87569305 -53.76185068 0.00000000 0.00000000 0.00000000 0.00000000 
321225588 0.00000000 0.00000000 -61.25112245 -31.72725384 0.00000000 0.00000000 0.00000000 0.00000000 
323143108 0.00000000 0.00000000 -61.79280906 -71.19614308 0.00000000 0.00000000 0.00000000 0.00000000 
325060626 0.00000000 0.00000000 -70.00083044 -92.72061294 0.00000000 0.00000000 0.00000000 0.00000000 
326978144 0.00000000 0.00000000 -71.69388325 -94.08986309 0.00000000 0.00000000 0.00000000 0.00000000 
328895662 0.00000000 0.00000000 -73.08992833 -99.18925976 0.00000000 0.00000000 0.00000000 0.00000000 
330813182 0.00000000 0.00000000 -65.51637277 -169.79403127 0.00000000 0.00000000 0.00000000 0.00000000 
332730700 0.00000000 0.00000000 -62.98055147 -143.80460576 0.00000000 0.00000000 0.00000000 0.00000000 
334648218 0.00000000 0.00000000 -62.44003793 -133.53684661 0.00000000 0.00000000 0.00000000 0.00000000 
336565736 0.00000000 0.00000000 -67.30807914 -107.05762687 0.00000000 0.00000000 0.00000000 0.00000000 
338483256 0.00000000 0.00000000 -63.75342093 -119.49471658 0.00000000 0.00000000 0.00000000 0.00000000 
340400774 0.00000000 0.00000000 -62.82194858 -134.44266316 0.00000000 0.00000000 0.00000000 0.00000000 
342318292 0.00000000 0.00000000 -60.75688869 -145.60916743 0.00000000 0.00000000 0.00000000 0.00000000 
344235810 0.00000000 0.00000000 -62.59511467 -120.44185843 0.00000000 0.00000000 0.00000000 0.00000000 
346153330 0.00000000 0.00000000 -60.20924441 -139.13923240 0.00000000 0.00000000 0.00000000 0.00000000 
348070848 0.00000000 0.00000000 -63.47681482 -132.11445663 0.00000000 0.00000000 0.00000000 0.00000000 
349988366 0.00000000 0.00000000 -60.80345688 -148.81201666 0.00000000 0.00000000 0.00000000 0.00000000 
351905884 0.00000000 0.00000000 -59.77608259 -146.53036651 0.00000000 0.00000000 0.00000000 0.00000000 
353823404 0.00000000 0.00000000 -56.88858438 -146.66023795 0.00000000 0.00000000 0.00000000 0.00000000 
355740922 0.00000000 0.00000000 -61.19404344 -127.02291535 0.00000000 0.00000000 0.00000000 0.00000000 
357658440 0.00000000 0.00000000 -67.80536585 -123.60815016 0.00000000 0.00000000 0.00000000 0.00000000 
359575958 0.00000000 0.00000000 -65.16392305 -119.76545692 0.00000000 0.00000000 0.00000000 0.00000000 
361493478 0.00000000 0.00000000 -74.58301081 -138.23888772 0.00000000 0.00000000 0.00000000 0.00000000 
363410996 0.00000000 0.00000000 -78.96262215 168.40399963 0.00000000 0.00000000 0.00000000 0.00000000 
365328514 0.00000000 0.00000000 -69.17862828 -170.41050414 0.00000000 0.00000000 0.00000000 0.00000000 
367246032 0.00000000 0.00000000 -59.38398894 -175.93288321 0.00000000 0.00000000 0.00000000 0.00000000 
