! created by ADMIN at Mon Apr 20 18:52:54 IST 2026
! generated using vna/J Version 3.2.10
# Hz S DB R 50
001000000 0.00000000 0.00000000 -65.99891815 45.05952538 0.00000000 0.00000000 0.00000000 0.00000000 
002917518 0.00000000 0.00000000 -70.62306506 41.54085067 0.00000000 0.00000000 0.00000000 0.00000000 
004835036 0.00000000 0.00000000 -68.90540958 25.88786032 0.00000000 0.00000000 0.00000000 0.00000000 
006752554 0.00000000 0.00000000 -63.07911132 6.42872637 0.00000000 0.00000000 0.00000000 0.00000000 
008670074 0.00000000 0.00000000 -65.22880757 17.16362811 0.00000000 0.00000000 0.00000000 0.00000000 
010587592 0.00000000 0.00000000 -61.54312000 32.86854643 0.00000000 0.00000000 0.00000000 0.00000000 
012505110 0.00000000 0.00000000 -60.52758487 38.89239580 0.00000000 0.00000000 0.00000000 0.00000000 
014422628 0.00000000 0.00000000 -60.00744390 45.27482552 0.00000000 0.00000000 0.00000000 0.00000000 
016340148 0.00000000 0.00000000 -59.35785398 48.77822985 0.00000000 0.00000000 0.00000000 0.00000000 
018257666 0.00000000 0.00000000 -58.61589154 48.72079602 0.00000000 0.00000000 0.00000000 0.00000000 
020175184 0.00000000 0.00000000 -58.47146873 50.22658214 0.00000000 0.00000000 0.00000000 0.00000000 
022092702 0.00000000 0.00000000 -58.24651117 49.30875690 0.00000000 0.00000000 0.00000000 0.00000000 
024010222 0.00000000 0.00000000 -60.30408317 58.79693090 0.00000000 0.00000000 0.00000000 0.00000000 
025927740 0.00000000 0.00000000 -58.06313600 41.52752226 0.00000000 0.00000000 0.00000000 0.00000000 
027845258 0.00000000 0.00000000 -58.54616097 52.12630043 0.00000000 0.00000000 0.00000000 0.00000000 
029762776 0.00000000 0.00000000 -58.30164089 53.39058972 0.00000000 0.00000000 0.00000000 0.00000000 
031680296 0.00000000 0.00000000 -55.47205714 49.33298769 0.00000000 0.00000000 0.00000000 0.00000000 
033597814 0.00000000 0.00000000 -57.06784464 49.30627207 0.00000000 0.00000000 0.00000000 0.00000000 
035515332 0.00000000 0.00000000 -56.24056146 51.86251749 0.00000000 0.00000000 0.00000000 0.00000000 
037432850 0.00000000 0.00000000 -57.27876010 55.17065974 0.00000000 0.00000000 0.00000000 0.00000000 
039350370 0.00000000 0.00000000 -55.64706896 53.71132337 0.00000000 0.00000000 0.00000000 0.00000000 
041267888 0.00000000 0.00000000 -55.27738585 58.15277058 0.00000000 0.00000000 0.00000000 0.00000000 
043185406 0.00000000 0.00000000 -55.01300365 64.87356294 0.00000000 0.00000000 0.00000000 0.00000000 
045102924 0.00000000 0.00000000 -53.15216702 70.74537036 0.00000000 0.00000000 0.00000000 0.00000000 
047020444 0.00000000 0.00000000 -53.26283837 72.52812058 0.00000000 0.00000000 0.00000000 0.00000000 
048937962 0.00000000 0.00000000 -53.02395755 73.01075261 0.00000000 0.00000000 0.00000000 0.00000000 
050855480 0.00000000 0.00000000 -52.23417123 67.05522817 0.00000000 0.00000000 0.00000000 0.00000000 
052772998 0.00000000 0.00000000 -51.36593846 62.62149425 0.00000000 0.00000000 0.00000000 0.00000000 
054690518 0.00000000 0.00000000 -49.92154016 63.14453705 0.00000000 0.00000000 0.00000000 0.00000000 
056608036 0.00000000 0.00000000 -49.60753828 66.24267896 0.00000000 0.00000000 0.00000000 0.00000000 
058525554 0.00000000 0.00000000 -50.09841153 63.58670054 0.00000000 0.00000000 0.00000000 0.00000000 
060443072 0.00000000 0.00000000 -49.62436325 58.53762632 0.00000000 0.00000000 0.00000000 0.00000000 
062360592 0.00000000 0.00000000 -49.34428317 60.49814728 0.00000000 0.00000000 0.00000000 0.00000000 
064278110 0.00000000 0.00000000 -48.69083195 66.87938419 0.00000000 0.00000000 0.00000000 0.00000000 
066195628 0.00000000 0.00000000 -49.14065873 72.83818124 0.00000000 0.00000000 0.00000000 0.00000000 
068113146 0.00000000 0.00000000 -48.27695681 77.01007271 0.00000000 0.00000000 0.00000000 0.00000000 
070030666 0.00000000 0.00000000 -47.46109670 82.92949729 0.00000000 0.00000000 0.00000000 0.00000000 
071948184 0.00000000 0.00000000 -47.71857916 73.69620302 0.00000000 0.00000000 0.00000000 0.00000000 
073865702 0.00000000 0.00000000 -46.74964043 68.69239877 0.00000000 0.00000000 0.00000000 0.00000000 
075783220 0.00000000 0.00000000 -45.38060984 66.09319684 0.00000000 0.00000000 0.00000000 0.00000000 
077700740 0.00000000 0.00000000 -43.92771081 66.06588606 0.00000000 0.00000000 0.00000000 0.00000000 
079618258 0.00000000 0.00000000 -44.65364135 61.57457091 0.00000000 0.00000000 0.00000000 0.00000000 
081535776 0.00000000 0.00000000 -44.38401670 57.87557170 0.00000000 0.00000000 0.00000000 0.00000000 
083453294 0.00000000 0.00000000 -44.20214521 52.65927949 0.00000000 0.00000000 0.00000000 0.00000000 
085370814 0.00000000 0.00000000 -43.65362729 51.48208640 0.00000000 0.00000000 0.00000000 0.00000000 
087288332 0.00000000 0.00000000 -44.49492100 49.00344033 0.00000000 0.00000000 0.00000000 0.00000000 
089205850 0.00000000 0.00000000 -44.33432892 48.46537208 0.00000000 0.00000000 0.00000000 0.00000000 
091123368 0.00000000 0.00000000 -44.39868820 45.12705434 0.00000000 0.00000000 0.00000000 0.00000000 
093040888 0.00000000 0.00000000 -44.30357101 43.31296941 0.00000000 0.00000000 0.00000000 0.00000000 
094958406 0.00000000 0.00000000 -44.98657123 43.91172285 0.00000000 0.00000000 0.00000000 0.00000000 
096875924 0.00000000 0.00000000 -45.42644315 42.84616566 0.00000000 0.00000000 0.00000000 0.00000000 
098793442 0.00000000 0.00000000 -45.75503464 40.50983525 0.00000000 0.00000000 0.00000000 0.00000000 
100710962 0.00000000 0.00000000 -45.93221283 37.61695201 0.00000000 0.00000000 0.00000000 0.00000000 
102628480 0.00000000 0.00000000 -46.37300480 44.27146245 0.00000000 0.00000000 0.00000000 0.00000000 
104545998 0.00000000 0.00000000 -47.68285186 50.72140596 0.00000000 0.00000000 0.00000000 0.00000000 
106463516 0.00000000 0.00000000 -48.74170015 55.87030357 0.00000000 0.00000000 0.00000000 0.00000000 
108381036 0.00000000 0.00000000 -48.86892088 54.65864877 0.00000000 0.00000000 0.00000000 0.00000000 
110298554 0.00000000 0.00000000 -47.89473907 62.69667780 0.00000000 0.00000000 0.00000000 0.00000000 
112216072 0.00000000 0.00000000 -45.89018421 70.38453032 0.00000000 0.00000000 0.00000000 0.00000000 
114133590 0.00000000 0.00000000 -44.97553933 78.11346915 0.00000000 0.00000000 0.00000000 0.00000000 
116051110 0.00000000 0.00000000 -43.64737831 81.76841028 0.00000000 0.00000000 0.00000000 0.00000000 
117968628 0.00000000 0.00000000 -44.21533212 77.78066661 0.00000000 0.00000000 0.00000000 0.00000000 
119886146 0.00000000 0.00000000 -44.39327470 71.27485305 0.00000000 0.00000000 0.00000000 0.00000000 
121803664 0.00000000 0.00000000 -44.01289679 65.99455114 0.00000000 0.00000000 0.00000000 0.00000000 
123721184 0.00000000 0.00000000 -42.94776999 65.59826631 0.00000000 0.00000000 0.00000000 0.00000000 
125638702 0.00000000 0.00000000 -43.77917030 62.58167077 0.00000000 0.00000000 0.00000000 0.00000000 
127556220 0.00000000 0.00000000 -43.79812473 58.91294003 0.00000000 0.00000000 0.00000000 0.00000000 
129473738 0.00000000 0.00000000 -43.79439121 57.40089495 0.00000000 0.00000000 0.00000000 0.00000000 
131391258 0.00000000 0.00000000 -43.38599795 56.30451970 0.00000000 0.00000000 0.00000000 0.00000000 
133308776 0.00000000 0.00000000 -43.72072177 59.98254589 0.00000000 0.00000000 0.00000000 0.00000000 
135226294 0.00000000 0.00000000 -42.91330989 60.85128143 0.00000000 0.00000000 0.00000000 0.00000000 
137143812 0.00000000 0.00000000 -42.72639322 60.25033878 0.00000000 0.00000000 0.00000000 0.00000000 
139061332 0.00000000 0.00000000 -42.41363591 63.07761621 0.00000000 0.00000000 0.00000000 0.00000000 
140978850 0.00000000 0.00000000 -42.34994930 65.69319917 0.00000000 0.00000000 0.00000000 0.00000000 
142896368 0.00000000 0.00000000 -42.11081063 68.00731748 0.00000000 0.00000000 0.00000000 0.00000000 
144813886 0.00000000 0.00000000 -42.46999652 70.71842841 0.00000000 0.00000000 0.00000000 0.00000000 
146731406 0.00000000 0.00000000 -42.29088375 74.24740330 0.00000000 0.00000000 0.00000000 0.00000000 
148648924 0.00000000 0.00000000 -41.91804130 72.11152548 0.00000000 0.00000000 0.00000000 0.00000000 
150566442 0.00000000 0.00000000 -41.63035563 70.67906659 0.00000000 0.00000000 0.00000000 0.00000000 
152483960 0.00000000 0.00000000 -41.04776993 68.95272161 0.00000000 0.00000000 0.00000000 0.00000000 
154401480 0.00000000 0.00000000 -40.51395200 71.06505240 0.00000000 0.00000000 0.00000000 0.00000000 
156318998 0.00000000 0.00000000 -40.56450175 69.06253693 0.00000000 0.00000000 0.00000000 0.00000000 
158236516 0.00000000 0.00000000 -40.24537228 65.48986511 0.00000000 0.00000000 0.00000000 0.00000000 
160154034 0.00000000 0.00000000 -39.52152116 65.17307943 0.00000000 0.00000000 0.00000000 0.00000000 
162071554 0.00000000 0.00000000 -38.84309134 65.86217297 0.00000000 0.00000000 0.00000000 0.00000000 
163989072 0.00000000 0.00000000 -39.46305930 65.66522106 0.00000000 0.00000000 0.00000000 0.00000000 
165906590 0.00000000 0.00000000 -39.30618026 62.96956263 0.00000000 0.00000000 0.00000000 0.00000000 
167824108 0.00000000 0.00000000 -39.65937086 62.82726177 0.00000000 0.00000000 0.00000000 0.00000000 
169741628 0.00000000 0.00000000 -39.08373143 61.62285512 0.00000000 0.00000000 0.00000000 0.00000000 
171659146 0.00000000 0.00000000 -39.42017464 60.63488029 0.00000000 0.00000000 0.00000000 0.00000000 
173576664 0.00000000 0.00000000 -39.47142659 58.08233289 0.00000000 0.00000000 0.00000000 0.00000000 
175494182 0.00000000 0.00000000 -39.10346143 55.70447182 0.00000000 0.00000000 0.00000000 0.00000000 
177411702 0.00000000 0.00000000 -38.56552912 54.13214011 0.00000000 0.00000000 0.00000000 0.00000000 
179329220 0.00000000 0.00000000 -38.88395418 55.46264953 0.00000000 0.00000000 0.00000000 0.00000000 
181246738 0.00000000 0.00000000 -39.28109092 56.06678114 0.00000000 0.00000000 0.00000000 0.00000000 
183164256 0.00000000 0.00000000 -39.40967656 58.87169695 0.00000000 0.00000000 0.00000000 0.00000000 
185081776 0.00000000 0.00000000 -39.55704877 56.47629767 0.00000000 0.00000000 0.00000000 0.00000000 
186999294 0.00000000 0.00000000 -39.19279770 56.22332718 0.00000000 0.00000000 0.00000000 0.00000000 
188916812 0.00000000 0.00000000 -38.82647735 58.86532725 0.00000000 0.00000000 0.00000000 0.00000000 
190834330 0.00000000 0.00000000 -38.48753231 60.12961489 0.00000000 0.00000000 0.00000000 0.00000000 
192751850 0.00000000 0.00000000 -37.90494432 62.90318334 0.00000000 0.00000000 0.00000000 0.00000000 
194669368 0.00000000 0.00000000 -38.50995004 60.12740470 0.00000000 0.00000000 0.00000000 0.00000000 
196586886 0.00000000 0.00000000 -38.96649351 56.97613187 0.00000000 0.00000000 0.00000000 0.00000000 
198504404 0.00000000 0.00000000 -39.03762065 52.83875562 0.00000000 0.00000000 0.00000000 0.00000000 
200421924 0.00000000 0.00000000 -38.59807697 49.03578733 0.00000000 0.00000000 0.00000000 0.00000000 
202339442 0.00000000 0.00000000 -39.25689701 49.83849455 0.00000000 0.00000000 0.00000000 0.00000000 
204256960 0.00000000 0.00000000 -39.74311406 49.43698546 0.00000000 0.00000000 0.00000000 0.00000000 
206174478 0.00000000 0.00000000 -39.60959540 48.78774511 0.00000000 0.00000000 0.00000000 0.00000000 
208091998 0.00000000 0.00000000 -39.76703643 48.42728564 0.00000000 0.00000000 0.00000000 0.00000000 
210009516 0.00000000 0.00000000 -39.86685288 52.75219372 0.00000000 0.00000000 0.00000000 0.00000000 
211927034 0.00000000 0.00000000 -40.25460281 59.20668855 0.00000000 0.00000000 0.00000000 0.00000000 
213844552 0.00000000 0.00000000 -40.36611320 63.48604824 0.00000000 0.00000000 0.00000000 0.00000000 
215762072 0.00000000 0.00000000 -40.75019890 66.57228991 0.00000000 0.00000000 0.00000000 0.00000000 
217679590 0.00000000 0.00000000 -40.00410208 69.92829090 0.00000000 0.00000000 0.00000000 0.00000000 
219597108 0.00000000 0.00000000 -39.18625889 72.41297946 0.00000000 0.00000000 0.00000000 0.00000000 
221514626 0.00000000 0.00000000 -38.60778364 74.44641238 0.00000000 0.00000000 0.00000000 0.00000000 
223432146 0.00000000 0.00000000 -37.84227871 79.16147487 0.00000000 0.00000000 0.00000000 0.00000000 
225349664 0.00000000 0.00000000 -37.80322725 78.19351936 0.00000000 0.00000000 0.00000000 0.00000000 
227267182 0.00000000 0.00000000 -37.45945019 75.74247878 0.00000000 0.00000000 0.00000000 0.00000000 
229184700 0.00000000 0.00000000 -37.01828764 74.53726245 0.00000000 0.00000000 0.00000000 0.00000000 
231102220 0.00000000 0.00000000 -36.18060717 73.93559459 0.00000000 0.00000000 0.00000000 0.00000000 
233019738 0.00000000 0.00000000 -36.45311835 72.82030896 0.00000000 0.00000000 0.00000000 0.00000000 
234937256 0.00000000 0.00000000 -36.24368329 71.31165611 0.00000000 0.00000000 0.00000000 0.00000000 
236854774 0.00000000 0.00000000 -35.89964007 71.83011743 0.00000000 0.00000000 0.00000000 0.00000000 
238772294 0.00000000 0.00000000 -35.50472158 70.69076262 0.00000000 0.00000000 0.00000000 0.00000000 
240689812 0.00000000 0.00000000 -35.50948231 69.64969456 0.00000000 0.00000000 0.00000000 0.00000000 
242607330 0.00000000 0.00000000 -35.30754471 67.59640061 0.00000000 0.00000000 0.00000000 0.00000000 
244524848 0.00000000 0.00000000 -34.89710262 67.29930643 0.00000000 0.00000000 0.00000000 0.00000000 
246442368 0.00000000 0.00000000 -34.26497789 67.47283137 0.00000000 0.00000000 0.00000000 0.00000000 
248359886 0.00000000 0.00000000 -34.50872454 67.77167228 0.00000000 0.00000000 0.00000000 0.00000000 
250277404 0.00000000 0.00000000 -34.82019235 68.69306586 0.00000000 0.00000000 0.00000000 0.00000000 
252194922 0.00000000 0.00000000 -34.65270024 69.75496135 0.00000000 0.00000000 0.00000000 0.00000000 
254112442 0.00000000 0.00000000 -34.59181399 70.92537831 0.00000000 0.00000000 0.00000000 0.00000000 
256029960 0.00000000 0.00000000 -34.51501906 69.72042785 0.00000000 0.00000000 0.00000000 0.00000000 
257947478 0.00000000 0.00000000 -34.27108282 68.08518838 0.00000000 0.00000000 0.00000000 0.00000000 
259864996 0.00000000 0.00000000 -33.76550832 67.42859172 0.00000000 0.00000000 0.00000000 0.00000000 
261782516 0.00000000 0.00000000 -33.13999198 68.49055986 0.00000000 0.00000000 0.00000000 0.00000000 
263700034 0.00000000 0.00000000 -33.29197240 65.94390575 0.00000000 0.00000000 0.00000000 0.00000000 
265617552 0.00000000 0.00000000 -33.06409552 64.46649575 0.00000000 0.00000000 0.00000000 0.00000000 
267535070 0.00000000 0.00000000 -32.57765982 62.67088328 0.00000000 0.00000000 0.00000000 0.00000000 
269452590 0.00000000 0.00000000 -32.00514680 62.57702818 0.00000000 0.00000000 0.00000000 0.00000000 
271370108 0.00000000 0.00000000 -32.41308523 58.03617620 0.00000000 0.00000000 0.00000000 0.00000000 
273287626 0.00000000 0.00000000 -32.29989291 54.35673084 0.00000000 0.00000000 0.00000000 0.00000000 
275205144 0.00000000 0.00000000 -31.85363087 51.59860336 0.00000000 0.00000000 0.00000000 0.00000000 
277122664 0.00000000 0.00000000 -31.23630309 48.97522565 0.00000000 0.00000000 0.00000000 0.00000000 
279040182 0.00000000 0.00000000 -31.76975465 47.44322448 0.00000000 0.00000000 0.00000000 0.00000000 
280957700 0.00000000 0.00000000 -32.31691695 46.03646793 0.00000000 0.00000000 0.00000000 0.00000000 
282875218 0.00000000 0.00000000 -32.33049963 41.46669618 0.00000000 0.00000000 0.00000000 0.00000000 
284792738 0.00000000 0.00000000 -32.03325854 38.69000308 0.00000000 0.00000000 0.00000000 0.00000000 
286710256 0.00000000 0.00000000 -32.77035114 39.19700204 0.00000000 0.00000000 0.00000000 0.00000000 
288627774 0.00000000 0.00000000 -33.36654543 39.97890354 0.00000000 0.00000000 0.00000000 0.00000000 
290545292 0.00000000 0.00000000 -33.74058358 37.67099566 0.00000000 0.00000000 0.00000000 0.00000000 
292462812 0.00000000 0.00000000 -33.83637755 36.90439662 0.00000000 0.00000000 0.00000000 0.00000000 
294380330 0.00000000 0.00000000 -34.47377305 37.80178830 0.00000000 0.00000000 0.00000000 0.00000000 
296297848 0.00000000 0.00000000 -34.56447398 35.77068600 0.00000000 0.00000000 0.00000000 0.00000000 
298215366 0.00000000 0.00000000 -34.65170190 36.99546484 0.00000000 0.00000000 0.00000000 0.00000000 
300132886 0.00000000 0.00000000 -34.45043163 36.33103651 0.00000000 0.00000000 0.00000000 0.00000000 
302050404 0.00000000 0.00000000 -34.86746533 37.43318905 0.00000000 0.00000000 0.00000000 0.00000000 
303967922 0.00000000 0.00000000 -35.20025240 38.08588213 0.00000000 0.00000000 0.00000000 0.00000000 
305885440 0.00000000 0.00000000 -35.39622875 39.11465127 0.00000000 0.00000000 0.00000000 0.00000000 
307802960 0.00000000 0.00000000 -35.44334451 38.45176754 0.00000000 0.00000000 0.00000000 0.00000000 
309720478 0.00000000 0.00000000 -35.62441811 41.32865749 0.00000000 0.00000000 0.00000000 0.00000000 
311637996 0.00000000 0.00000000 -35.84210825 43.33999803 0.00000000 0.00000000 0.00000000 0.00000000 
313555514 0.00000000 0.00000000 -35.87876943 44.97714061 0.00000000 0.00000000 0.00000000 0.00000000 
315473034 0.00000000 0.00000000 -35.98885198 47.13015113 0.00000000 0.00000000 0.00000000 0.00000000 
317390552 0.00000000 0.00000000 -36.32712068 48.37452764 0.00000000 0.00000000 0.00000000 0.00000000 
319308070 0.00000000 0.00000000 -36.52527169 51.25372003 0.00000000 0.00000000 0.00000000 0.00000000 
321225588 0.00000000 0.00000000 -36.40633596 52.59960726 0.00000000 0.00000000 0.00000000 0.00000000 
323143108 0.00000000 0.00000000 -36.66499246 55.24413748 0.00000000 0.00000000 0.00000000 0.00000000 
325060626 0.00000000 0.00000000 -36.63649268 59.56178951 0.00000000 0.00000000 0.00000000 0.00000000 
326978144 0.00000000 0.00000000 -36.61657975 62.18574176 0.00000000 0.00000000 0.00000000 0.00000000 
328895662 0.00000000 0.00000000 -36.50908407 64.98318900 0.00000000 0.00000000 0.00000000 0.00000000 
330813182 0.00000000 0.00000000 -36.36117867 69.74667020 0.00000000 0.00000000 0.00000000 0.00000000 
332730700 0.00000000 0.00000000 -36.19716677 72.52594528 0.00000000 0.00000000 0.00000000 0.00000000 
334648218 0.00000000 0.00000000 -35.83221403 75.73673847 0.00000000 0.00000000 0.00000000 0.00000000 
336565736 0.00000000 0.00000000 -35.25961385 78.48756603 0.00000000 0.00000000 0.00000000 0.00000000 
338483256 0.00000000 0.00000000 -34.85311214 83.36994726 0.00000000 0.00000000 0.00000000 0.00000000 
340400774 0.00000000 0.00000000 -34.37248716 84.22116496 0.00000000 0.00000000 0.00000000 0.00000000 
342318292 0.00000000 0.00000000 -33.77800911 85.92421328 0.00000000 0.00000000 0.00000000 0.00000000 
344235810 0.00000000 0.00000000 -33.12457344 86.75751859 0.00000000 0.00000000 0.00000000 0.00000000 
346153330 0.00000000 0.00000000 -32.38609687 90.35733690 0.00000000 0.00000000 0.00000000 0.00000000 
348070848 0.00000000 0.00000000 -31.99691073 85.61119536 0.00000000 0.00000000 0.00000000 0.00000000 
349988366 0.00000000 0.00000000 -31.33329894 83.42118320 0.00000000 0.00000000 0.00000000 0.00000000 
351905884 0.00000000 0.00000000 -30.50217685 82.22213704 0.00000000 0.00000000 0.00000000 0.00000000 
353823404 0.00000000 0.00000000 -29.59756083 83.10951477 0.00000000 0.00000000 0.00000000 0.00000000 
355740922 0.00000000 0.00000000 -29.39720719 78.39893673 0.00000000 0.00000000 0.00000000 0.00000000 
357658440 0.00000000 0.00000000 -28.82250697 75.25937593 0.00000000 0.00000000 0.00000000 0.00000000 
359575958 0.00000000 0.00000000 -28.16129527 73.89053411 0.00000000 0.00000000 0.00000000 0.00000000 
361493478 0.00000000 0.00000000 -27.27199446 73.94313430 0.00000000 0.00000000 0.00000000 0.00000000 
363410996 0.00000000 0.00000000 -27.46317630 68.98518526 0.00000000 0.00000000 0.00000000 0.00000000 
365328514 0.00000000 0.00000000 -27.28611830 64.33852662 0.00000000 0.00000000 0.00000000 0.00000000 
367246032 0.00000000 0.00000000 -26.75459742 61.57057865 0.00000000 0.00000000 0.00000000 0.00000000 
369163552 0.00000000 0.00000000 -25.94480086 59.87918092 0.00000000 0.00000000 0.00000000 0.00000000 
371081070 0.00000000 0.00000000 -26.58479488 56.10073173 0.00000000 0.00000000 0.00000000 0.00000000 
372998588 0.00000000 0.00000000 -26.88663262 51.69096110 0.00000000 0.00000000 0.00000000 0.00000000 
