! created by ADMIN at Mon Apr 20 19:10:02 IST 2026
! generated using vna/J Version 3.2.10
# Hz S DB R 50
001000000 0.00000000 0.00000000 -70.24870697 49.18989681 0.00000000 0.00000000 0.00000000 0.00000000 
002917518 0.00000000 0.00000000 -75.78708758 25.56780194 0.00000000 0.00000000 0.00000000 0.00000000 
004835036 0.00000000 0.00000000 -70.50395733 10.52757575 0.00000000 0.00000000 0.00000000 0.00000000 
006752554 0.00000000 0.00000000 -63.13077663 0.98419569 0.00000000 0.00000000 0.00000000 0.00000000 
008670074 0.00000000 0.00000000 -65.13953985 13.41962563 0.00000000 0.00000000 0.00000000 0.00000000 
010587592 0.00000000 0.00000000 -63.23507784 28.41025608 0.00000000 0.00000000 0.00000000 0.00000000 
012505110 0.00000000 0.00000000 -63.72777847 31.19394086 0.00000000 0.00000000 0.00000000 0.00000000 
014422628 0.00000000 0.00000000 -64.82756291 32.13077942 0.00000000 0.00000000 0.00000000 0.00000000 
016340148 0.00000000 0.00000000 -65.20380379 26.04898761 0.00000000 0.00000000 0.00000000 0.00000000 
018257666 0.00000000 0.00000000 -62.48460857 30.32083922 0.00000000 0.00000000 0.00000000 0.00000000 
020175184 0.00000000 0.00000000 -61.31991841 34.85230341 0.00000000 0.00000000 0.00000000 0.00000000 
022092702 0.00000000 0.00000000 -60.20604321 36.82321525 0.00000000 0.00000000 0.00000000 0.00000000 
024010222 0.00000000 0.00000000 -62.44255075 48.31605772 0.00000000 0.00000000 0.00000000 0.00000000 
025927740 0.00000000 0.00000000 -59.14165404 29.70352393 0.00000000 0.00000000 0.00000000 0.00000000 
027845258 0.00000000 0.00000000 -60.02289001 38.75862469 0.00000000 0.00000000 0.00000000 0.00000000 
029762776 0.00000000 0.00000000 -59.67823151 38.42702342 0.00000000 0.00000000 0.00000000 0.00000000 
031680296 0.00000000 0.00000000 -56.23017590 37.25371217 0.00000000 0.00000000 0.00000000 0.00000000 
033597814 0.00000000 0.00000000 -57.39147481 33.66542761 0.00000000 0.00000000 0.00000000 0.00000000 
035515332 0.00000000 0.00000000 -56.18617224 37.54321691 0.00000000 0.00000000 0.00000000 0.00000000 
037432850 0.00000000 0.00000000 -56.79851408 39.18095680 0.00000000 0.00000000 0.00000000 0.00000000 
039350370 0.00000000 0.00000000 -54.84136645 41.25150240 0.00000000 0.00000000 0.00000000 0.00000000 
041267888 0.00000000 0.00000000 -54.73415862 29.94357298 0.00000000 0.00000000 0.00000000 0.00000000 
043185406 0.00000000 0.00000000 -53.99863034 21.67475188 0.00000000 0.00000000 0.00000000 0.00000000 
045102924 0.00000000 0.00000000 -51.87369912 23.12116817 0.00000000 0.00000000 0.00000000 0.00000000 
047020444 0.00000000 0.00000000 -50.41234385 17.83008733 0.00000000 0.00000000 0.00000000 0.00000000 
048937962 0.00000000 0.00000000 -52.44792065 19.30288274 0.00000000 0.00000000 0.00000000 0.00000000 
050855480 0.00000000 0.00000000 -53.52757867 14.21808645 0.00000000 0.00000000 0.00000000 0.00000000 
052772998 0.00000000 0.00000000 -54.07604414 3.34613504 0.00000000 0.00000000 0.00000000 0.00000000 
054690518 0.00000000 0.00000000 -53.96853827 -3.31331700 0.00000000 0.00000000 0.00000000 0.00000000 
056608036 0.00000000 0.00000000 -55.68372451 8.13318041 0.00000000 0.00000000 0.00000000 0.00000000 
058525554 0.00000000 0.00000000 -57.09130762 1.58172058 0.00000000 0.00000000 0.00000000 0.00000000 
060443072 0.00000000 0.00000000 -56.77249059 -1.74049591 0.00000000 0.00000000 0.00000000 0.00000000 
062360592 0.00000000 0.00000000 -58.62194582 -6.55467063 0.00000000 0.00000000 0.00000000 0.00000000 
064278110 0.00000000 0.00000000 -59.20411772 6.47815600 0.00000000 0.00000000 0.00000000 0.00000000 
066195628 0.00000000 0.00000000 -60.98732068 -6.15034148 0.00000000 0.00000000 0.00000000 0.00000000 
068113146 0.00000000 0.00000000 -60.06534218 8.81144523 0.00000000 0.00000000 0.00000000 0.00000000 
070030666 0.00000000 0.00000000 -59.63049943 24.33284517 0.00000000 0.00000000 0.00000000 0.00000000 
071948184 0.00000000 0.00000000 -58.40008848 15.31038576 0.00000000 0.00000000 0.00000000 0.00000000 
073865702 0.00000000 0.00000000 -57.30728515 25.25624946 0.00000000 0.00000000 0.00000000 0.00000000 
075783220 0.00000000 0.00000000 -55.72606053 34.81586023 0.00000000 0.00000000 0.00000000 0.00000000 
077700740 0.00000000 0.00000000 -54.12233815 42.99512485 0.00000000 0.00000000 0.00000000 0.00000000 
079618258 0.00000000 0.00000000 -55.47868167 37.01504240 0.00000000 0.00000000 0.00000000 0.00000000 
081535776 0.00000000 0.00000000 -55.12781979 39.69746376 0.00000000 0.00000000 0.00000000 0.00000000 
083453294 0.00000000 0.00000000 -55.76088350 30.28833295 0.00000000 0.00000000 0.00000000 0.00000000 
085370814 0.00000000 0.00000000 -56.61275683 29.93606029 0.00000000 0.00000000 0.00000000 0.00000000 
087288332 0.00000000 0.00000000 -57.01106073 16.06708801 0.00000000 0.00000000 0.00000000 0.00000000 
089205850 0.00000000 0.00000000 -55.31414050 24.03060553 0.00000000 0.00000000 0.00000000 0.00000000 
091123368 0.00000000 0.00000000 -54.56834270 19.41924560 0.00000000 0.00000000 0.00000000 0.00000000 
093040888 0.00000000 0.00000000 -54.36534670 19.36916551 0.00000000 0.00000000 0.00000000 0.00000000 
094958406 0.00000000 0.00000000 -55.02974985 20.48458610 0.00000000 0.00000000 0.00000000 0.00000000 
096875924 0.00000000 0.00000000 -55.17308020 20.46304086 0.00000000 0.00000000 0.00000000 0.00000000 
098793442 0.00000000 0.00000000 -55.39206972 18.26074805 0.00000000 0.00000000 0.00000000 0.00000000 
100710962 0.00000000 0.00000000 -55.73540337 14.81277459 0.00000000 0.00000000 0.00000000 0.00000000 
102628480 0.00000000 0.00000000 -54.85098821 30.24443180 0.00000000 0.00000000 0.00000000 0.00000000 
104545998 0.00000000 0.00000000 -55.93701782 42.37767679 0.00000000 0.00000000 0.00000000 0.00000000 
106463516 0.00000000 0.00000000 -55.92154030 54.42491001 0.00000000 0.00000000 0.00000000 0.00000000 
108381036 0.00000000 0.00000000 -53.93252241 55.57024381 0.00000000 0.00000000 0.00000000 0.00000000 
110298554 0.00000000 0.00000000 -55.16020744 57.99640586 0.00000000 0.00000000 0.00000000 0.00000000 
112216072 0.00000000 0.00000000 -53.48654101 61.20136518 0.00000000 0.00000000 0.00000000 0.00000000 
114133590 0.00000000 0.00000000 -53.80731940 62.32841571 0.00000000 0.00000000 0.00000000 0.00000000 
116051110 0.00000000 0.00000000 -51.91909876 56.18122357 0.00000000 0.00000000 0.00000000 0.00000000 
117968628 0.00000000 0.00000000 -52.07262255 54.76763419 0.00000000 0.00000000 0.00000000 0.00000000 
119886146 0.00000000 0.00000000 -51.85073071 49.79573616 0.00000000 0.00000000 0.00000000 0.00000000 
121803664 0.00000000 0.00000000 -51.36280695 47.62622950 0.00000000 0.00000000 0.00000000 0.00000000 
123721184 0.00000000 0.00000000 -50.27496858 54.96070647 0.00000000 0.00000000 0.00000000 0.00000000 
125638702 0.00000000 0.00000000 -50.43620218 47.51302782 0.00000000 0.00000000 0.00000000 0.00000000 
127556220 0.00000000 0.00000000 -49.23663178 44.48681136 0.00000000 0.00000000 0.00000000 0.00000000 
129473738 0.00000000 0.00000000 -48.63940243 46.37000102 0.00000000 0.00000000 0.00000000 0.00000000 
131391258 0.00000000 0.00000000 -47.75582202 49.57902996 0.00000000 0.00000000 0.00000000 0.00000000 
133308776 0.00000000 0.00000000 -46.61841243 43.64321955 0.00000000 0.00000000 0.00000000 0.00000000 
135226294 0.00000000 0.00000000 -43.94041184 41.61748351 0.00000000 0.00000000 0.00000000 0.00000000 
137143812 0.00000000 0.00000000 -42.21431895 40.02938484 0.00000000 0.00000000 0.00000000 0.00000000 
139061332 0.00000000 0.00000000 -40.78547662 43.62336636 0.00000000 0.00000000 0.00000000 0.00000000 
140978850 0.00000000 0.00000000 -45.03531433 36.80054190 0.00000000 0.00000000 0.00000000 0.00000000 
142896368 0.00000000 0.00000000 -49.41015317 -0.00351869 0.00000000 0.00000000 0.00000000 0.00000000 
144813886 0.00000000 0.00000000 -45.68006852 -53.36018791 0.00000000 0.00000000 0.00000000 0.00000000 
146731406 0.00000000 0.00000000 -40.98459867 -63.45478519 0.00000000 0.00000000 0.00000000 0.00000000 
148648924 0.00000000 0.00000000 -42.71319297 -58.14385163 0.00000000 0.00000000 0.00000000 0.00000000 
150566442 0.00000000 0.00000000 -44.56116636 -56.53009711 0.00000000 0.00000000 0.00000000 0.00000000 
152483960 0.00000000 0.00000000 -46.64748682 -56.63816216 0.00000000 0.00000000 0.00000000 0.00000000 
154401480 0.00000000 0.00000000 -49.28205229 -70.03261813 0.00000000 0.00000000 0.00000000 0.00000000 
156318998 0.00000000 0.00000000 -50.36526500 -67.81225904 0.00000000 0.00000000 0.00000000 0.00000000 
158236516 0.00000000 0.00000000 -51.03817801 -61.11674238 0.00000000 0.00000000 0.00000000 0.00000000 
160154034 0.00000000 0.00000000 -53.25060076 -56.46520446 0.00000000 0.00000000 0.00000000 0.00000000 
162071554 0.00000000 0.00000000 -55.28508821 -58.15232048 0.00000000 0.00000000 0.00000000 0.00000000 
163989072 0.00000000 0.00000000 -55.56751498 -61.30243922 0.00000000 0.00000000 0.00000000 0.00000000 
165906590 0.00000000 0.00000000 -55.89446711 -37.58399802 0.00000000 0.00000000 0.00000000 0.00000000 
167824108 0.00000000 0.00000000 -56.91314844 -52.70342768 0.00000000 0.00000000 0.00000000 0.00000000 
169741628 0.00000000 0.00000000 -58.05562235 -32.10815430 0.00000000 0.00000000 0.00000000 0.00000000 
171659146 0.00000000 0.00000000 -59.74769240 -32.63933511 0.00000000 0.00000000 0.00000000 0.00000000 
173576664 0.00000000 0.00000000 -59.51868481 -33.33026275 0.00000000 0.00000000 0.00000000 0.00000000 
175494182 0.00000000 0.00000000 -58.99695141 -26.70615188 0.00000000 0.00000000 0.00000000 0.00000000 
177411702 0.00000000 0.00000000 -58.23235483 -26.06040897 0.00000000 0.00000000 0.00000000 0.00000000 
179329220 0.00000000 0.00000000 -57.54277232 -8.00851105 0.00000000 0.00000000 0.00000000 0.00000000 
181246738 0.00000000 0.00000000 -57.49035859 -1.85414819 0.00000000 0.00000000 0.00000000 0.00000000 
183164256 0.00000000 0.00000000 -59.40422284 27.40963891 0.00000000 0.00000000 0.00000000 0.00000000 
185081776 0.00000000 0.00000000 -58.14885605 16.65296292 0.00000000 0.00000000 0.00000000 0.00000000 
186999294 0.00000000 0.00000000 -56.14096955 16.09262157 0.00000000 0.00000000 0.00000000 0.00000000 
188916812 0.00000000 0.00000000 -56.67149685 26.75141099 0.00000000 0.00000000 0.00000000 0.00000000 
190834330 0.00000000 0.00000000 -56.65641874 22.69338990 0.00000000 0.00000000 0.00000000 0.00000000 
192751850 0.00000000 0.00000000 -56.16777892 30.78464450 0.00000000 0.00000000 0.00000000 0.00000000 
194669368 0.00000000 0.00000000 -55.22386399 20.81349097 0.00000000 0.00000000 0.00000000 0.00000000 
196586886 0.00000000 0.00000000 -55.10028858 15.23663186 0.00000000 0.00000000 0.00000000 0.00000000 
198504404 0.00000000 0.00000000 -54.29685219 11.83506645 0.00000000 0.00000000 0.00000000 0.00000000 
200421924 0.00000000 0.00000000 -52.78864570 13.95167539 0.00000000 0.00000000 0.00000000 0.00000000 
202339442 0.00000000 0.00000000 -54.86534906 14.05472765 0.00000000 0.00000000 0.00000000 0.00000000 
204256960 0.00000000 0.00000000 -56.78675393 10.57128281 0.00000000 0.00000000 0.00000000 0.00000000 
206174478 0.00000000 0.00000000 -56.33348964 18.34829163 0.00000000 0.00000000 0.00000000 0.00000000 
208091998 0.00000000 0.00000000 -58.98755096 13.41788600 0.00000000 0.00000000 0.00000000 0.00000000 
210009516 0.00000000 0.00000000 -56.99737817 19.03835382 0.00000000 0.00000000 0.00000000 0.00000000 
211927034 0.00000000 0.00000000 -58.44391176 30.55146826 0.00000000 0.00000000 0.00000000 0.00000000 
213844552 0.00000000 0.00000000 -56.96394877 35.90234839 0.00000000 0.00000000 0.00000000 0.00000000 
215762072 0.00000000 0.00000000 -56.70753147 29.34480606 0.00000000 0.00000000 0.00000000 0.00000000 
217679590 0.00000000 0.00000000 -56.30516697 36.57471417 0.00000000 0.00000000 0.00000000 0.00000000 
219597108 0.00000000 0.00000000 -54.56835415 37.18762136 0.00000000 0.00000000 0.00000000 0.00000000 
221514626 0.00000000 0.00000000 -53.19680908 28.66323503 0.00000000 0.00000000 0.00000000 0.00000000 
223432146 0.00000000 0.00000000 -52.19158539 34.73830734 0.00000000 0.00000000 0.00000000 0.00000000 
225349664 0.00000000 0.00000000 -52.11705959 41.49976782 0.00000000 0.00000000 0.00000000 0.00000000 
227267182 0.00000000 0.00000000 -50.94110561 42.47104595 0.00000000 0.00000000 0.00000000 0.00000000 
229184700 0.00000000 0.00000000 -50.46078352 43.06027419 0.00000000 0.00000000 0.00000000 0.00000000 
231102220 0.00000000 0.00000000 -48.91310143 45.96339461 0.00000000 0.00000000 0.00000000 0.00000000 
233019738 0.00000000 0.00000000 -49.15023739 42.48480776 0.00000000 0.00000000 0.00000000 0.00000000 
234937256 0.00000000 0.00000000 -48.19615066 42.25821397 0.00000000 0.00000000 0.00000000 0.00000000 
236854774 0.00000000 0.00000000 -47.89237883 47.42344422 0.00000000 0.00000000 0.00000000 0.00000000 
238772294 0.00000000 0.00000000 -47.28104347 43.57512918 0.00000000 0.00000000 0.00000000 0.00000000 
240689812 0.00000000 0.00000000 -47.45128123 41.57367619 0.00000000 0.00000000 0.00000000 0.00000000 
242607330 0.00000000 0.00000000 -47.04523785 35.38353448 0.00000000 0.00000000 0.00000000 0.00000000 
244524848 0.00000000 0.00000000 -46.68340230 34.03109635 0.00000000 0.00000000 0.00000000 0.00000000 
246442368 0.00000000 0.00000000 -45.77822467 33.79911880 0.00000000 0.00000000 0.00000000 0.00000000 
248359886 0.00000000 0.00000000 -45.44417815 28.62125621 0.00000000 0.00000000 0.00000000 0.00000000 
250277404 0.00000000 0.00000000 -45.61566802 23.79163792 0.00000000 0.00000000 0.00000000 0.00000000 
252194922 0.00000000 0.00000000 -44.83247563 26.03548813 0.00000000 0.00000000 0.00000000 0.00000000 
254112442 0.00000000 0.00000000 -44.43763632 25.69402665 0.00000000 0.00000000 0.00000000 0.00000000 
256029960 0.00000000 0.00000000 -44.62460065 18.44775269 0.00000000 0.00000000 0.00000000 0.00000000 
257947478 0.00000000 0.00000000 -43.93533078 9.82527253 0.00000000 0.00000000 0.00000000 0.00000000 
259864996 0.00000000 0.00000000 -42.78337191 5.76619356 0.00000000 0.00000000 0.00000000 0.00000000 
261782516 0.00000000 0.00000000 -41.76135556 5.30358530 0.00000000 0.00000000 0.00000000 0.00000000 
263700034 0.00000000 0.00000000 -42.51344656 -1.23134550 0.00000000 0.00000000 0.00000000 0.00000000 
265617552 0.00000000 0.00000000 -43.04888885 -6.48677090 0.00000000 0.00000000 0.00000000 0.00000000 
267535070 0.00000000 0.00000000 -42.50307902 -12.26075053 0.00000000 0.00000000 0.00000000 0.00000000 
269452590 0.00000000 0.00000000 -41.82055709 -17.44292405 0.00000000 0.00000000 0.00000000 0.00000000 
271370108 0.00000000 0.00000000 -42.40634534 -28.74609139 0.00000000 0.00000000 0.00000000 0.00000000 
273287626 0.00000000 0.00000000 -42.58724425 -39.02048700 0.00000000 0.00000000 0.00000000 0.00000000 
275205144 0.00000000 0.00000000 -41.94768231 -48.46072479 0.00000000 0.00000000 0.00000000 0.00000000 
277122664 0.00000000 0.00000000 -40.07934773 -54.76353133 0.00000000 0.00000000 0.00000000 0.00000000 
279040182 0.00000000 0.00000000 -41.98948287 -57.21986287 0.00000000 0.00000000 0.00000000 0.00000000 
280957700 0.00000000 0.00000000 -43.82567238 -73.90998434 0.00000000 0.00000000 0.00000000 0.00000000 
282875218 0.00000000 0.00000000 -43.46597153 -86.23090698 0.00000000 0.00000000 0.00000000 0.00000000 
284792738 0.00000000 0.00000000 -42.33833025 -99.66249791 0.00000000 0.00000000 0.00000000 0.00000000 
286710256 0.00000000 0.00000000 -44.10035195 -98.92351309 0.00000000 0.00000000 0.00000000 0.00000000 
288627774 0.00000000 0.00000000 -46.65228679 -108.64436335 0.00000000 0.00000000 0.00000000 0.00000000 
290545292 0.00000000 0.00000000 -48.16779956 -119.25962187 0.00000000 0.00000000 0.00000000 0.00000000 
292462812 0.00000000 0.00000000 -48.40381167 -147.10832534 0.00000000 0.00000000 0.00000000 0.00000000 
294380330 0.00000000 0.00000000 -48.63731521 -148.40318025 0.00000000 0.00000000 0.00000000 0.00000000 
296297848 0.00000000 0.00000000 -51.19006625 -140.80373695 0.00000000 0.00000000 0.00000000 0.00000000 
298215366 0.00000000 0.00000000 -51.99238406 -161.48440045 0.00000000 0.00000000 0.00000000 0.00000000 
300132886 0.00000000 0.00000000 -52.84437094 -174.93483139 0.00000000 0.00000000 0.00000000 0.00000000 
302050404 0.00000000 0.00000000 -55.47865620 174.91851441 0.00000000 0.00000000 0.00000000 0.00000000 
303967922 0.00000000 0.00000000 -56.75935496 153.64682802 0.00000000 0.00000000 0.00000000 0.00000000 
305885440 0.00000000 0.00000000 -54.37036147 131.81597128 0.00000000 0.00000000 0.00000000 0.00000000 
307802960 0.00000000 0.00000000 -53.01465044 121.00892001 0.00000000 0.00000000 0.00000000 0.00000000 
309720478 0.00000000 0.00000000 -51.75005822 111.30584176 0.00000000 0.00000000 0.00000000 0.00000000 
311637996 0.00000000 0.00000000 -50.93101679 107.92753449 0.00000000 0.00000000 0.00000000 0.00000000 
313555514 0.00000000 0.00000000 -49.82413687 103.61091438 0.00000000 0.00000000 0.00000000 0.00000000 
315473034 0.00000000 0.00000000 -48.79475359 107.47101468 0.00000000 0.00000000 0.00000000 0.00000000 
317390552 0.00000000 0.00000000 -49.93037198 101.15334758 0.00000000 0.00000000 0.00000000 0.00000000 
319308070 0.00000000 0.00000000 -49.47841652 98.01964335 0.00000000 0.00000000 0.00000000 0.00000000 
321225588 0.00000000 0.00000000 -48.52604967 87.82590596 0.00000000 0.00000000 0.00000000 0.00000000 
323143108 0.00000000 0.00000000 -48.37005354 91.32709151 0.00000000 0.00000000 0.00000000 0.00000000 
325060626 0.00000000 0.00000000 -48.01746446 90.79408192 0.00000000 0.00000000 0.00000000 0.00000000 
326978144 0.00000000 0.00000000 -48.07990390 85.59143919 0.00000000 0.00000000 0.00000000 0.00000000 
328895662 0.00000000 0.00000000 -47.67667579 81.05531489 0.00000000 0.00000000 0.00000000 0.00000000 
330813182 0.00000000 0.00000000 -46.88166941 84.18237406 0.00000000 0.00000000 0.00000000 0.00000000 
332730700 0.00000000 0.00000000 -47.30426212 80.21347622 0.00000000 0.00000000 0.00000000 0.00000000 
334648218 0.00000000 0.00000000 -46.87682052 76.19451561 0.00000000 0.00000000 0.00000000 0.00000000 
336565736 0.00000000 0.00000000 -45.54326808 71.31845499 0.00000000 0.00000000 0.00000000 0.00000000 
338483256 0.00000000 0.00000000 -44.85951417 73.66603558 0.00000000 0.00000000 0.00000000 0.00000000 
340400774 0.00000000 0.00000000 -45.14210244 68.75150648 0.00000000 0.00000000 0.00000000 0.00000000 
342318292 0.00000000 0.00000000 -44.95086156 64.03579097 0.00000000 0.00000000 0.00000000 0.00000000 
344235810 0.00000000 0.00000000 -43.91593605 55.24515794 0.00000000 0.00000000 0.00000000 0.00000000 
346153330 0.00000000 0.00000000 -42.99461464 55.38859580 0.00000000 0.00000000 0.00000000 0.00000000 
348070848 0.00000000 0.00000000 -43.03974357 47.32567642 0.00000000 0.00000000 0.00000000 0.00000000 
349988366 0.00000000 0.00000000 -43.08954752 41.86875870 0.00000000 0.00000000 0.00000000 0.00000000 
351905884 0.00000000 0.00000000 -42.44904608 35.51809900 0.00000000 0.00000000 0.00000000 0.00000000 
353823404 0.00000000 0.00000000 -41.72069947 32.01179310 0.00000000 0.00000000 0.00000000 0.00000000 
355740922 0.00000000 0.00000000 -42.21885891 26.19646033 0.00000000 0.00000000 0.00000000 0.00000000 
357658440 0.00000000 0.00000000 -42.49671667 21.05315243 0.00000000 0.00000000 0.00000000 0.00000000 
359575958 0.00000000 0.00000000 -42.73592405 12.00068881 0.00000000 0.00000000 0.00000000 0.00000000 
361493478 0.00000000 0.00000000 -42.03368357 7.08022780 0.00000000 0.00000000 0.00000000 0.00000000 
363410996 0.00000000 0.00000000 -43.07440096 6.04685768 0.00000000 0.00000000 0.00000000 0.00000000 
365328514 0.00000000 0.00000000 -44.27084009 0.74763604 0.00000000 0.00000000 0.00000000 0.00000000 
367246032 0.00000000 0.00000000 -45.82623512 -7.16908674 0.00000000 0.00000000 0.00000000 0.00000000 
369163552 0.00000000 0.00000000 -45.47418236 -16.71128842 0.00000000 0.00000000 0.00000000 0.00000000 
371081070 0.00000000 0.00000000 -46.21646703 -14.44698753 0.00000000 0.00000000 0.00000000 0.00000000 
