! created by ADMIN at Tue Apr 21 15:44:41 IST 2026
! generated using vna/J Version 3.2.10
# Hz S DB R 50
001000000 0.00000000 0.00000000 -66.03772293 26.59679505 0.00000000 0.00000000 0.00000000 0.00000000 
002917518 0.00000000 0.00000000 -75.05612547 47.56299107 0.00000000 0.00000000 0.00000000 0.00000000 
004835036 0.00000000 0.00000000 -80.00000000 75.74730499 0.00000000 0.00000000 0.00000000 0.00000000 
006752554 0.00000000 0.00000000 -72.47285315 -30.69330125 0.00000000 0.00000000 0.00000000 0.00000000 
008670074 0.00000000 0.00000000 -71.71971575 -120.21761583 0.00000000 0.00000000 0.00000000 0.00000000 
010587592 0.00000000 0.00000000 -80.00000000 -62.83713935 0.00000000 0.00000000 0.00000000 0.00000000 
012505110 0.00000000 0.00000000 -80.00000000 -5.26245935 0.00000000 0.00000000 0.00000000 0.00000000 
014422628 0.00000000 0.00000000 -80.00000000 -71.25099420 0.00000000 0.00000000 0.00000000 0.00000000 
016340148 0.00000000 0.00000000 -80.00000000 -46.23811632 0.00000000 0.00000000 0.00000000 0.00000000 
018257666 0.00000000 0.00000000 -76.20198701 20.10545868 0.00000000 0.00000000 0.00000000 0.00000000 
020175184 0.00000000 0.00000000 -74.67564697 31.50240053 0.00000000 0.00000000 0.00000000 0.00000000 
022092702 0.00000000 0.00000000 -72.93241741 26.82069431 0.00000000 0.00000000 0.00000000 0.00000000 
024010222 0.00000000 0.00000000 -80.00000000 -154.89715004 0.00000000 0.00000000 0.00000000 0.00000000 
025927740 0.00000000 0.00000000 -68.26410231 9.60270888 0.00000000 0.00000000 0.00000000 0.00000000 
027845258 0.00000000 0.00000000 -71.14004600 53.93248399 0.00000000 0.00000000 0.00000000 0.00000000 
029762776 0.00000000 0.00000000 -69.41952915 68.72595079 0.00000000 0.00000000 0.00000000 0.00000000 
031680296 0.00000000 0.00000000 -62.20013562 57.08526615 0.00000000 0.00000000 0.00000000 0.00000000 
033597814 0.00000000 0.00000000 -68.70443163 61.51688792 0.00000000 0.00000000 0.00000000 0.00000000 
035515332 0.00000000 0.00000000 -68.76751316 65.36691249 0.00000000 0.00000000 0.00000000 0.00000000 
037432850 0.00000000 0.00000000 -80.00000000 124.11867678 0.00000000 0.00000000 0.00000000 0.00000000 
039350370 0.00000000 0.00000000 -75.13421127 23.49179548 0.00000000 0.00000000 0.00000000 0.00000000 
041267888 0.00000000 0.00000000 -75.99033581 -6.64528233 0.00000000 0.00000000 0.00000000 0.00000000 
043185406 0.00000000 0.00000000 -76.28527894 -42.49339319 0.00000000 0.00000000 0.00000000 0.00000000 
045102924 0.00000000 0.00000000 -71.36535577 33.05107581 0.00000000 0.00000000 0.00000000 0.00000000 
047020444 0.00000000 0.00000000 -68.56555146 -10.21211808 0.00000000 0.00000000 0.00000000 0.00000000 
048937962 0.00000000 0.00000000 -76.27918568 7.77306350 0.00000000 0.00000000 0.00000000 0.00000000 
050855480 0.00000000 0.00000000 -72.38801766 17.52023707 0.00000000 0.00000000 0.00000000 0.00000000 
052772998 0.00000000 0.00000000 -69.90423345 8.96375357 0.00000000 0.00000000 0.00000000 0.00000000 
054690518 0.00000000 0.00000000 -67.76966407 32.97351309 0.00000000 0.00000000 0.00000000 0.00000000 
056608036 0.00000000 0.00000000 -66.58189828 67.84857963 0.00000000 0.00000000 0.00000000 0.00000000 
058525554 0.00000000 0.00000000 -72.19949140 45.67805637 0.00000000 0.00000000 0.00000000 0.00000000 
060443072 0.00000000 0.00000000 -67.11842446 13.09766382 0.00000000 0.00000000 0.00000000 0.00000000 
062360592 0.00000000 0.00000000 -69.71770116 10.65978903 0.00000000 0.00000000 0.00000000 0.00000000 
064278110 0.00000000 0.00000000 -74.53400909 75.84197214 0.00000000 0.00000000 0.00000000 0.00000000 
066195628 0.00000000 0.00000000 -68.17043662 -143.45098918 0.00000000 0.00000000 0.00000000 0.00000000 
068113146 0.00000000 0.00000000 -67.52884039 -148.76498534 0.00000000 0.00000000 0.00000000 0.00000000 
070030666 0.00000000 0.00000000 -65.50617759 -155.28375506 0.00000000 0.00000000 0.00000000 0.00000000 
071948184 0.00000000 0.00000000 -65.20204545 -134.23221664 0.00000000 0.00000000 0.00000000 0.00000000 
073865702 0.00000000 0.00000000 -65.92656418 -150.73476620 0.00000000 0.00000000 0.00000000 0.00000000 
075783220 0.00000000 0.00000000 -66.67806733 -171.62637441 0.00000000 0.00000000 0.00000000 0.00000000 
077700740 0.00000000 0.00000000 -66.28462130 166.83460363 0.00000000 0.00000000 0.00000000 0.00000000 
079618258 0.00000000 0.00000000 -71.26695012 -157.81147174 0.00000000 0.00000000 0.00000000 0.00000000 
081535776 0.00000000 0.00000000 -74.88316296 100.39178481 0.00000000 0.00000000 0.00000000 0.00000000 
083453294 0.00000000 0.00000000 -74.42101038 27.59498405 0.00000000 0.00000000 0.00000000 0.00000000 
085370814 0.00000000 0.00000000 -72.72019557 69.07062074 0.00000000 0.00000000 0.00000000 0.00000000 
087288332 0.00000000 0.00000000 -80.00000000 -102.55821797 0.00000000 0.00000000 0.00000000 0.00000000 
089205850 0.00000000 0.00000000 -73.93204502 103.95712594 0.00000000 0.00000000 0.00000000 0.00000000 
091123368 0.00000000 0.00000000 -80.00000000 169.29837318 0.00000000 0.00000000 0.00000000 0.00000000 
093040888 0.00000000 0.00000000 -69.40987942 -152.69504201 0.00000000 0.00000000 0.00000000 0.00000000 
094958406 0.00000000 0.00000000 -69.36666068 -132.26022307 0.00000000 0.00000000 0.00000000 0.00000000 
096875924 0.00000000 0.00000000 -70.40713110 -101.48285138 0.00000000 0.00000000 0.00000000 0.00000000 
098793442 0.00000000 0.00000000 -68.37838200 -76.27616901 0.00000000 0.00000000 0.00000000 0.00000000 
100710962 0.00000000 0.00000000 -66.10280158 -67.10245584 0.00000000 0.00000000 0.00000000 0.00000000 
102628480 0.00000000 0.00000000 -69.97750260 -11.35259855 0.00000000 0.00000000 0.00000000 0.00000000 
104545998 0.00000000 0.00000000 -80.00000000 9.11854925 0.00000000 0.00000000 0.00000000 0.00000000 
106463516 0.00000000 0.00000000 -75.03497216 98.59234695 0.00000000 0.00000000 0.00000000 0.00000000 
108381036 0.00000000 0.00000000 -64.43209078 58.25521139 0.00000000 0.00000000 0.00000000 0.00000000 
110298554 0.00000000 0.00000000 -78.05992429 98.50390803 0.00000000 0.00000000 0.00000000 0.00000000 
112216072 0.00000000 0.00000000 -72.30358447 94.75567786 0.00000000 0.00000000 0.00000000 0.00000000 
114133590 0.00000000 0.00000000 -75.93983681 -132.31449032 0.00000000 0.00000000 0.00000000 0.00000000 
116051110 0.00000000 0.00000000 -67.30770309 -19.49690345 0.00000000 0.00000000 0.00000000 0.00000000 
117968628 0.00000000 0.00000000 -75.12792125 -34.31200010 0.00000000 0.00000000 0.00000000 0.00000000 
119886146 0.00000000 0.00000000 -73.98598225 -79.81253110 0.00000000 0.00000000 0.00000000 0.00000000 
121803664 0.00000000 0.00000000 -69.35231489 -110.86118132 0.00000000 0.00000000 0.00000000 0.00000000 
123721184 0.00000000 0.00000000 -65.75517656 -165.53659709 0.00000000 0.00000000 0.00000000 0.00000000 
125638702 0.00000000 0.00000000 -65.70973653 -125.22855649 0.00000000 0.00000000 0.00000000 0.00000000 
127556220 0.00000000 0.00000000 -70.17137251 -88.64435699 0.00000000 0.00000000 0.00000000 0.00000000 
129473738 0.00000000 0.00000000 -71.81446454 -99.74672769 0.00000000 0.00000000 0.00000000 0.00000000 
131391258 0.00000000 0.00000000 -77.17906759 -123.01749086 0.00000000 0.00000000 0.00000000 0.00000000 
133308776 0.00000000 0.00000000 -67.11655290 -159.49484983 0.00000000 0.00000000 0.00000000 0.00000000 
135226294 0.00000000 0.00000000 -68.45227919 110.66967864 0.00000000 0.00000000 0.00000000 0.00000000 
137143812 0.00000000 0.00000000 -72.12004325 77.24216286 0.00000000 0.00000000 0.00000000 0.00000000 
139061332 0.00000000 0.00000000 -69.48319405 112.55090964 0.00000000 0.00000000 0.00000000 0.00000000 
140978850 0.00000000 0.00000000 -69.20907865 89.74908351 0.00000000 0.00000000 0.00000000 0.00000000 
142896368 0.00000000 0.00000000 -65.56393138 69.76384940 0.00000000 0.00000000 0.00000000 0.00000000 
144813886 0.00000000 0.00000000 -75.03180002 41.72138213 0.00000000 0.00000000 0.00000000 0.00000000 
146731406 0.00000000 0.00000000 -73.58751857 58.12875199 0.00000000 0.00000000 0.00000000 0.00000000 
148648924 0.00000000 0.00000000 -67.61630841 61.93150144 0.00000000 0.00000000 0.00000000 0.00000000 
150566442 0.00000000 0.00000000 -69.47452098 57.18604140 0.00000000 0.00000000 0.00000000 0.00000000 
152483960 0.00000000 0.00000000 -66.83819403 34.65152474 0.00000000 0.00000000 0.00000000 0.00000000 
154401480 0.00000000 0.00000000 -73.30823048 58.61135467 0.00000000 0.00000000 0.00000000 0.00000000 
156318998 0.00000000 0.00000000 -79.05334652 48.93874143 0.00000000 0.00000000 0.00000000 0.00000000 
158236516 0.00000000 0.00000000 -68.16990707 -1.44534694 0.00000000 0.00000000 0.00000000 0.00000000 
160154034 0.00000000 0.00000000 -65.87247876 31.87877211 0.00000000 0.00000000 0.00000000 0.00000000 
162071554 0.00000000 0.00000000 -65.16897887 41.24361597 0.00000000 0.00000000 0.00000000 0.00000000 
163989072 0.00000000 0.00000000 -77.43602170 59.50172574 0.00000000 0.00000000 0.00000000 0.00000000 
165906590 0.00000000 0.00000000 -66.31371024 45.08305459 0.00000000 0.00000000 0.00000000 0.00000000 
167824108 0.00000000 0.00000000 -73.39905162 -146.16705837 0.00000000 0.00000000 0.00000000 0.00000000 
169741628 0.00000000 0.00000000 -80.00000000 132.13876963 0.00000000 0.00000000 0.00000000 0.00000000 
171659146 0.00000000 0.00000000 -70.30449808 157.79238414 0.00000000 0.00000000 0.00000000 0.00000000 
173576664 0.00000000 0.00000000 -70.19264716 172.01359803 0.00000000 0.00000000 0.00000000 0.00000000 
175494182 0.00000000 0.00000000 -71.87113509 162.29411890 0.00000000 0.00000000 0.00000000 0.00000000 
177411702 0.00000000 0.00000000 -73.51178907 0.56641153 0.00000000 0.00000000 0.00000000 0.00000000 
179329220 0.00000000 0.00000000 -76.89712591 129.35522380 0.00000000 0.00000000 0.00000000 0.00000000 
181246738 0.00000000 0.00000000 -78.85792944 -176.72652218 0.00000000 0.00000000 0.00000000 0.00000000 
183164256 0.00000000 0.00000000 -64.85964530 154.08549095 0.00000000 0.00000000 0.00000000 0.00000000 
185081776 0.00000000 0.00000000 -71.49369298 -147.28191717 0.00000000 0.00000000 0.00000000 0.00000000 
186999294 0.00000000 0.00000000 -73.40354048 -30.55818767 0.00000000 0.00000000 0.00000000 0.00000000 
188916812 0.00000000 0.00000000 -79.74465449 46.44058998 0.00000000 0.00000000 0.00000000 0.00000000 
190834330 0.00000000 0.00000000 -74.23142248 -12.56609826 0.00000000 0.00000000 0.00000000 0.00000000 
192751850 0.00000000 0.00000000 -71.35018994 38.38048655 0.00000000 0.00000000 0.00000000 0.00000000 
194669368 0.00000000 0.00000000 -67.85595984 17.23041509 0.00000000 0.00000000 0.00000000 0.00000000 
196586886 0.00000000 0.00000000 -70.43123926 8.13889391 0.00000000 0.00000000 0.00000000 0.00000000 
198504404 0.00000000 0.00000000 -71.04939993 -0.38953237 0.00000000 0.00000000 0.00000000 0.00000000 
200421924 0.00000000 0.00000000 -68.12077706 16.88746828 0.00000000 0.00000000 0.00000000 0.00000000 
202339442 0.00000000 0.00000000 -80.00000000 -1.86598426 0.00000000 0.00000000 0.00000000 0.00000000 
204256960 0.00000000 0.00000000 -75.17395414 -128.38403816 0.00000000 0.00000000 0.00000000 0.00000000 
206174478 0.00000000 0.00000000 -76.31515449 91.02691261 0.00000000 0.00000000 0.00000000 0.00000000 
208091998 0.00000000 0.00000000 -70.21874663 179.11343447 0.00000000 0.00000000 0.00000000 0.00000000 
210009516 0.00000000 0.00000000 -78.43400559 155.02384750 0.00000000 0.00000000 0.00000000 0.00000000 
211927034 0.00000000 0.00000000 -67.26697284 179.33784159 0.00000000 0.00000000 0.00000000 0.00000000 
213844552 0.00000000 0.00000000 -70.08564414 172.31780016 0.00000000 0.00000000 0.00000000 0.00000000 
215762072 0.00000000 0.00000000 -70.29007967 -117.46483293 0.00000000 0.00000000 0.00000000 0.00000000 
217679590 0.00000000 0.00000000 -68.40785478 -172.20820547 0.00000000 0.00000000 0.00000000 0.00000000 
219597108 0.00000000 0.00000000 -69.01142437 159.51991275 0.00000000 0.00000000 0.00000000 0.00000000 
221514626 0.00000000 0.00000000 -77.29696909 -146.13169764 0.00000000 0.00000000 0.00000000 0.00000000 
223432146 0.00000000 0.00000000 -72.37075147 166.52812680 0.00000000 0.00000000 0.00000000 0.00000000 
225349664 0.00000000 0.00000000 -65.70031094 178.91380245 0.00000000 0.00000000 0.00000000 0.00000000 
227267182 0.00000000 0.00000000 -68.68915100 -172.15013487 0.00000000 0.00000000 0.00000000 0.00000000 
229184700 0.00000000 0.00000000 -67.33125746 -132.00034071 0.00000000 0.00000000 0.00000000 0.00000000 
231102220 0.00000000 0.00000000 -72.53648199 -79.45036070 0.00000000 0.00000000 0.00000000 0.00000000 
233019738 0.00000000 0.00000000 -68.09746635 -93.76566442 0.00000000 0.00000000 0.00000000 0.00000000 
234937256 0.00000000 0.00000000 -74.83278993 -72.83134378 0.00000000 0.00000000 0.00000000 0.00000000 
236854774 0.00000000 0.00000000 -68.76197399 1.76623777 0.00000000 0.00000000 0.00000000 0.00000000 
238772294 0.00000000 0.00000000 -68.73030855 -124.27547295 0.00000000 0.00000000 0.00000000 0.00000000 
240689812 0.00000000 0.00000000 -73.45051594 -165.78534493 0.00000000 0.00000000 0.00000000 0.00000000 
242607330 0.00000000 0.00000000 -80.00000000 61.89599417 0.00000000 0.00000000 0.00000000 0.00000000 
244524848 0.00000000 0.00000000 -70.34125674 116.73311238 0.00000000 0.00000000 0.00000000 0.00000000 
246442368 0.00000000 0.00000000 -64.07798203 109.40160776 0.00000000 0.00000000 0.00000000 0.00000000 
248359886 0.00000000 0.00000000 -68.14395013 77.47912180 0.00000000 0.00000000 0.00000000 0.00000000 
250277404 0.00000000 0.00000000 -80.00000000 -110.68899209 0.00000000 0.00000000 0.00000000 0.00000000 
252194922 0.00000000 0.00000000 -73.40485939 88.39868035 0.00000000 0.00000000 0.00000000 0.00000000 
254112442 0.00000000 0.00000000 -80.00000000 153.21491828 0.00000000 0.00000000 0.00000000 0.00000000 
256029960 0.00000000 0.00000000 -70.45840609 124.71239256 0.00000000 0.00000000 0.00000000 0.00000000 
257947478 0.00000000 0.00000000 -71.00637402 102.28352684 0.00000000 0.00000000 0.00000000 0.00000000 
259864996 0.00000000 0.00000000 -66.07510856 89.28183131 0.00000000 0.00000000 0.00000000 0.00000000 
261782516 0.00000000 0.00000000 -61.60000732 105.88588432 0.00000000 0.00000000 0.00000000 0.00000000 
263700034 0.00000000 0.00000000 -67.22303341 120.69938319 0.00000000 0.00000000 0.00000000 0.00000000 
265617552 0.00000000 0.00000000 -65.64511344 136.67199855 0.00000000 0.00000000 0.00000000 0.00000000 
267535070 0.00000000 0.00000000 -72.13192828 99.96460652 0.00000000 0.00000000 0.00000000 0.00000000 
269452590 0.00000000 0.00000000 -80.00000000 47.51749673 0.00000000 0.00000000 0.00000000 0.00000000 
271370108 0.00000000 0.00000000 -73.28539849 -56.35025564 0.00000000 0.00000000 0.00000000 0.00000000 
273287626 0.00000000 0.00000000 -78.26860313 135.70476756 0.00000000 0.00000000 0.00000000 0.00000000 
275205144 0.00000000 0.00000000 -65.98143641 146.13820984 0.00000000 0.00000000 0.00000000 0.00000000 
277122664 0.00000000 0.00000000 -66.16531627 -151.29734286 0.00000000 0.00000000 0.00000000 0.00000000 
279040182 0.00000000 0.00000000 -80.00000000 178.11200225 0.00000000 0.00000000 0.00000000 0.00000000 
280957700 0.00000000 0.00000000 -65.40173216 179.12662858 0.00000000 0.00000000 0.00000000 0.00000000 
282875218 0.00000000 0.00000000 -71.92167208 -64.54683799 0.00000000 0.00000000 0.00000000 0.00000000 
284792738 0.00000000 0.00000000 -73.67333883 -29.29384647 0.00000000 0.00000000 0.00000000 0.00000000 
286710256 0.00000000 0.00000000 -67.47619746 -48.88983536 0.00000000 0.00000000 0.00000000 0.00000000 
288627774 0.00000000 0.00000000 -80.00000000 -70.48711613 0.00000000 0.00000000 0.00000000 0.00000000 
290545292 0.00000000 0.00000000 -67.99516206 -40.63349619 0.00000000 0.00000000 0.00000000 0.00000000 
292462812 0.00000000 0.00000000 -74.76411071 64.45219968 0.00000000 0.00000000 0.00000000 0.00000000 
294380330 0.00000000 0.00000000 -66.72497132 -156.62234106 0.00000000 0.00000000 0.00000000 0.00000000 
296297848 0.00000000 0.00000000 -64.82161247 -64.28123891 0.00000000 0.00000000 0.00000000 0.00000000 
298215366 0.00000000 0.00000000 -72.29159891 -127.42580981 0.00000000 0.00000000 0.00000000 0.00000000 
300132886 0.00000000 0.00000000 -74.02142062 -78.33392031 0.00000000 0.00000000 0.00000000 0.00000000 
302050404 0.00000000 0.00000000 -79.27817936 -26.67356144 0.00000000 0.00000000 0.00000000 0.00000000 
303967922 0.00000000 0.00000000 -79.03230083 67.33155669 0.00000000 0.00000000 0.00000000 0.00000000 
305885440 0.00000000 0.00000000 -66.35370949 118.76639673 0.00000000 0.00000000 0.00000000 0.00000000 
307802960 0.00000000 0.00000000 -66.83951368 122.22630121 0.00000000 0.00000000 0.00000000 0.00000000 
309720478 0.00000000 0.00000000 -64.74164869 115.51043224 0.00000000 0.00000000 0.00000000 0.00000000 
311637996 0.00000000 0.00000000 -66.52638030 124.97714112 0.00000000 0.00000000 0.00000000 0.00000000 
313555514 0.00000000 0.00000000 -68.76166276 106.89490375 0.00000000 0.00000000 0.00000000 0.00000000 
315473034 0.00000000 0.00000000 -70.73331017 141.68562959 0.00000000 0.00000000 0.00000000 0.00000000 
317390552 0.00000000 0.00000000 -74.03786498 -106.32945406 0.00000000 0.00000000 0.00000000 0.00000000 
319308070 0.00000000 0.00000000 -72.04176365 -132.40847555 0.00000000 0.00000000 0.00000000 0.00000000 
321225588 0.00000000 0.00000000 -71.30915378 -14.25772747 0.00000000 0.00000000 0.00000000 0.00000000 
323143108 0.00000000 0.00000000 -67.14004010 -90.42940777 0.00000000 0.00000000 0.00000000 0.00000000 
325060626 0.00000000 0.00000000 -77.13982966 -144.84522562 0.00000000 0.00000000 0.00000000 0.00000000 
326978144 0.00000000 0.00000000 -80.00000000 -25.54746022 0.00000000 0.00000000 0.00000000 0.00000000 
328895662 0.00000000 0.00000000 -71.56789960 11.23149538 0.00000000 0.00000000 0.00000000 0.00000000 
330813182 0.00000000 0.00000000 -71.45126285 102.08622870 0.00000000 0.00000000 0.00000000 0.00000000 
332730700 0.00000000 0.00000000 -72.55755957 144.55548086 0.00000000 0.00000000 0.00000000 0.00000000 
334648218 0.00000000 0.00000000 -69.34892850 146.47269031 0.00000000 0.00000000 0.00000000 0.00000000 
336565736 0.00000000 0.00000000 -66.11567897 100.76691278 0.00000000 0.00000000 0.00000000 0.00000000 
338483256 0.00000000 0.00000000 -63.63352624 140.11700313 0.00000000 0.00000000 0.00000000 0.00000000 
340400774 0.00000000 0.00000000 -63.26772048 155.74039382 0.00000000 0.00000000 0.00000000 0.00000000 
342318292 0.00000000 0.00000000 -62.22638227 170.14374791 0.00000000 0.00000000 0.00000000 0.00000000 
344235810 0.00000000 0.00000000 -72.53030870 -167.77775307 0.00000000 0.00000000 0.00000000 0.00000000 
346153330 0.00000000 0.00000000 -67.18081431 -167.41087127 0.00000000 0.00000000 0.00000000 0.00000000 
348070848 0.00000000 0.00000000 -80.00000000 56.42245619 0.00000000 0.00000000 0.00000000 0.00000000 
349988366 0.00000000 0.00000000 -76.43326426 142.44138947 0.00000000 0.00000000 0.00000000 0.00000000 
351905884 0.00000000 0.00000000 -80.00000000 97.50148367 0.00000000 0.00000000 0.00000000 0.00000000 
353823404 0.00000000 0.00000000 -74.84529599 173.22267833 0.00000000 0.00000000 0.00000000 0.00000000 
355740922 0.00000000 0.00000000 -74.36199335 21.03173878 0.00000000 0.00000000 0.00000000 0.00000000 
357658440 0.00000000 0.00000000 -69.00028341 56.82376055 0.00000000 0.00000000 0.00000000 0.00000000 
359575958 0.00000000 0.00000000 -80.00000000 -142.04754896 0.00000000 0.00000000 0.00000000 0.00000000 
361493478 0.00000000 0.00000000 -78.73118820 139.58212975 0.00000000 0.00000000 0.00000000 0.00000000 
363410996 0.00000000 0.00000000 -69.90849972 34.41566572 0.00000000 0.00000000 0.00000000 0.00000000 
365328514 0.00000000 0.00000000 -68.02104967 21.07656055 0.00000000 0.00000000 0.00000000 0.00000000 
367246032 0.00000000 0.00000000 -72.31688835 99.35085622 0.00000000 0.00000000 0.00000000 0.00000000 
369163552 0.00000000 0.00000000 -67.96459134 50.69703512 0.00000000 0.00000000 0.00000000 0.00000000 
