! created by ADMIN at Tue Apr 21 15:34:46 IST 2026
! generated using vna/J Version 3.2.10
# Hz S DB R 50
001000000 0.00000000 0.00000000 -74.95916234 51.10408172 0.00000000 0.00000000 0.00000000 0.00000000 
002917518 0.00000000 0.00000000 -80.00000000 -165.99579835 0.00000000 0.00000000 0.00000000 0.00000000 
004835036 0.00000000 0.00000000 -76.17945444 -136.78937793 0.00000000 0.00000000 0.00000000 0.00000000 
006752554 0.00000000 0.00000000 -70.42718795 -59.98475168 0.00000000 0.00000000 0.00000000 0.00000000 
008670074 0.00000000 0.00000000 -69.08775010 -111.30892477 0.00000000 0.00000000 0.00000000 0.00000000 
010587592 0.00000000 0.00000000 -80.00000000 -76.89646833 0.00000000 0.00000000 0.00000000 0.00000000 
012505110 0.00000000 0.00000000 -80.00000000 80.35700804 0.00000000 0.00000000 0.00000000 0.00000000 
014422628 0.00000000 0.00000000 -79.67479266 126.48961560 0.00000000 0.00000000 0.00000000 0.00000000 
016340148 0.00000000 0.00000000 -77.89445868 130.79666507 0.00000000 0.00000000 0.00000000 0.00000000 
018257666 0.00000000 0.00000000 -74.29693986 64.41889657 0.00000000 0.00000000 0.00000000 0.00000000 
020175184 0.00000000 0.00000000 -71.32672483 54.10541747 0.00000000 0.00000000 0.00000000 0.00000000 
022092702 0.00000000 0.00000000 -68.79387807 43.57701213 0.00000000 0.00000000 0.00000000 0.00000000 
024010222 0.00000000 0.00000000 -76.30048753 80.81351351 0.00000000 0.00000000 0.00000000 0.00000000 
025927740 0.00000000 0.00000000 -67.76562423 32.31001898 0.00000000 0.00000000 0.00000000 0.00000000 
027845258 0.00000000 0.00000000 -70.59506817 90.80914976 0.00000000 0.00000000 0.00000000 0.00000000 
029762776 0.00000000 0.00000000 -70.22623049 119.20585739 0.00000000 0.00000000 0.00000000 0.00000000 
031680296 0.00000000 0.00000000 -66.62925210 80.60436950 0.00000000 0.00000000 0.00000000 0.00000000 
033597814 0.00000000 0.00000000 -71.21766908 121.97059898 0.00000000 0.00000000 0.00000000 0.00000000 
035515332 0.00000000 0.00000000 -68.12787302 118.29221820 0.00000000 0.00000000 0.00000000 0.00000000 
037432850 0.00000000 0.00000000 -66.74210404 159.24383588 0.00000000 0.00000000 0.00000000 0.00000000 
039350370 0.00000000 0.00000000 -67.69153980 141.91823233 0.00000000 0.00000000 0.00000000 0.00000000 
041267888 0.00000000 0.00000000 -70.20532107 161.30114745 0.00000000 0.00000000 0.00000000 0.00000000 
043185406 0.00000000 0.00000000 -70.57920478 -172.57022509 0.00000000 0.00000000 0.00000000 0.00000000 
045102924 0.00000000 0.00000000 -73.07415368 126.90303447 0.00000000 0.00000000 0.00000000 0.00000000 
047020444 0.00000000 0.00000000 -80.00000000 -43.62892139 0.00000000 0.00000000 0.00000000 0.00000000 
048937962 0.00000000 0.00000000 -73.63754735 -176.98889252 0.00000000 0.00000000 0.00000000 0.00000000 
050855480 0.00000000 0.00000000 -75.11806878 -175.35709159 0.00000000 0.00000000 0.00000000 0.00000000 
052772998 0.00000000 0.00000000 -75.86775777 -139.61234662 0.00000000 0.00000000 0.00000000 0.00000000 
054690518 0.00000000 0.00000000 -78.37550077 -174.66387942 0.00000000 0.00000000 0.00000000 0.00000000 
056608036 0.00000000 0.00000000 -69.55245227 136.75932265 0.00000000 0.00000000 0.00000000 0.00000000 
058525554 0.00000000 0.00000000 -73.19833378 178.68008171 0.00000000 0.00000000 0.00000000 0.00000000 
060443072 0.00000000 0.00000000 -80.00000000 -32.83441779 0.00000000 0.00000000 0.00000000 0.00000000 
062360592 0.00000000 0.00000000 -80.00000000 -152.30706553 0.00000000 0.00000000 0.00000000 0.00000000 
064278110 0.00000000 0.00000000 -80.00000000 137.18217193 0.00000000 0.00000000 0.00000000 0.00000000 
066195628 0.00000000 0.00000000 -69.12019481 -106.00513124 0.00000000 0.00000000 0.00000000 0.00000000 
068113146 0.00000000 0.00000000 -72.32674844 -53.96580551 0.00000000 0.00000000 0.00000000 0.00000000 
070030666 0.00000000 0.00000000 -71.43808646 1.76776711 0.00000000 0.00000000 0.00000000 0.00000000 
071948184 0.00000000 0.00000000 -69.09601928 -39.14904534 0.00000000 0.00000000 0.00000000 0.00000000 
073865702 0.00000000 0.00000000 -73.22969368 -44.97902704 0.00000000 0.00000000 0.00000000 0.00000000 
075783220 0.00000000 0.00000000 -77.60689333 -29.03415828 0.00000000 0.00000000 0.00000000 0.00000000 
077700740 0.00000000 0.00000000 -78.12587942 11.15780993 0.00000000 0.00000000 0.00000000 0.00000000 
079618258 0.00000000 0.00000000 -70.37553508 -48.87739796 0.00000000 0.00000000 0.00000000 0.00000000 
081535776 0.00000000 0.00000000 -70.31577531 -5.48723092 0.00000000 0.00000000 0.00000000 0.00000000 
083453294 0.00000000 0.00000000 -66.23356977 -28.66891800 0.00000000 0.00000000 0.00000000 0.00000000 
085370814 0.00000000 0.00000000 -68.02076545 -38.85982357 0.00000000 0.00000000 0.00000000 0.00000000 
087288332 0.00000000 0.00000000 -67.09699607 -52.79789229 0.00000000 0.00000000 0.00000000 0.00000000 
089205850 0.00000000 0.00000000 -71.07566191 30.16740243 0.00000000 0.00000000 0.00000000 0.00000000 
091123368 0.00000000 0.00000000 -73.12714989 48.12721949 0.00000000 0.00000000 0.00000000 0.00000000 
093040888 0.00000000 0.00000000 -72.57263357 131.93439639 0.00000000 0.00000000 0.00000000 0.00000000 
094958406 0.00000000 0.00000000 -80.00000000 149.33485771 0.00000000 0.00000000 0.00000000 0.00000000 
096875924 0.00000000 0.00000000 -75.45129476 -14.88781957 0.00000000 0.00000000 0.00000000 0.00000000 
098793442 0.00000000 0.00000000 -68.05840892 -19.20024605 0.00000000 0.00000000 0.00000000 0.00000000 
100710962 0.00000000 0.00000000 -64.69875150 -20.87710476 0.00000000 0.00000000 0.00000000 0.00000000 
102628480 0.00000000 0.00000000 -65.59597125 18.16184435 0.00000000 0.00000000 0.00000000 0.00000000 
104545998 0.00000000 0.00000000 -73.58972297 56.09826126 0.00000000 0.00000000 0.00000000 0.00000000 
106463516 0.00000000 0.00000000 -71.66832445 115.41452649 0.00000000 0.00000000 0.00000000 0.00000000 
108381036 0.00000000 0.00000000 -66.74316649 73.32533142 0.00000000 0.00000000 0.00000000 0.00000000 
110298554 0.00000000 0.00000000 -75.28791564 130.41473535 0.00000000 0.00000000 0.00000000 0.00000000 
112216072 0.00000000 0.00000000 -69.00798737 98.55534582 0.00000000 0.00000000 0.00000000 0.00000000 
114133590 0.00000000 0.00000000 -76.25827738 135.42733848 0.00000000 0.00000000 0.00000000 0.00000000 
116051110 0.00000000 0.00000000 -66.94498473 27.93468068 0.00000000 0.00000000 0.00000000 0.00000000 
117968628 0.00000000 0.00000000 -73.55552351 53.65364640 0.00000000 0.00000000 0.00000000 0.00000000 
119886146 0.00000000 0.00000000 -80.00000000 -17.25940413 0.00000000 0.00000000 0.00000000 0.00000000 
121803664 0.00000000 0.00000000 -73.15862933 -115.19303062 0.00000000 0.00000000 0.00000000 0.00000000 
123721184 0.00000000 0.00000000 -67.44448484 -171.48693800 0.00000000 0.00000000 0.00000000 0.00000000 
125638702 0.00000000 0.00000000 -66.11143178 -117.41725735 0.00000000 0.00000000 0.00000000 0.00000000 
127556220 0.00000000 0.00000000 -67.59166004 -76.97978902 0.00000000 0.00000000 0.00000000 0.00000000 
129473738 0.00000000 0.00000000 -67.24556657 -78.78631692 0.00000000 0.00000000 0.00000000 0.00000000 
131391258 0.00000000 0.00000000 -68.55149231 -71.72689530 0.00000000 0.00000000 0.00000000 0.00000000 
133308776 0.00000000 0.00000000 -67.94237532 -120.35872697 0.00000000 0.00000000 0.00000000 0.00000000 
135226294 0.00000000 0.00000000 -72.85703553 69.01090368 0.00000000 0.00000000 0.00000000 0.00000000 
137143812 0.00000000 0.00000000 -70.24838979 28.88835164 0.00000000 0.00000000 0.00000000 0.00000000 
139061332 0.00000000 0.00000000 -71.37563331 73.89019113 0.00000000 0.00000000 0.00000000 0.00000000 
140978850 0.00000000 0.00000000 -70.91414121 88.05297700 0.00000000 0.00000000 0.00000000 0.00000000 
142896368 0.00000000 0.00000000 -68.72933268 89.72512549 0.00000000 0.00000000 0.00000000 0.00000000 
144813886 0.00000000 0.00000000 -71.96268715 -148.29143534 0.00000000 0.00000000 0.00000000 0.00000000 
146731406 0.00000000 0.00000000 -66.96775019 -147.04278642 0.00000000 0.00000000 0.00000000 0.00000000 
148648924 0.00000000 0.00000000 -74.63465491 -162.32356690 0.00000000 0.00000000 0.00000000 0.00000000 
150566442 0.00000000 0.00000000 -76.71803076 -124.80325952 0.00000000 0.00000000 0.00000000 0.00000000 
152483960 0.00000000 0.00000000 -72.94463931 -25.96420219 0.00000000 0.00000000 0.00000000 0.00000000 
154401480 0.00000000 0.00000000 -78.91885291 -80.97033207 0.00000000 0.00000000 0.00000000 0.00000000 
156318998 0.00000000 0.00000000 -76.64625347 -92.41163472 0.00000000 0.00000000 0.00000000 0.00000000 
158236516 0.00000000 0.00000000 -69.04139722 -29.84723838 0.00000000 0.00000000 0.00000000 0.00000000 
160154034 0.00000000 0.00000000 -68.88582070 26.23203473 0.00000000 0.00000000 0.00000000 0.00000000 
162071554 0.00000000 0.00000000 -68.00351124 48.32005811 0.00000000 0.00000000 0.00000000 0.00000000 
163989072 0.00000000 0.00000000 -80.00000000 88.38927523 0.00000000 0.00000000 0.00000000 0.00000000 
165906590 0.00000000 0.00000000 -67.19311930 35.69876364 0.00000000 0.00000000 0.00000000 0.00000000 
167824108 0.00000000 0.00000000 -73.78948671 -113.83929161 0.00000000 0.00000000 0.00000000 0.00000000 
169741628 0.00000000 0.00000000 -78.83382446 19.83099097 0.00000000 0.00000000 0.00000000 0.00000000 
171659146 0.00000000 0.00000000 -77.87831105 95.65313439 0.00000000 0.00000000 0.00000000 0.00000000 
173576664 0.00000000 0.00000000 -77.33204476 64.01343092 0.00000000 0.00000000 0.00000000 0.00000000 
175494182 0.00000000 0.00000000 -69.82616089 51.10523652 0.00000000 0.00000000 0.00000000 0.00000000 
177411702 0.00000000 0.00000000 -67.66398022 44.47154839 0.00000000 0.00000000 0.00000000 0.00000000 
179329220 0.00000000 0.00000000 -67.95291508 51.85987247 0.00000000 0.00000000 0.00000000 0.00000000 
181246738 0.00000000 0.00000000 -78.62417892 36.38313456 0.00000000 0.00000000 0.00000000 0.00000000 
183164256 0.00000000 0.00000000 -67.40866984 157.36685985 0.00000000 0.00000000 0.00000000 0.00000000 
185081776 0.00000000 0.00000000 -67.28040365 -108.57254654 0.00000000 0.00000000 0.00000000 0.00000000 
186999294 0.00000000 0.00000000 -66.72285769 -46.59147963 0.00000000 0.00000000 0.00000000 0.00000000 
188916812 0.00000000 0.00000000 -71.57145251 -24.09909736 0.00000000 0.00000000 0.00000000 0.00000000 
190834330 0.00000000 0.00000000 -67.43781137 -24.01042803 0.00000000 0.00000000 0.00000000 0.00000000 
192751850 0.00000000 0.00000000 -67.21115133 12.34639072 0.00000000 0.00000000 0.00000000 0.00000000 
194669368 0.00000000 0.00000000 -66.71143530 16.44360047 0.00000000 0.00000000 0.00000000 0.00000000 
196586886 0.00000000 0.00000000 -73.97030361 27.13808957 0.00000000 0.00000000 0.00000000 0.00000000 
198504404 0.00000000 0.00000000 -80.00000000 123.96107692 0.00000000 0.00000000 0.00000000 0.00000000 
200421924 0.00000000 0.00000000 -76.85537960 141.04088346 0.00000000 0.00000000 0.00000000 0.00000000 
202339442 0.00000000 0.00000000 -71.97480688 -151.12022345 0.00000000 0.00000000 0.00000000 0.00000000 
204256960 0.00000000 0.00000000 -68.81175180 -124.69419707 0.00000000 0.00000000 0.00000000 0.00000000 
206174478 0.00000000 0.00000000 -79.94832048 2.59793421 0.00000000 0.00000000 0.00000000 0.00000000 
208091998 0.00000000 0.00000000 -80.00000000 -97.06578258 0.00000000 0.00000000 0.00000000 0.00000000 
210009516 0.00000000 0.00000000 -76.28925445 16.74646146 0.00000000 0.00000000 0.00000000 0.00000000 
211927034 0.00000000 0.00000000 -72.32862282 165.85301289 0.00000000 0.00000000 0.00000000 0.00000000 
213844552 0.00000000 0.00000000 -72.80458918 141.64383939 0.00000000 0.00000000 0.00000000 0.00000000 
215762072 0.00000000 0.00000000 -75.62289445 -120.59713260 0.00000000 0.00000000 0.00000000 0.00000000 
217679590 0.00000000 0.00000000 -70.57564394 -160.64896246 0.00000000 0.00000000 0.00000000 0.00000000 
219597108 0.00000000 0.00000000 -75.59716342 -152.22442700 0.00000000 0.00000000 0.00000000 0.00000000 
221514626 0.00000000 0.00000000 -66.88813036 -62.96768501 0.00000000 0.00000000 0.00000000 0.00000000 
223432146 0.00000000 0.00000000 -67.07616564 -55.04200030 0.00000000 0.00000000 0.00000000 0.00000000 
225349664 0.00000000 0.00000000 -80.00000000 -69.43195238 0.00000000 0.00000000 0.00000000 0.00000000 
227267182 0.00000000 0.00000000 -72.18135229 44.86056942 0.00000000 0.00000000 0.00000000 0.00000000 
229184700 0.00000000 0.00000000 -71.34248600 54.50038436 0.00000000 0.00000000 0.00000000 0.00000000 
231102220 0.00000000 0.00000000 -63.36408045 62.41913206 0.00000000 0.00000000 0.00000000 0.00000000 
233019738 0.00000000 0.00000000 -68.77520465 60.20224878 0.00000000 0.00000000 0.00000000 0.00000000 
234937256 0.00000000 0.00000000 -66.47876890 60.24916801 0.00000000 0.00000000 0.00000000 0.00000000 
236854774 0.00000000 0.00000000 -66.25289756 110.20976048 0.00000000 0.00000000 0.00000000 0.00000000 
238772294 0.00000000 0.00000000 -80.00000000 57.37858525 0.00000000 0.00000000 0.00000000 0.00000000 
240689812 0.00000000 0.00000000 -71.09018333 114.79619193 0.00000000 0.00000000 0.00000000 0.00000000 
242607330 0.00000000 0.00000000 -71.92509460 94.37007723 0.00000000 0.00000000 0.00000000 0.00000000 
244524848 0.00000000 0.00000000 -67.06482111 129.93500285 0.00000000 0.00000000 0.00000000 0.00000000 
246442368 0.00000000 0.00000000 -63.67990656 130.00795074 0.00000000 0.00000000 0.00000000 0.00000000 
248359886 0.00000000 0.00000000 -72.29485438 121.15526694 0.00000000 0.00000000 0.00000000 0.00000000 
250277404 0.00000000 0.00000000 -67.94365689 -122.29936041 0.00000000 0.00000000 0.00000000 0.00000000 
252194922 0.00000000 0.00000000 -74.35522246 -136.56319519 0.00000000 0.00000000 0.00000000 0.00000000 
254112442 0.00000000 0.00000000 -67.68281033 -113.97307515 0.00000000 0.00000000 0.00000000 0.00000000 
256029960 0.00000000 0.00000000 -66.95191872 -141.38411775 0.00000000 0.00000000 0.00000000 0.00000000 
257947478 0.00000000 0.00000000 -66.13247906 -128.06632076 0.00000000 0.00000000 0.00000000 0.00000000 
259864996 0.00000000 0.00000000 -67.47581584 -129.11918790 0.00000000 0.00000000 0.00000000 0.00000000 
261782516 0.00000000 0.00000000 -65.52349257 -157.22919635 0.00000000 0.00000000 0.00000000 0.00000000 
263700034 0.00000000 0.00000000 -66.98694468 -133.87754258 0.00000000 0.00000000 0.00000000 0.00000000 
265617552 0.00000000 0.00000000 -68.23467905 1.88212431 0.00000000 0.00000000 0.00000000 0.00000000 
267535070 0.00000000 0.00000000 -73.53848214 106.34219941 0.00000000 0.00000000 0.00000000 0.00000000 
269452590 0.00000000 0.00000000 -69.72970999 101.96626085 0.00000000 0.00000000 0.00000000 0.00000000 
271370108 0.00000000 0.00000000 -80.00000000 3.20092072 0.00000000 0.00000000 0.00000000 0.00000000 
273287626 0.00000000 0.00000000 -73.21350426 91.78248936 0.00000000 0.00000000 0.00000000 0.00000000 
275205144 0.00000000 0.00000000 -66.89786901 119.14328634 0.00000000 0.00000000 0.00000000 0.00000000 
277122664 0.00000000 0.00000000 -76.59397499 -137.95869671 0.00000000 0.00000000 0.00000000 0.00000000 
279040182 0.00000000 0.00000000 -71.13758956 57.54242136 0.00000000 0.00000000 0.00000000 0.00000000 
280957700 0.00000000 0.00000000 -63.87958405 153.35349037 0.00000000 0.00000000 0.00000000 0.00000000 
282875218 0.00000000 0.00000000 -77.73094136 156.97186397 0.00000000 0.00000000 0.00000000 0.00000000 
284792738 0.00000000 0.00000000 -71.33397575 152.72487299 0.00000000 0.00000000 0.00000000 0.00000000 
286710256 0.00000000 0.00000000 -75.85866404 -93.70266454 0.00000000 0.00000000 0.00000000 0.00000000 
288627774 0.00000000 0.00000000 -75.54161018 145.10237092 0.00000000 0.00000000 0.00000000 0.00000000 
290545292 0.00000000 0.00000000 -70.18731107 -19.81308401 0.00000000 0.00000000 0.00000000 0.00000000 
292462812 0.00000000 0.00000000 -67.40784343 63.27701478 0.00000000 0.00000000 0.00000000 0.00000000 
294380330 0.00000000 0.00000000 -69.91653606 167.89973908 0.00000000 0.00000000 0.00000000 0.00000000 
296297848 0.00000000 0.00000000 -67.62600749 -32.66839329 0.00000000 0.00000000 0.00000000 0.00000000 
298215366 0.00000000 0.00000000 -76.21191352 116.77018373 0.00000000 0.00000000 0.00000000 0.00000000 
300132886 0.00000000 0.00000000 -74.09602967 63.43707648 0.00000000 0.00000000 0.00000000 0.00000000 
302050404 0.00000000 0.00000000 -80.00000000 60.60634348 0.00000000 0.00000000 0.00000000 0.00000000 
303967922 0.00000000 0.00000000 -80.00000000 -143.40266242 0.00000000 0.00000000 0.00000000 0.00000000 
305885440 0.00000000 0.00000000 -70.99051227 175.57431914 0.00000000 0.00000000 0.00000000 0.00000000 
307802960 0.00000000 0.00000000 -69.78334732 -124.85566857 0.00000000 0.00000000 0.00000000 0.00000000 
309720478 0.00000000 0.00000000 -80.00000000 -117.08904370 0.00000000 0.00000000 0.00000000 0.00000000 
311637996 0.00000000 0.00000000 -76.22551215 -58.37730231 0.00000000 0.00000000 0.00000000 0.00000000 
313555514 0.00000000 0.00000000 -68.61036847 -9.32440437 0.00000000 0.00000000 0.00000000 0.00000000 
315473034 0.00000000 0.00000000 -68.95753051 -15.98038837 0.00000000 0.00000000 0.00000000 0.00000000 
317390552 0.00000000 0.00000000 -64.12253597 -32.42655539 0.00000000 0.00000000 0.00000000 0.00000000 
319308070 0.00000000 0.00000000 -67.10675311 -26.48037302 0.00000000 0.00000000 0.00000000 0.00000000 
321225588 0.00000000 0.00000000 -62.10334669 3.34501043 0.00000000 0.00000000 0.00000000 0.00000000 
323143108 0.00000000 0.00000000 -65.97627543 -25.65670763 0.00000000 0.00000000 0.00000000 0.00000000 
325060626 0.00000000 0.00000000 -74.52414355 10.91543123 0.00000000 0.00000000 0.00000000 0.00000000 
326978144 0.00000000 0.00000000 -71.22942887 -13.54635574 0.00000000 0.00000000 0.00000000 0.00000000 
328895662 0.00000000 0.00000000 -67.79332073 -20.13163761 0.00000000 0.00000000 0.00000000 0.00000000 
330813182 0.00000000 0.00000000 -77.82672887 -61.65450917 0.00000000 0.00000000 0.00000000 0.00000000 
332730700 0.00000000 0.00000000 -71.16053994 -116.33558585 0.00000000 0.00000000 0.00000000 0.00000000 
334648218 0.00000000 0.00000000 -69.30463020 -138.21501371 0.00000000 0.00000000 0.00000000 0.00000000 
336565736 0.00000000 0.00000000 -80.00000000 168.10233196 0.00000000 0.00000000 0.00000000 0.00000000 
338483256 0.00000000 0.00000000 -65.55028109 -167.44849041 0.00000000 0.00000000 0.00000000 0.00000000 
340400774 0.00000000 0.00000000 -67.69750011 -162.73252325 0.00000000 0.00000000 0.00000000 0.00000000 
342318292 0.00000000 0.00000000 -69.33492696 -165.59597877 0.00000000 0.00000000 0.00000000 0.00000000 
344235810 0.00000000 0.00000000 -69.10317371 -5.12914744 0.00000000 0.00000000 0.00000000 0.00000000 
346153330 0.00000000 0.00000000 -70.24228340 37.98941512 0.00000000 0.00000000 0.00000000 0.00000000 
348070848 0.00000000 0.00000000 -65.81446321 27.75672728 0.00000000 0.00000000 0.00000000 0.00000000 
349988366 0.00000000 0.00000000 -75.47421632 52.76778392 0.00000000 0.00000000 0.00000000 0.00000000 
351905884 0.00000000 0.00000000 -80.00000000 -47.69860813 0.00000000 0.00000000 0.00000000 0.00000000 
353823404 0.00000000 0.00000000 -67.33658667 -117.72569724 0.00000000 0.00000000 0.00000000 0.00000000 
355740922 0.00000000 0.00000000 -72.66783556 -52.90004289 0.00000000 0.00000000 0.00000000 0.00000000 
357658440 0.00000000 0.00000000 -73.98222859 60.78654883 0.00000000 0.00000000 0.00000000 0.00000000 
359575958 0.00000000 0.00000000 -72.00901881 -166.31172402 0.00000000 0.00000000 0.00000000 0.00000000 
361493478 0.00000000 0.00000000 -67.49419469 160.65296222 0.00000000 0.00000000 0.00000000 0.00000000 
363410996 0.00000000 0.00000000 -71.65486679 118.20403960 0.00000000 0.00000000 0.00000000 0.00000000 
365328514 0.00000000 0.00000000 -74.89052289 120.64206345 0.00000000 0.00000000 0.00000000 0.00000000 
367246032 0.00000000 0.00000000 -64.39362234 161.75586961 0.00000000 0.00000000 0.00000000 0.00000000 
369163552 0.00000000 0.00000000 -68.31684875 152.10329692 0.00000000 0.00000000 0.00000000 0.00000000 
