! created by ADMIN at Tue Apr 21 15:16:47 IST 2026
! generated using vna/J Version 3.2.10
# Hz S DB R 50
001000000 0.00000000 0.00000000 -63.74091707 55.56664088 0.00000000 0.00000000 0.00000000 0.00000000 
002917518 0.00000000 0.00000000 -69.33603989 63.63448150 0.00000000 0.00000000 0.00000000 0.00000000 
004835036 0.00000000 0.00000000 -70.80046471 44.00858728 0.00000000 0.00000000 0.00000000 0.00000000 
006752554 0.00000000 0.00000000 -64.86302896 7.14614746 0.00000000 0.00000000 0.00000000 0.00000000 
008670074 0.00000000 0.00000000 -68.10480082 7.51600219 0.00000000 0.00000000 0.00000000 0.00000000 
010587592 0.00000000 0.00000000 -63.65022155 37.51142736 0.00000000 0.00000000 0.00000000 0.00000000 
012505110 0.00000000 0.00000000 -62.41224228 48.58842421 0.00000000 0.00000000 0.00000000 0.00000000 
014422628 0.00000000 0.00000000 -61.80604024 59.49993169 0.00000000 0.00000000 0.00000000 0.00000000 
016340148 0.00000000 0.00000000 -61.16486141 66.04172416 0.00000000 0.00000000 0.00000000 0.00000000 
018257666 0.00000000 0.00000000 -60.21455820 60.85776935 0.00000000 0.00000000 0.00000000 0.00000000 
020175184 0.00000000 0.00000000 -59.80828759 59.23601260 0.00000000 0.00000000 0.00000000 0.00000000 
022092702 0.00000000 0.00000000 -59.24705601 55.68919916 0.00000000 0.00000000 0.00000000 0.00000000 
024010222 0.00000000 0.00000000 -61.09885569 64.60561691 0.00000000 0.00000000 0.00000000 0.00000000 
025927740 0.00000000 0.00000000 -60.04612645 43.92861991 0.00000000 0.00000000 0.00000000 0.00000000 
027845258 0.00000000 0.00000000 -62.52149777 53.09729639 0.00000000 0.00000000 0.00000000 0.00000000 
029762776 0.00000000 0.00000000 -64.00389883 45.05719145 0.00000000 0.00000000 0.00000000 0.00000000 
031680296 0.00000000 0.00000000 -59.75652422 34.25912398 0.00000000 0.00000000 0.00000000 0.00000000 
033597814 0.00000000 0.00000000 -60.83272070 20.30680372 0.00000000 0.00000000 0.00000000 0.00000000 
035515332 0.00000000 0.00000000 -58.80063463 24.03979442 0.00000000 0.00000000 0.00000000 0.00000000 
037432850 0.00000000 0.00000000 -58.94285697 20.53276804 0.00000000 0.00000000 0.00000000 0.00000000 
039350370 0.00000000 0.00000000 -56.15716574 26.13852210 0.00000000 0.00000000 0.00000000 0.00000000 
041267888 0.00000000 0.00000000 -55.49262102 5.06293809 0.00000000 0.00000000 0.00000000 0.00000000 
043185406 0.00000000 0.00000000 -53.62006311 -7.90253236 0.00000000 0.00000000 0.00000000 0.00000000 
045102924 0.00000000 0.00000000 -51.25112559 -5.14885848 0.00000000 0.00000000 0.00000000 0.00000000 
047020444 0.00000000 0.00000000 -48.95335511 -8.17922524 0.00000000 0.00000000 0.00000000 0.00000000 
048937962 0.00000000 0.00000000 -52.07552539 -8.18963634 0.00000000 0.00000000 0.00000000 0.00000000 
050855480 0.00000000 0.00000000 -54.85268618 -15.15235535 0.00000000 0.00000000 0.00000000 0.00000000 
052772998 0.00000000 0.00000000 -56.76860123 -37.76758881 0.00000000 0.00000000 0.00000000 0.00000000 
054690518 0.00000000 0.00000000 -56.74389977 -64.22781612 0.00000000 0.00000000 0.00000000 0.00000000 
056608036 0.00000000 0.00000000 -59.59713207 -55.29586616 0.00000000 0.00000000 0.00000000 0.00000000 
058525554 0.00000000 0.00000000 -59.15279735 -52.11280498 0.00000000 0.00000000 0.00000000 0.00000000 
060443072 0.00000000 0.00000000 -58.57966512 -35.95294670 0.00000000 0.00000000 0.00000000 0.00000000 
062360592 0.00000000 0.00000000 -60.42671715 -32.26696292 0.00000000 0.00000000 0.00000000 0.00000000 
064278110 0.00000000 0.00000000 -62.33379546 -24.65224574 0.00000000 0.00000000 0.00000000 0.00000000 
066195628 0.00000000 0.00000000 -61.84485141 -51.08077712 0.00000000 0.00000000 0.00000000 0.00000000 
068113146 0.00000000 0.00000000 -62.44900443 -37.83069427 0.00000000 0.00000000 0.00000000 0.00000000 
070030666 0.00000000 0.00000000 -63.81253696 -26.16630827 0.00000000 0.00000000 0.00000000 0.00000000 
071948184 0.00000000 0.00000000 -64.53142079 -31.69619961 0.00000000 0.00000000 0.00000000 0.00000000 
073865702 0.00000000 0.00000000 -71.66535073 -18.32310046 0.00000000 0.00000000 0.00000000 0.00000000 
075783220 0.00000000 0.00000000 -77.77419150 78.38885923 0.00000000 0.00000000 0.00000000 0.00000000 
077700740 0.00000000 0.00000000 -69.53491291 122.95025938 0.00000000 0.00000000 0.00000000 0.00000000 
079618258 0.00000000 0.00000000 -74.29006827 62.15955419 0.00000000 0.00000000 0.00000000 0.00000000 
081535776 0.00000000 0.00000000 -63.67254441 60.68869809 0.00000000 0.00000000 0.00000000 0.00000000 
083453294 0.00000000 0.00000000 -61.90229216 49.75958072 0.00000000 0.00000000 0.00000000 0.00000000 
085370814 0.00000000 0.00000000 -60.43080053 65.53223368 0.00000000 0.00000000 0.00000000 0.00000000 
087288332 0.00000000 0.00000000 -62.82641707 48.52073129 0.00000000 0.00000000 0.00000000 0.00000000 
089205850 0.00000000 0.00000000 -59.37664583 54.49469124 0.00000000 0.00000000 0.00000000 0.00000000 
091123368 0.00000000 0.00000000 -59.05793130 46.75295991 0.00000000 0.00000000 0.00000000 0.00000000 
093040888 0.00000000 0.00000000 -59.26381423 48.24712906 0.00000000 0.00000000 0.00000000 0.00000000 
094958406 0.00000000 0.00000000 -59.63962519 47.54491998 0.00000000 0.00000000 0.00000000 0.00000000 
096875924 0.00000000 0.00000000 -59.16278144 44.65277106 0.00000000 0.00000000 0.00000000 0.00000000 
098793442 0.00000000 0.00000000 -58.92860074 41.06412729 0.00000000 0.00000000 0.00000000 0.00000000 
100710962 0.00000000 0.00000000 -58.99110188 38.33380468 0.00000000 0.00000000 0.00000000 0.00000000 
102628480 0.00000000 0.00000000 -57.73404034 44.44713742 0.00000000 0.00000000 0.00000000 0.00000000 
104545998 0.00000000 0.00000000 -59.50515821 48.84567160 0.00000000 0.00000000 0.00000000 0.00000000 
106463516 0.00000000 0.00000000 -59.70797299 50.71606365 0.00000000 0.00000000 0.00000000 0.00000000 
108381036 0.00000000 0.00000000 -56.42216499 42.94055885 0.00000000 0.00000000 0.00000000 0.00000000 
110298554 0.00000000 0.00000000 -57.68060702 65.97968756 0.00000000 0.00000000 0.00000000 0.00000000 
112216072 0.00000000 0.00000000 -54.85118540 85.99715091 0.00000000 0.00000000 0.00000000 0.00000000 
114133590 0.00000000 0.00000000 -54.45208271 104.56169764 0.00000000 0.00000000 0.00000000 0.00000000 
116051110 0.00000000 0.00000000 -53.27025243 106.00192334 0.00000000 0.00000000 0.00000000 0.00000000 
117968628 0.00000000 0.00000000 -53.76687918 94.92679779 0.00000000 0.00000000 0.00000000 0.00000000 
119886146 0.00000000 0.00000000 -53.39533001 79.79117954 0.00000000 0.00000000 0.00000000 0.00000000 
121803664 0.00000000 0.00000000 -51.99320271 71.32976160 0.00000000 0.00000000 0.00000000 0.00000000 
123721184 0.00000000 0.00000000 -49.65930991 74.76420263 0.00000000 0.00000000 0.00000000 0.00000000 
125638702 0.00000000 0.00000000 -50.44816877 67.96731213 0.00000000 0.00000000 0.00000000 0.00000000 
127556220 0.00000000 0.00000000 -49.68259302 62.21497885 0.00000000 0.00000000 0.00000000 0.00000000 
129473738 0.00000000 0.00000000 -49.24412784 62.34006861 0.00000000 0.00000000 0.00000000 0.00000000 
131391258 0.00000000 0.00000000 -48.41010157 63.59318945 0.00000000 0.00000000 0.00000000 0.00000000 
133308776 0.00000000 0.00000000 -48.63992160 64.36284635 0.00000000 0.00000000 0.00000000 0.00000000 
135226294 0.00000000 0.00000000 -46.88536381 61.68191654 0.00000000 0.00000000 0.00000000 0.00000000 
137143812 0.00000000 0.00000000 -46.14161510 57.82209445 0.00000000 0.00000000 0.00000000 0.00000000 
139061332 0.00000000 0.00000000 -45.34193075 60.07705308 0.00000000 0.00000000 0.00000000 0.00000000 
140978850 0.00000000 0.00000000 -44.26756891 56.38382162 0.00000000 0.00000000 0.00000000 0.00000000 
142896368 0.00000000 0.00000000 -42.92372744 55.14739878 0.00000000 0.00000000 0.00000000 0.00000000 
144813886 0.00000000 0.00000000 -42.21444238 54.86424334 0.00000000 0.00000000 0.00000000 0.00000000 
146731406 0.00000000 0.00000000 -41.08800884 57.85853546 0.00000000 0.00000000 0.00000000 0.00000000 
148648924 0.00000000 0.00000000 -39.37925152 48.48047180 0.00000000 0.00000000 0.00000000 0.00000000 
150566442 0.00000000 0.00000000 -37.63390198 44.12930833 0.00000000 0.00000000 0.00000000 0.00000000 
152483960 0.00000000 0.00000000 -35.85319335 43.49255988 0.00000000 0.00000000 0.00000000 0.00000000 
154401480 0.00000000 0.00000000 -34.43298439 46.40166359 0.00000000 0.00000000 0.00000000 0.00000000 
156318998 0.00000000 0.00000000 -34.36902075 4.23087070 0.00000000 0.00000000 0.00000000 0.00000000 
158236516 0.00000000 0.00000000 -30.37576818 -16.67537433 0.00000000 0.00000000 0.00000000 0.00000000 
160154034 0.00000000 0.00000000 -27.04805877 -20.30086630 0.00000000 0.00000000 0.00000000 0.00000000 
162071554 0.00000000 0.00000000 -24.50276047 -18.22902951 0.00000000 0.00000000 0.00000000 0.00000000 
163989072 0.00000000 0.00000000 -27.37680325 -18.18098188 0.00000000 0.00000000 0.00000000 0.00000000 
165906590 0.00000000 0.00000000 -31.00501556 -25.98253404 0.00000000 0.00000000 0.00000000 0.00000000 
167824108 0.00000000 0.00000000 -34.15384937 -58.16044806 0.00000000 0.00000000 0.00000000 0.00000000 
169741628 0.00000000 0.00000000 -32.18761134 -94.57140970 0.00000000 0.00000000 0.00000000 0.00000000 
171659146 0.00000000 0.00000000 -33.74851514 -94.44131227 0.00000000 0.00000000 0.00000000 0.00000000 
173576664 0.00000000 0.00000000 -35.30964656 -97.07367431 0.00000000 0.00000000 0.00000000 0.00000000 
175494182 0.00000000 0.00000000 -36.72570794 -104.04117872 0.00000000 0.00000000 0.00000000 0.00000000 
177411702 0.00000000 0.00000000 -37.37977091 -115.28936696 0.00000000 0.00000000 0.00000000 0.00000000 
179329220 0.00000000 0.00000000 -38.67880177 -115.06326756 0.00000000 0.00000000 0.00000000 0.00000000 
181246738 0.00000000 0.00000000 -39.69143991 -117.47427788 0.00000000 0.00000000 0.00000000 0.00000000 
183164256 0.00000000 0.00000000 -40.47404069 -125.79872906 0.00000000 0.00000000 0.00000000 0.00000000 
185081776 0.00000000 0.00000000 -40.62968089 -130.39836347 0.00000000 0.00000000 0.00000000 0.00000000 
186999294 0.00000000 0.00000000 -41.88804825 -127.93788172 0.00000000 0.00000000 0.00000000 0.00000000 
188916812 0.00000000 0.00000000 -42.86009355 -130.94533740 0.00000000 0.00000000 0.00000000 0.00000000 
190834330 0.00000000 0.00000000 -43.56121225 -133.22799817 0.00000000 0.00000000 0.00000000 0.00000000 
192751850 0.00000000 0.00000000 -44.10072434 -140.06629899 0.00000000 0.00000000 0.00000000 0.00000000 
194669368 0.00000000 0.00000000 -45.18665447 -137.71083007 0.00000000 0.00000000 0.00000000 0.00000000 
196586886 0.00000000 0.00000000 -45.86326474 -138.48265748 0.00000000 0.00000000 0.00000000 0.00000000 
198504404 0.00000000 0.00000000 -46.48429800 -140.92696599 0.00000000 0.00000000 0.00000000 0.00000000 
200421924 0.00000000 0.00000000 -47.14940506 -145.84799386 0.00000000 0.00000000 0.00000000 0.00000000 
202339442 0.00000000 0.00000000 -47.33937928 -142.99800420 0.00000000 0.00000000 0.00000000 0.00000000 
204256960 0.00000000 0.00000000 -47.65761221 -140.49433246 0.00000000 0.00000000 0.00000000 0.00000000 
206174478 0.00000000 0.00000000 -49.03777383 -141.69677708 0.00000000 0.00000000 0.00000000 0.00000000 
208091998 0.00000000 0.00000000 -48.94334450 -142.69969907 0.00000000 0.00000000 0.00000000 0.00000000 
210009516 0.00000000 0.00000000 -50.95658023 -142.12101534 0.00000000 0.00000000 0.00000000 0.00000000 
211927034 0.00000000 0.00000000 -51.42751442 -149.17601197 0.00000000 0.00000000 0.00000000 0.00000000 
213844552 0.00000000 0.00000000 -52.89174798 -156.83988345 0.00000000 0.00000000 0.00000000 0.00000000 
215762072 0.00000000 0.00000000 -53.53045960 -158.37925720 0.00000000 0.00000000 0.00000000 0.00000000 
217679590 0.00000000 0.00000000 -53.16192063 -158.59625519 0.00000000 0.00000000 0.00000000 0.00000000 
219597108 0.00000000 0.00000000 -53.96115001 -155.54943896 0.00000000 0.00000000 0.00000000 0.00000000 
221514626 0.00000000 0.00000000 -54.73403303 -139.43737933 0.00000000 0.00000000 0.00000000 0.00000000 
223432146 0.00000000 0.00000000 -55.05521806 -137.25233218 0.00000000 0.00000000 0.00000000 0.00000000 
225349664 0.00000000 0.00000000 -55.71767817 -147.40158141 0.00000000 0.00000000 0.00000000 0.00000000 
227267182 0.00000000 0.00000000 -57.92627432 -154.87869799 0.00000000 0.00000000 0.00000000 0.00000000 
229184700 0.00000000 0.00000000 -58.46525956 -159.64795092 0.00000000 0.00000000 0.00000000 0.00000000 
231102220 0.00000000 0.00000000 -60.21202833 177.39782269 0.00000000 0.00000000 0.00000000 0.00000000 
233019738 0.00000000 0.00000000 -59.97801894 -154.76658255 0.00000000 0.00000000 0.00000000 0.00000000 
234937256 0.00000000 0.00000000 -62.01781156 -143.76631164 0.00000000 0.00000000 0.00000000 0.00000000 
236854774 0.00000000 0.00000000 -60.27276760 -146.87236838 0.00000000 0.00000000 0.00000000 0.00000000 
238772294 0.00000000 0.00000000 -59.87634386 -109.83482337 0.00000000 0.00000000 0.00000000 0.00000000 
240689812 0.00000000 0.00000000 -61.40718714 -114.15586858 0.00000000 0.00000000 0.00000000 0.00000000 
242607330 0.00000000 0.00000000 -62.44262297 -97.29754245 0.00000000 0.00000000 0.00000000 0.00000000 
244524848 0.00000000 0.00000000 -63.61100816 -109.62531561 0.00000000 0.00000000 0.00000000 0.00000000 
246442368 0.00000000 0.00000000 -66.70245098 -120.88413453 0.00000000 0.00000000 0.00000000 0.00000000 
248359886 0.00000000 0.00000000 -66.39533952 -83.87599190 0.00000000 0.00000000 0.00000000 0.00000000 
250277404 0.00000000 0.00000000 -61.40800946 -95.91136628 0.00000000 0.00000000 0.00000000 0.00000000 
252194922 0.00000000 0.00000000 -65.85371849 -104.95829629 0.00000000 0.00000000 0.00000000 0.00000000 
254112442 0.00000000 0.00000000 -63.03831800 -115.15701327 0.00000000 0.00000000 0.00000000 0.00000000 
256029960 0.00000000 0.00000000 -64.87804989 -152.21199068 0.00000000 0.00000000 0.00000000 0.00000000 
257947478 0.00000000 0.00000000 -65.00481864 -168.85497432 0.00000000 0.00000000 0.00000000 0.00000000 
259864996 0.00000000 0.00000000 -62.98776704 164.94664694 0.00000000 0.00000000 0.00000000 0.00000000 
261782516 0.00000000 0.00000000 -58.12735986 157.03633620 0.00000000 0.00000000 0.00000000 0.00000000 
263700034 0.00000000 0.00000000 -61.82728722 154.89070619 0.00000000 0.00000000 0.00000000 0.00000000 
265617552 0.00000000 0.00000000 -60.69676113 131.06792269 0.00000000 0.00000000 0.00000000 0.00000000 
267535070 0.00000000 0.00000000 -59.66964072 95.56440565 0.00000000 0.00000000 0.00000000 0.00000000 
269452590 0.00000000 0.00000000 -57.55339956 88.75327837 0.00000000 0.00000000 0.00000000 0.00000000 
271370108 0.00000000 0.00000000 -60.16827101 56.33451981 0.00000000 0.00000000 0.00000000 0.00000000 
273287626 0.00000000 0.00000000 -58.02657608 49.06204062 0.00000000 0.00000000 0.00000000 0.00000000 
275205144 0.00000000 0.00000000 -56.21017768 49.15812403 0.00000000 0.00000000 0.00000000 0.00000000 
277122664 0.00000000 0.00000000 -55.05132461 29.54218668 0.00000000 0.00000000 0.00000000 0.00000000 
279040182 0.00000000 0.00000000 -53.25015672 26.51271092 0.00000000 0.00000000 0.00000000 0.00000000 
280957700 0.00000000 0.00000000 -55.35318483 29.45556187 0.00000000 0.00000000 0.00000000 0.00000000 
282875218 0.00000000 0.00000000 -52.56601479 13.75730166 0.00000000 0.00000000 0.00000000 0.00000000 
284792738 0.00000000 0.00000000 -51.54000518 15.12041505 0.00000000 0.00000000 0.00000000 0.00000000 
286710256 0.00000000 0.00000000 -50.16653315 -0.21234082 0.00000000 0.00000000 0.00000000 0.00000000 
288627774 0.00000000 0.00000000 -49.23696343 -1.14434032 0.00000000 0.00000000 0.00000000 0.00000000 
290545292 0.00000000 0.00000000 -46.86680553 -5.15711031 0.00000000 0.00000000 0.00000000 0.00000000 
292462812 0.00000000 0.00000000 -45.77249035 1.18215207 0.00000000 0.00000000 0.00000000 0.00000000 
294380330 0.00000000 0.00000000 -46.21307794 -13.57597561 0.00000000 0.00000000 0.00000000 0.00000000 
296297848 0.00000000 0.00000000 -43.99524218 -21.29374762 0.00000000 0.00000000 0.00000000 0.00000000 
298215366 0.00000000 0.00000000 -43.33680924 -23.35029284 0.00000000 0.00000000 0.00000000 0.00000000 
300132886 0.00000000 0.00000000 -41.76334785 -23.12352553 0.00000000 0.00000000 0.00000000 0.00000000 
302050404 0.00000000 0.00000000 -43.20583911 -40.47745422 0.00000000 0.00000000 0.00000000 0.00000000 
303967922 0.00000000 0.00000000 -42.74847709 -61.50487293 0.00000000 0.00000000 0.00000000 0.00000000 
305885440 0.00000000 0.00000000 -40.97624482 -75.97439329 0.00000000 0.00000000 0.00000000 0.00000000 
307802960 0.00000000 0.00000000 -38.58519703 -80.58135570 0.00000000 0.00000000 0.00000000 0.00000000 
309720478 0.00000000 0.00000000 -40.71476048 -83.14252308 0.00000000 0.00000000 0.00000000 0.00000000 
311637996 0.00000000 0.00000000 -42.57760122 -92.05808365 0.00000000 0.00000000 0.00000000 0.00000000 
313555514 0.00000000 0.00000000 -43.79402491 -106.83945716 0.00000000 0.00000000 0.00000000 0.00000000 
315473034 0.00000000 0.00000000 -43.07216052 -125.06452285 0.00000000 0.00000000 0.00000000 0.00000000 
317390552 0.00000000 0.00000000 -44.03854413 -120.32316002 0.00000000 0.00000000 0.00000000 0.00000000 
319308070 0.00000000 0.00000000 -45.19511659 -121.33322971 0.00000000 0.00000000 0.00000000 0.00000000 
321225588 0.00000000 0.00000000 -47.00061945 -120.41969643 0.00000000 0.00000000 0.00000000 0.00000000 
323143108 0.00000000 0.00000000 -47.07163580 -125.65395037 0.00000000 0.00000000 0.00000000 0.00000000 
325060626 0.00000000 0.00000000 -48.13120534 -130.02923471 0.00000000 0.00000000 0.00000000 0.00000000 
326978144 0.00000000 0.00000000 -48.98855005 -129.44200673 0.00000000 0.00000000 0.00000000 0.00000000 
328895662 0.00000000 0.00000000 -49.70401539 -130.24151293 0.00000000 0.00000000 0.00000000 0.00000000 
330813182 0.00000000 0.00000000 -49.39313110 -138.79088946 0.00000000 0.00000000 0.00000000 0.00000000 
332730700 0.00000000 0.00000000 -49.38123687 -139.03619605 0.00000000 0.00000000 0.00000000 0.00000000 
334648218 0.00000000 0.00000000 -49.49112325 -141.71800251 0.00000000 0.00000000 0.00000000 0.00000000 
336565736 0.00000000 0.00000000 -50.34470127 -145.43355014 0.00000000 0.00000000 0.00000000 0.00000000 
338483256 0.00000000 0.00000000 -49.02844674 -148.84131726 0.00000000 0.00000000 0.00000000 0.00000000 
340400774 0.00000000 0.00000000 -49.85511720 -152.36967883 0.00000000 0.00000000 0.00000000 0.00000000 
342318292 0.00000000 0.00000000 -50.16826432 -158.47394451 0.00000000 0.00000000 0.00000000 0.00000000 
344235810 0.00000000 0.00000000 -51.78193351 -161.58110232 0.00000000 0.00000000 0.00000000 0.00000000 
346153330 0.00000000 0.00000000 -50.61003766 -171.37790332 0.00000000 0.00000000 0.00000000 0.00000000 
348070848 0.00000000 0.00000000 -53.23799553 1.43803064 0.00000000 0.00000000 0.00000000 0.00000000 
349988366 0.00000000 0.00000000 -53.24606263 172.40781027 0.00000000 0.00000000 0.00000000 0.00000000 
351905884 0.00000000 0.00000000 -53.54670824 162.43047814 0.00000000 0.00000000 0.00000000 0.00000000 
353823404 0.00000000 0.00000000 -52.28616473 158.21668236 0.00000000 0.00000000 0.00000000 0.00000000 
355740922 0.00000000 0.00000000 -55.20199810 150.00959844 0.00000000 0.00000000 0.00000000 0.00000000 
357658440 0.00000000 0.00000000 -55.97661462 134.95307269 0.00000000 0.00000000 0.00000000 0.00000000 
359575958 0.00000000 0.00000000 -57.21648555 138.47249826 0.00000000 0.00000000 0.00000000 0.00000000 
361493478 0.00000000 0.00000000 -56.43966656 122.39711377 0.00000000 0.00000000 0.00000000 0.00000000 
363410996 0.00000000 0.00000000 -55.75633272 87.00728035 0.00000000 0.00000000 0.00000000 0.00000000 
365328514 0.00000000 0.00000000 -53.57193076 72.24340910 0.00000000 0.00000000 0.00000000 0.00000000 
367246032 0.00000000 0.00000000 -51.44887933 78.50464282 0.00000000 0.00000000 0.00000000 0.00000000 
369163552 0.00000000 0.00000000 -49.13985943 74.11680138 0.00000000 0.00000000 0.00000000 0.00000000 
