! created by ADMIN at Mon Apr 20 18:47:42 IST 2026
! generated using vna/J Version 3.2.10
# Hz S DB R 50
001000000 0.00000000 0.00000000 -65.42208258 61.65082100 0.00000000 0.00000000 0.00000000 0.00000000 
002917518 0.00000000 0.00000000 -68.95312538 91.33223917 0.00000000 0.00000000 0.00000000 0.00000000 
004835036 0.00000000 0.00000000 -69.55767557 98.66024813 0.00000000 0.00000000 0.00000000 0.00000000 
006752554 0.00000000 0.00000000 -71.02326292 51.18156585 0.00000000 0.00000000 0.00000000 0.00000000 
008670074 0.00000000 0.00000000 -71.17045086 121.79457274 0.00000000 0.00000000 0.00000000 0.00000000 
010587592 0.00000000 0.00000000 -67.92973565 92.49568827 0.00000000 0.00000000 0.00000000 0.00000000 
012505110 0.00000000 0.00000000 -67.95538013 92.40542679 0.00000000 0.00000000 0.00000000 0.00000000 
014422628 0.00000000 0.00000000 -68.41901691 97.83050212 0.00000000 0.00000000 0.00000000 0.00000000 
016340148 0.00000000 0.00000000 -69.59719331 93.59789071 0.00000000 0.00000000 0.00000000 0.00000000 
018257666 0.00000000 0.00000000 -70.55681083 71.80305276 0.00000000 0.00000000 0.00000000 0.00000000 
020175184 0.00000000 0.00000000 -72.07717204 52.72705710 0.00000000 0.00000000 0.00000000 0.00000000 
022092702 0.00000000 0.00000000 -70.72360345 19.29822457 0.00000000 0.00000000 0.00000000 0.00000000 
024010222 0.00000000 0.00000000 -77.16622793 -51.35571215 0.00000000 0.00000000 0.00000000 0.00000000 
025927740 0.00000000 0.00000000 -65.66761232 4.98618378 0.00000000 0.00000000 0.00000000 0.00000000 
027845258 0.00000000 0.00000000 -68.64186440 47.43444424 0.00000000 0.00000000 0.00000000 0.00000000 
029762776 0.00000000 0.00000000 -67.39886530 70.63777774 0.00000000 0.00000000 0.00000000 0.00000000 
031680296 0.00000000 0.00000000 -61.63199103 63.04846455 0.00000000 0.00000000 0.00000000 0.00000000 
033597814 0.00000000 0.00000000 -63.94988582 57.86273890 0.00000000 0.00000000 0.00000000 0.00000000 
035515332 0.00000000 0.00000000 -61.05480402 55.71254083 0.00000000 0.00000000 0.00000000 0.00000000 
037432850 0.00000000 0.00000000 -61.65658483 59.25084549 0.00000000 0.00000000 0.00000000 0.00000000 
039350370 0.00000000 0.00000000 -58.33412957 55.83745399 0.00000000 0.00000000 0.00000000 0.00000000 
041267888 0.00000000 0.00000000 -55.88541512 49.27958341 0.00000000 0.00000000 0.00000000 0.00000000 
043185406 0.00000000 0.00000000 -53.85973153 50.46553277 0.00000000 0.00000000 0.00000000 0.00000000 
045102924 0.00000000 0.00000000 -50.94536144 55.68087156 0.00000000 0.00000000 0.00000000 0.00000000 
047020444 0.00000000 0.00000000 -49.72151314 56.96602906 0.00000000 0.00000000 0.00000000 0.00000000 
048937962 0.00000000 0.00000000 -62.11051561 -153.64010381 0.00000000 0.00000000 0.00000000 0.00000000 
050855480 0.00000000 0.00000000 -46.99888217 -115.74029662 0.00000000 0.00000000 0.00000000 0.00000000 
052772998 0.00000000 0.00000000 -41.53743218 -104.63596186 0.00000000 0.00000000 0.00000000 0.00000000 
054690518 0.00000000 0.00000000 -38.29937763 -95.79951334 0.00000000 0.00000000 0.00000000 0.00000000 
056608036 0.00000000 0.00000000 -40.58219917 -91.29863623 0.00000000 0.00000000 0.00000000 0.00000000 
058525554 0.00000000 0.00000000 -43.06581103 -88.38530899 0.00000000 0.00000000 0.00000000 0.00000000 
060443072 0.00000000 0.00000000 -46.69040166 -88.01843611 0.00000000 0.00000000 0.00000000 0.00000000 
062360592 0.00000000 0.00000000 -51.66583677 -110.93164458 0.00000000 0.00000000 0.00000000 0.00000000 
064278110 0.00000000 0.00000000 -53.38037921 -116.56107668 0.00000000 0.00000000 0.00000000 0.00000000 
066195628 0.00000000 0.00000000 -52.85731991 -122.64260034 0.00000000 0.00000000 0.00000000 0.00000000 
068113146 0.00000000 0.00000000 -53.98322197 -130.36360478 0.00000000 0.00000000 0.00000000 0.00000000 
070030666 0.00000000 0.00000000 -54.11333161 -142.54915613 0.00000000 0.00000000 0.00000000 0.00000000 
071948184 0.00000000 0.00000000 -54.92244981 -133.41971392 0.00000000 0.00000000 0.00000000 0.00000000 
073865702 0.00000000 0.00000000 -56.45448123 -136.41413207 0.00000000 0.00000000 0.00000000 0.00000000 
075783220 0.00000000 0.00000000 -58.47951368 -143.63379726 0.00000000 0.00000000 0.00000000 0.00000000 
077700740 0.00000000 0.00000000 -60.39900475 -157.91486937 0.00000000 0.00000000 0.00000000 0.00000000 
079618258 0.00000000 0.00000000 -60.26675790 -142.80585327 0.00000000 0.00000000 0.00000000 0.00000000 
081535776 0.00000000 0.00000000 -62.69185662 -150.60881084 0.00000000 0.00000000 0.00000000 0.00000000 
083453294 0.00000000 0.00000000 -62.30670400 -134.78545010 0.00000000 0.00000000 0.00000000 0.00000000 
085370814 0.00000000 0.00000000 -61.06450127 -142.61896476 0.00000000 0.00000000 0.00000000 0.00000000 
087288332 0.00000000 0.00000000 -59.48938643 -130.06783006 0.00000000 0.00000000 0.00000000 0.00000000 
089205850 0.00000000 0.00000000 -62.43914928 -140.77860949 0.00000000 0.00000000 0.00000000 0.00000000 
091123368 0.00000000 0.00000000 -61.81481947 -133.50197622 0.00000000 0.00000000 0.00000000 0.00000000 
093040888 0.00000000 0.00000000 -60.08459143 -136.75411786 0.00000000 0.00000000 0.00000000 0.00000000 
094958406 0.00000000 0.00000000 -59.98209227 -139.41454351 0.00000000 0.00000000 0.00000000 0.00000000 
096875924 0.00000000 0.00000000 -60.28424735 -140.28064400 0.00000000 0.00000000 0.00000000 0.00000000 
098793442 0.00000000 0.00000000 -59.77196913 -139.59625938 0.00000000 0.00000000 0.00000000 0.00000000 
100710962 0.00000000 0.00000000 -58.54325828 -138.81911313 0.00000000 0.00000000 0.00000000 0.00000000 
102628480 0.00000000 0.00000000 -61.66043314 -157.47694572 0.00000000 0.00000000 0.00000000 0.00000000 
104545998 0.00000000 0.00000000 -59.50283249 -171.00144417 0.00000000 0.00000000 0.00000000 0.00000000 
106463516 0.00000000 0.00000000 -58.19733410 177.92158772 0.00000000 0.00000000 0.00000000 0.00000000 
108381036 0.00000000 0.00000000 -59.48265089 159.41176804 0.00000000 0.00000000 0.00000000 0.00000000 
110298554 0.00000000 0.00000000 -56.82906692 158.60918410 0.00000000 0.00000000 0.00000000 0.00000000 
112216072 0.00000000 0.00000000 -54.43822645 142.56324602 0.00000000 0.00000000 0.00000000 0.00000000 
114133590 0.00000000 0.00000000 -52.68509115 147.32773954 0.00000000 0.00000000 0.00000000 0.00000000 
116051110 0.00000000 0.00000000 -52.07412680 141.29036095 0.00000000 0.00000000 0.00000000 0.00000000 
117968628 0.00000000 0.00000000 -53.87523079 141.56725116 0.00000000 0.00000000 0.00000000 0.00000000 
119886146 0.00000000 0.00000000 -56.68110503 135.67622715 0.00000000 0.00000000 0.00000000 0.00000000 
121803664 0.00000000 0.00000000 -58.82156985 120.34552757 0.00000000 0.00000000 0.00000000 0.00000000 
123721184 0.00000000 0.00000000 -56.29021331 104.31751318 0.00000000 0.00000000 0.00000000 0.00000000 
125638702 0.00000000 0.00000000 -59.46072766 100.94751704 0.00000000 0.00000000 0.00000000 0.00000000 
127556220 0.00000000 0.00000000 -59.55904033 82.32888479 0.00000000 0.00000000 0.00000000 0.00000000 
129473738 0.00000000 0.00000000 -59.51182286 81.77089665 0.00000000 0.00000000 0.00000000 0.00000000 
131391258 0.00000000 0.00000000 -58.44034859 80.28178957 0.00000000 0.00000000 0.00000000 0.00000000 
133308776 0.00000000 0.00000000 -59.65623478 94.65088385 0.00000000 0.00000000 0.00000000 0.00000000 
135226294 0.00000000 0.00000000 -56.55849608 77.79294500 0.00000000 0.00000000 0.00000000 0.00000000 
137143812 0.00000000 0.00000000 -56.80027070 64.76191689 0.00000000 0.00000000 0.00000000 0.00000000 
139061332 0.00000000 0.00000000 -56.29946564 67.98500175 0.00000000 0.00000000 0.00000000 0.00000000 
140978850 0.00000000 0.00000000 -55.30662321 68.87269859 0.00000000 0.00000000 0.00000000 0.00000000 
142896368 0.00000000 0.00000000 -53.92778764 69.87657505 0.00000000 0.00000000 0.00000000 0.00000000 
144813886 0.00000000 0.00000000 -55.26108563 73.94434410 0.00000000 0.00000000 0.00000000 0.00000000 
146731406 0.00000000 0.00000000 -54.55515154 81.26927833 0.00000000 0.00000000 0.00000000 0.00000000 
148648924 0.00000000 0.00000000 -52.62911342 73.15558043 0.00000000 0.00000000 0.00000000 0.00000000 
150566442 0.00000000 0.00000000 -51.60504810 69.96589182 0.00000000 0.00000000 0.00000000 0.00000000 
152483960 0.00000000 0.00000000 -50.13626085 66.37561512 0.00000000 0.00000000 0.00000000 0.00000000 
154401480 0.00000000 0.00000000 -49.24355308 72.66826706 0.00000000 0.00000000 0.00000000 0.00000000 
156318998 0.00000000 0.00000000 -48.69193660 68.12667643 0.00000000 0.00000000 0.00000000 0.00000000 
158236516 0.00000000 0.00000000 -47.54385234 61.44697523 0.00000000 0.00000000 0.00000000 0.00000000 
160154034 0.00000000 0.00000000 -45.94992499 63.03902001 0.00000000 0.00000000 0.00000000 0.00000000 
162071554 0.00000000 0.00000000 -44.79995313 65.79615363 0.00000000 0.00000000 0.00000000 0.00000000 
163989072 0.00000000 0.00000000 -44.29286046 52.77710560 0.00000000 0.00000000 0.00000000 0.00000000 
165906590 0.00000000 0.00000000 -42.03842910 44.07055879 0.00000000 0.00000000 0.00000000 0.00000000 
167824108 0.00000000 0.00000000 -40.84277248 42.14296038 0.00000000 0.00000000 0.00000000 0.00000000 
169741628 0.00000000 0.00000000 -38.90573261 43.73375425 0.00000000 0.00000000 0.00000000 0.00000000 
171659146 0.00000000 0.00000000 -37.07106497 13.73028591 0.00000000 0.00000000 0.00000000 0.00000000 
173576664 0.00000000 0.00000000 -33.74059716 1.69697431 0.00000000 0.00000000 0.00000000 0.00000000 
175494182 0.00000000 0.00000000 -30.90538594 0.26484532 0.00000000 0.00000000 0.00000000 0.00000000 
177411702 0.00000000 0.00000000 -28.65294041 2.87720294 0.00000000 0.00000000 0.00000000 0.00000000 
179329220 0.00000000 0.00000000 -33.41100271 2.90867433 0.00000000 0.00000000 0.00000000 0.00000000 
181246738 0.00000000 0.00000000 -41.88177092 -31.92066342 0.00000000 0.00000000 0.00000000 0.00000000 
183164256 0.00000000 0.00000000 -36.75148441 -114.34238469 0.00000000 0.00000000 0.00000000 0.00000000 
185081776 0.00000000 0.00000000 -30.28543578 -120.07547981 0.00000000 0.00000000 0.00000000 0.00000000 
186999294 0.00000000 0.00000000 -32.13106769 -117.64100064 0.00000000 0.00000000 0.00000000 0.00000000 
188916812 0.00000000 0.00000000 -34.24838996 -120.21361169 0.00000000 0.00000000 0.00000000 0.00000000 
190834330 0.00000000 0.00000000 -36.40508255 -128.65782968 0.00000000 0.00000000 0.00000000 0.00000000 
192751850 0.00000000 0.00000000 -37.85102898 -147.91765507 0.00000000 0.00000000 0.00000000 0.00000000 
194669368 0.00000000 0.00000000 -39.17447626 -146.70848674 0.00000000 0.00000000 0.00000000 0.00000000 
196586886 0.00000000 0.00000000 -40.31589596 -148.70898717 0.00000000 0.00000000 0.00000000 0.00000000 
198504404 0.00000000 0.00000000 -41.32915031 -153.86253152 0.00000000 0.00000000 0.00000000 0.00000000 
200421924 0.00000000 0.00000000 -42.03180304 -162.68038031 0.00000000 0.00000000 0.00000000 0.00000000 
202339442 0.00000000 0.00000000 -42.61027942 -159.31608788 0.00000000 0.00000000 0.00000000 0.00000000 
204256960 0.00000000 0.00000000 -43.28491901 -156.84688517 0.00000000 0.00000000 0.00000000 0.00000000 
206174478 0.00000000 0.00000000 -44.54352934 -158.20300778 0.00000000 0.00000000 0.00000000 0.00000000 
208091998 0.00000000 0.00000000 -44.90954978 -159.33643978 0.00000000 0.00000000 0.00000000 0.00000000 
210009516 0.00000000 0.00000000 -45.85515671 -163.01541674 0.00000000 0.00000000 0.00000000 0.00000000 
211927034 0.00000000 0.00000000 -45.53200917 -168.62338054 0.00000000 0.00000000 0.00000000 0.00000000 
213844552 0.00000000 0.00000000 -45.53231149 -173.58246120 0.00000000 0.00000000 0.00000000 0.00000000 
215762072 0.00000000 0.00000000 -45.15073531 -173.76224138 0.00000000 0.00000000 0.00000000 0.00000000 
217679590 0.00000000 0.00000000 -46.35784408 -178.77669641 0.00000000 0.00000000 0.00000000 0.00000000 
219597108 0.00000000 0.00000000 -47.77680191 172.25674360 0.00000000 0.00000000 0.00000000 0.00000000 
221514626 0.00000000 0.00000000 -49.08061572 163.75586332 0.00000000 0.00000000 0.00000000 0.00000000 
223432146 0.00000000 0.00000000 -48.42429173 150.31267179 0.00000000 0.00000000 0.00000000 0.00000000 
225349664 0.00000000 0.00000000 -48.53213560 153.00289600 0.00000000 0.00000000 0.00000000 0.00000000 
227267182 0.00000000 0.00000000 -49.45407202 151.89208784 0.00000000 0.00000000 0.00000000 0.00000000 
229184700 0.00000000 0.00000000 -50.26840698 153.78795297 0.00000000 0.00000000 0.00000000 0.00000000 
231102220 0.00000000 0.00000000 -51.07246163 146.52113314 0.00000000 0.00000000 0.00000000 0.00000000 
233019738 0.00000000 0.00000000 -52.45521191 151.79103498 0.00000000 0.00000000 0.00000000 0.00000000 
234937256 0.00000000 0.00000000 -53.66896138 144.30212594 0.00000000 0.00000000 0.00000000 0.00000000 
236854774 0.00000000 0.00000000 -52.94442449 142.05300058 0.00000000 0.00000000 0.00000000 0.00000000 
238772294 0.00000000 0.00000000 -54.85555392 138.58878199 0.00000000 0.00000000 0.00000000 0.00000000 
240689812 0.00000000 0.00000000 -55.38836793 139.37629568 0.00000000 0.00000000 0.00000000 0.00000000 
242607330 0.00000000 0.00000000 -57.73877474 135.73063488 0.00000000 0.00000000 0.00000000 0.00000000 
244524848 0.00000000 0.00000000 -57.89289780 134.66248279 0.00000000 0.00000000 0.00000000 0.00000000 
246442368 0.00000000 0.00000000 -57.78772051 124.03051767 0.00000000 0.00000000 0.00000000 0.00000000 
248359886 0.00000000 0.00000000 -62.16296379 115.67043063 0.00000000 0.00000000 0.00000000 0.00000000 
250277404 0.00000000 0.00000000 -68.53146718 157.02324007 0.00000000 0.00000000 0.00000000 0.00000000 
252194922 0.00000000 0.00000000 -67.93977507 111.59466988 0.00000000 0.00000000 0.00000000 0.00000000 
254112442 0.00000000 0.00000000 -73.44875812 115.94553092 0.00000000 0.00000000 0.00000000 0.00000000 
256029960 0.00000000 0.00000000 -66.96145893 107.34984190 0.00000000 0.00000000 0.00000000 0.00000000 
257947478 0.00000000 0.00000000 -66.17929300 89.57006581 0.00000000 0.00000000 0.00000000 0.00000000 
259864996 0.00000000 0.00000000 -62.33762168 82.86203859 0.00000000 0.00000000 0.00000000 0.00000000 
261782516 0.00000000 0.00000000 -58.90806892 96.23253076 0.00000000 0.00000000 0.00000000 0.00000000 
263700034 0.00000000 0.00000000 -60.22574317 71.66893295 0.00000000 0.00000000 0.00000000 0.00000000 
265617552 0.00000000 0.00000000 -57.29926126 67.50239012 0.00000000 0.00000000 0.00000000 0.00000000 
267535070 0.00000000 0.00000000 -54.23153702 54.45012158 0.00000000 0.00000000 0.00000000 0.00000000 
269452590 0.00000000 0.00000000 -52.54880760 54.60456600 0.00000000 0.00000000 0.00000000 0.00000000 
271370108 0.00000000 0.00000000 -53.10399309 27.07371011 0.00000000 0.00000000 0.00000000 0.00000000 
273287626 0.00000000 0.00000000 -51.54719117 17.94023036 0.00000000 0.00000000 0.00000000 0.00000000 
275205144 0.00000000 0.00000000 -49.90581676 14.72298716 0.00000000 0.00000000 0.00000000 0.00000000 
277122664 0.00000000 0.00000000 -47.82775590 5.35273947 0.00000000 0.00000000 0.00000000 0.00000000 
279040182 0.00000000 0.00000000 -47.83766895 -2.42451881 0.00000000 0.00000000 0.00000000 0.00000000 
280957700 0.00000000 0.00000000 -48.97448519 -15.97183507 0.00000000 0.00000000 0.00000000 0.00000000 
282875218 0.00000000 0.00000000 -46.41970576 -26.02863403 0.00000000 0.00000000 0.00000000 0.00000000 
284792738 0.00000000 0.00000000 -44.95399856 -29.02971115 0.00000000 0.00000000 0.00000000 0.00000000 
286710256 0.00000000 0.00000000 -44.85904273 -36.32132770 0.00000000 0.00000000 0.00000000 0.00000000 
288627774 0.00000000 0.00000000 -45.10129871 -41.38696547 0.00000000 0.00000000 0.00000000 0.00000000 
290545292 0.00000000 0.00000000 -43.80005625 -45.37790597 0.00000000 0.00000000 0.00000000 0.00000000 
292462812 0.00000000 0.00000000 -43.37066809 -46.01680377 0.00000000 0.00000000 0.00000000 0.00000000 
294380330 0.00000000 0.00000000 -43.71047666 -56.11290536 0.00000000 0.00000000 0.00000000 0.00000000 
296297848 0.00000000 0.00000000 -42.66339269 -57.98018675 0.00000000 0.00000000 0.00000000 0.00000000 
298215366 0.00000000 0.00000000 -42.65059625 -62.90735318 0.00000000 0.00000000 0.00000000 0.00000000 
300132886 0.00000000 0.00000000 -41.70091934 -63.72375687 0.00000000 0.00000000 0.00000000 0.00000000 
302050404 0.00000000 0.00000000 -42.45982628 -72.03615419 0.00000000 0.00000000 0.00000000 0.00000000 
303967922 0.00000000 0.00000000 -42.48300475 -82.44229555 0.00000000 0.00000000 0.00000000 0.00000000 
305885440 0.00000000 0.00000000 -41.90037110 -92.58067932 0.00000000 0.00000000 0.00000000 0.00000000 
307802960 0.00000000 0.00000000 -40.48996869 -97.06633323 0.00000000 0.00000000 0.00000000 0.00000000 
309720478 0.00000000 0.00000000 -41.68751371 -100.46159398 0.00000000 0.00000000 0.00000000 0.00000000 
311637996 0.00000000 0.00000000 -42.28785599 -106.19544163 0.00000000 0.00000000 0.00000000 0.00000000 
313555514 0.00000000 0.00000000 -42.53286459 -112.12857190 0.00000000 0.00000000 0.00000000 0.00000000 
315473034 0.00000000 0.00000000 -41.95069859 -119.19259101 0.00000000 0.00000000 0.00000000 0.00000000 
317390552 0.00000000 0.00000000 -42.32376200 -119.78258819 0.00000000 0.00000000 0.00000000 0.00000000 
319308070 0.00000000 0.00000000 -42.59283013 -124.48310321 0.00000000 0.00000000 0.00000000 0.00000000 
321225588 0.00000000 0.00000000 -42.93232743 -126.38332138 0.00000000 0.00000000 0.00000000 0.00000000 
323143108 0.00000000 0.00000000 -41.97836552 -129.84478462 0.00000000 0.00000000 0.00000000 0.00000000 
325060626 0.00000000 0.00000000 -42.81016728 -131.21013427 0.00000000 0.00000000 0.00000000 0.00000000 
326978144 0.00000000 0.00000000 -43.46642542 -130.07111104 0.00000000 0.00000000 0.00000000 0.00000000 
328895662 0.00000000 0.00000000 -43.98880309 -129.85702414 0.00000000 0.00000000 0.00000000 0.00000000 
330813182 0.00000000 0.00000000 -43.98731763 -134.17626542 0.00000000 0.00000000 0.00000000 0.00000000 
332730700 0.00000000 0.00000000 -44.05075583 -133.71612498 0.00000000 0.00000000 0.00000000 0.00000000 
334648218 0.00000000 0.00000000 -44.15212238 -134.36731023 0.00000000 0.00000000 0.00000000 0.00000000 
336565736 0.00000000 0.00000000 -44.60559745 -134.63514641 0.00000000 0.00000000 0.00000000 0.00000000 
338483256 0.00000000 0.00000000 -43.90242838 -136.50530732 0.00000000 0.00000000 0.00000000 0.00000000 
340400774 0.00000000 0.00000000 -44.44278721 -137.12022284 0.00000000 0.00000000 0.00000000 0.00000000 
342318292 0.00000000 0.00000000 -44.72186623 -139.25967954 0.00000000 0.00000000 0.00000000 0.00000000 
344235810 0.00000000 0.00000000 -45.41909893 -137.31955495 0.00000000 0.00000000 0.00000000 0.00000000 
346153330 0.00000000 0.00000000 -45.11713987 -142.08074726 0.00000000 0.00000000 0.00000000 0.00000000 
348070848 0.00000000 0.00000000 -45.82912745 -142.76469287 0.00000000 0.00000000 0.00000000 0.00000000 
349988366 0.00000000 0.00000000 -45.38104341 -146.75779228 0.00000000 0.00000000 0.00000000 0.00000000 
351905884 0.00000000 0.00000000 -44.97577740 -147.80810925 0.00000000 0.00000000 0.00000000 0.00000000 
353823404 0.00000000 0.00000000 -43.99298533 -148.52336130 0.00000000 0.00000000 0.00000000 0.00000000 
355740922 0.00000000 0.00000000 -44.81392666 -150.60775904 0.00000000 0.00000000 0.00000000 0.00000000 
357658440 0.00000000 0.00000000 -44.99342310 -156.78521257 0.00000000 0.00000000 0.00000000 0.00000000 
359575958 0.00000000 0.00000000 -44.07183603 -158.41449993 0.00000000 0.00000000 0.00000000 0.00000000 
361493478 0.00000000 0.00000000 -43.46955894 -161.75473583 0.00000000 0.00000000 0.00000000 0.00000000 
363410996 0.00000000 0.00000000 -44.49624416 -162.49733078 0.00000000 0.00000000 0.00000000 0.00000000 
365328514 0.00000000 0.00000000 -44.96211565 -163.63684870 0.00000000 0.00000000 0.00000000 0.00000000 
367246032 0.00000000 0.00000000 -44.46390983 -167.81268004 0.00000000 0.00000000 0.00000000 0.00000000 
369163552 0.00000000 0.00000000 -44.68520093 -169.31962528 0.00000000 0.00000000 0.00000000 0.00000000 
