! created by ADMIN at Tue Apr 21 15:45:28 IST 2026
! generated using vna/J Version 3.2.10
# Hz S DB R 50
001000000 0.00000000 0.00000000 -61.14503479 63.76981962 0.00000000 0.00000000 0.00000000 0.00000000 
002917518 0.00000000 0.00000000 -66.32708369 82.95526409 0.00000000 0.00000000 0.00000000 0.00000000 
004835036 0.00000000 0.00000000 -70.61235832 77.17422718 0.00000000 0.00000000 0.00000000 0.00000000 
006752554 0.00000000 0.00000000 -67.76967329 8.16399489 0.00000000 0.00000000 0.00000000 0.00000000 
008670074 0.00000000 0.00000000 -72.45004231 -9.20887255 0.00000000 0.00000000 0.00000000 0.00000000 
010587592 0.00000000 0.00000000 -66.71370291 22.42951544 0.00000000 0.00000000 0.00000000 0.00000000 
012505110 0.00000000 0.00000000 -65.25259087 25.08161689 0.00000000 0.00000000 0.00000000 0.00000000 
014422628 0.00000000 0.00000000 -64.59553560 27.74542781 0.00000000 0.00000000 0.00000000 0.00000000 
016340148 0.00000000 0.00000000 -63.37460944 27.42581999 0.00000000 0.00000000 0.00000000 0.00000000 
018257666 0.00000000 0.00000000 -61.52996753 29.89268238 0.00000000 0.00000000 0.00000000 0.00000000 
020175184 0.00000000 0.00000000 -60.80356892 32.39153448 0.00000000 0.00000000 0.00000000 0.00000000 
022092702 0.00000000 0.00000000 -59.94163714 32.49640482 0.00000000 0.00000000 0.00000000 0.00000000 
024010222 0.00000000 0.00000000 -62.45587976 38.23568437 0.00000000 0.00000000 0.00000000 0.00000000 
025927740 0.00000000 0.00000000 -59.35207403 9.53999735 0.00000000 0.00000000 0.00000000 0.00000000 
027845258 0.00000000 0.00000000 -60.11595483 -2.06334273 0.00000000 0.00000000 0.00000000 0.00000000 
029762776 0.00000000 0.00000000 -58.10747923 -12.60909562 0.00000000 0.00000000 0.00000000 0.00000000 
031680296 0.00000000 0.00000000 -54.40700137 -5.22500451 0.00000000 0.00000000 0.00000000 0.00000000 
033597814 0.00000000 0.00000000 -57.69054758 -10.31838481 0.00000000 0.00000000 0.00000000 0.00000000 
035515332 0.00000000 0.00000000 -61.32217626 -6.14744586 0.00000000 0.00000000 0.00000000 0.00000000 
037432850 0.00000000 0.00000000 -66.95423615 -56.04049423 0.00000000 0.00000000 0.00000000 0.00000000 
039350370 0.00000000 0.00000000 -65.98466483 -83.20522270 0.00000000 0.00000000 0.00000000 0.00000000 
041267888 0.00000000 0.00000000 -63.67561962 -79.19070387 0.00000000 0.00000000 0.00000000 0.00000000 
043185406 0.00000000 0.00000000 -62.01106702 -78.51048634 0.00000000 0.00000000 0.00000000 0.00000000 
045102924 0.00000000 0.00000000 -63.46128535 -57.23157653 0.00000000 0.00000000 0.00000000 0.00000000 
047020444 0.00000000 0.00000000 -59.94107715 -52.93740164 0.00000000 0.00000000 0.00000000 0.00000000 
048937962 0.00000000 0.00000000 -63.52301731 -58.75940281 0.00000000 0.00000000 0.00000000 0.00000000 
050855480 0.00000000 0.00000000 -65.56916547 -49.64104450 0.00000000 0.00000000 0.00000000 0.00000000 
052772998 0.00000000 0.00000000 -66.58494103 -47.00688230 0.00000000 0.00000000 0.00000000 0.00000000 
054690518 0.00000000 0.00000000 -71.86083136 -30.56847619 0.00000000 0.00000000 0.00000000 0.00000000 
056608036 0.00000000 0.00000000 -77.00753702 33.38770511 0.00000000 0.00000000 0.00000000 0.00000000 
058525554 0.00000000 0.00000000 -72.13830009 -44.69085536 0.00000000 0.00000000 0.00000000 0.00000000 
060443072 0.00000000 0.00000000 -65.26565184 -25.16446033 0.00000000 0.00000000 0.00000000 0.00000000 
062360592 0.00000000 0.00000000 -65.95773741 -28.90228949 0.00000000 0.00000000 0.00000000 0.00000000 
064278110 0.00000000 0.00000000 -74.64825342 18.56536447 0.00000000 0.00000000 0.00000000 0.00000000 
066195628 0.00000000 0.00000000 -70.84124052 -141.19921630 0.00000000 0.00000000 0.00000000 0.00000000 
068113146 0.00000000 0.00000000 -68.92689053 0.98215676 0.00000000 0.00000000 0.00000000 0.00000000 
070030666 0.00000000 0.00000000 -64.08486274 168.77374262 0.00000000 0.00000000 0.00000000 0.00000000 
071948184 0.00000000 0.00000000 -65.31897796 -172.74646319 0.00000000 0.00000000 0.00000000 0.00000000 
073865702 0.00000000 0.00000000 -64.15687312 174.41675442 0.00000000 0.00000000 0.00000000 0.00000000 
075783220 0.00000000 0.00000000 -63.20543762 161.20413484 0.00000000 0.00000000 0.00000000 0.00000000 
077700740 0.00000000 0.00000000 -62.07588782 150.73861980 0.00000000 0.00000000 0.00000000 0.00000000 
079618258 0.00000000 0.00000000 -64.12067821 169.23038094 0.00000000 0.00000000 0.00000000 0.00000000 
081535776 0.00000000 0.00000000 -64.38484406 149.51415214 0.00000000 0.00000000 0.00000000 0.00000000 
083453294 0.00000000 0.00000000 -67.17769009 167.66707173 0.00000000 0.00000000 0.00000000 0.00000000 
085370814 0.00000000 0.00000000 -64.45982148 173.26131989 0.00000000 0.00000000 0.00000000 0.00000000 
087288332 0.00000000 0.00000000 -63.01062381 -162.65905040 0.00000000 0.00000000 0.00000000 0.00000000 
089205850 0.00000000 0.00000000 -62.95356107 171.78762462 0.00000000 0.00000000 0.00000000 0.00000000 
091123368 0.00000000 0.00000000 -62.20344480 -176.22701567 0.00000000 0.00000000 0.00000000 0.00000000 
093040888 0.00000000 0.00000000 -59.61834789 -168.51859786 0.00000000 0.00000000 0.00000000 0.00000000 
094958406 0.00000000 0.00000000 -54.42740450 -173.00250997 0.00000000 0.00000000 0.00000000 0.00000000 
096875924 0.00000000 0.00000000 -51.30885484 -170.18703917 0.00000000 0.00000000 0.00000000 0.00000000 
098793442 0.00000000 0.00000000 -48.84681998 -164.01630632 0.00000000 0.00000000 0.00000000 0.00000000 
100710962 0.00000000 0.00000000 -46.74351889 -156.94592590 0.00000000 0.00000000 0.00000000 0.00000000 
102628480 0.00000000 0.00000000 -48.22352710 147.90815334 0.00000000 0.00000000 0.00000000 0.00000000 
104545998 0.00000000 0.00000000 -43.21833593 122.97691226 0.00000000 0.00000000 0.00000000 0.00000000 
106463516 0.00000000 0.00000000 -39.27191722 118.57680452 0.00000000 0.00000000 0.00000000 0.00000000 
108381036 0.00000000 0.00000000 -36.44878165 118.96723202 0.00000000 0.00000000 0.00000000 0.00000000 
110298554 0.00000000 0.00000000 -38.57535109 118.98930499 0.00000000 0.00000000 0.00000000 0.00000000 
112216072 0.00000000 0.00000000 -40.57849639 110.56517619 0.00000000 0.00000000 0.00000000 0.00000000 
114133590 0.00000000 0.00000000 -42.30024865 94.86754442 0.00000000 0.00000000 0.00000000 0.00000000 
116051110 0.00000000 0.00000000 -41.65046699 71.30844711 0.00000000 0.00000000 0.00000000 0.00000000 
117968628 0.00000000 0.00000000 -42.55072804 73.33135796 0.00000000 0.00000000 0.00000000 0.00000000 
119886146 0.00000000 0.00000000 -43.43904636 72.60326142 0.00000000 0.00000000 0.00000000 0.00000000 
121803664 0.00000000 0.00000000 -44.14463469 70.84446102 0.00000000 0.00000000 0.00000000 0.00000000 
123721184 0.00000000 0.00000000 -44.21302851 71.16080156 0.00000000 0.00000000 0.00000000 0.00000000 
125638702 0.00000000 0.00000000 -45.07175190 69.49322889 0.00000000 0.00000000 0.00000000 0.00000000 
127556220 0.00000000 0.00000000 -45.12146883 67.07222323 0.00000000 0.00000000 0.00000000 0.00000000 
129473738 0.00000000 0.00000000 -45.24136528 67.22232607 0.00000000 0.00000000 0.00000000 0.00000000 
131391258 0.00000000 0.00000000 -44.99508352 67.32577932 0.00000000 0.00000000 0.00000000 0.00000000 
133308776 0.00000000 0.00000000 -45.14921930 70.41252441 0.00000000 0.00000000 0.00000000 0.00000000 
135226294 0.00000000 0.00000000 -44.03427555 69.63497919 0.00000000 0.00000000 0.00000000 0.00000000 
137143812 0.00000000 0.00000000 -43.66726097 68.33023741 0.00000000 0.00000000 0.00000000 0.00000000 
139061332 0.00000000 0.00000000 -43.12587403 71.17370723 0.00000000 0.00000000 0.00000000 0.00000000 
140978850 0.00000000 0.00000000 -42.73520049 68.73404425 0.00000000 0.00000000 0.00000000 0.00000000 
142896368 0.00000000 0.00000000 -42.00351851 67.00972765 0.00000000 0.00000000 0.00000000 0.00000000 
144813886 0.00000000 0.00000000 -41.74041500 66.42526528 0.00000000 0.00000000 0.00000000 0.00000000 
146731406 0.00000000 0.00000000 -40.93097517 67.90764937 0.00000000 0.00000000 0.00000000 0.00000000 
148648924 0.00000000 0.00000000 -40.36909874 65.18523868 0.00000000 0.00000000 0.00000000 0.00000000 
150566442 0.00000000 0.00000000 -39.82935920 63.39557067 0.00000000 0.00000000 0.00000000 0.00000000 
152483960 0.00000000 0.00000000 -39.01861077 62.15034789 0.00000000 0.00000000 0.00000000 0.00000000 
154401480 0.00000000 0.00000000 -38.31316512 64.28382580 0.00000000 0.00000000 0.00000000 0.00000000 
156318998 0.00000000 0.00000000 -37.55140075 59.99364112 0.00000000 0.00000000 0.00000000 0.00000000 
158236516 0.00000000 0.00000000 -36.44385857 57.00982846 0.00000000 0.00000000 0.00000000 0.00000000 
160154034 0.00000000 0.00000000 -35.21326562 57.94856159 0.00000000 0.00000000 0.00000000 0.00000000 
162071554 0.00000000 0.00000000 -34.12041551 60.36118132 0.00000000 0.00000000 0.00000000 0.00000000 
163989072 0.00000000 0.00000000 -33.25790365 46.38996969 0.00000000 0.00000000 0.00000000 0.00000000 
165906590 0.00000000 0.00000000 -31.36163528 38.53080089 0.00000000 0.00000000 0.00000000 0.00000000 
167824108 0.00000000 0.00000000 -29.72015608 36.25256293 0.00000000 0.00000000 0.00000000 0.00000000 
169741628 0.00000000 0.00000000 -27.99121424 37.74859169 0.00000000 0.00000000 0.00000000 0.00000000 
171659146 0.00000000 0.00000000 -31.79325918 13.64500046 0.00000000 0.00000000 0.00000000 0.00000000 
173576664 0.00000000 0.00000000 -31.06878554 -27.92893209 0.00000000 0.00000000 0.00000000 0.00000000 
175494182 0.00000000 0.00000000 -27.13871235 -46.07571987 0.00000000 0.00000000 0.00000000 0.00000000 
177411702 0.00000000 0.00000000 -23.83556256 -49.16470501 0.00000000 0.00000000 0.00000000 0.00000000 
179329220 0.00000000 0.00000000 -26.21139531 -47.89194594 0.00000000 0.00000000 0.00000000 0.00000000 
181246738 0.00000000 0.00000000 -29.12174995 -53.04559882 0.00000000 0.00000000 0.00000000 0.00000000 
183164256 0.00000000 0.00000000 -32.20732851 -72.66049823 0.00000000 0.00000000 0.00000000 0.00000000 
185081776 0.00000000 0.00000000 -32.14326692 -105.09135141 0.00000000 0.00000000 0.00000000 0.00000000 
186999294 0.00000000 0.00000000 -33.66184978 -101.77731236 0.00000000 0.00000000 0.00000000 0.00000000 
188916812 0.00000000 0.00000000 -35.38498877 -102.54892088 0.00000000 0.00000000 0.00000000 0.00000000 
190834330 0.00000000 0.00000000 -37.08049830 -106.62500353 0.00000000 0.00000000 0.00000000 0.00000000 
192751850 0.00000000 0.00000000 -38.65936883 -117.71915808 0.00000000 0.00000000 0.00000000 0.00000000 
194669368 0.00000000 0.00000000 -39.69224649 -113.16744988 0.00000000 0.00000000 0.00000000 0.00000000 
196586886 0.00000000 0.00000000 -40.68243063 -111.12953251 0.00000000 0.00000000 0.00000000 0.00000000 
198504404 0.00000000 0.00000000 -41.76515852 -110.64613279 0.00000000 0.00000000 0.00000000 0.00000000 
200421924 0.00000000 0.00000000 -43.03647627 -112.15415694 0.00000000 0.00000000 0.00000000 0.00000000 
202339442 0.00000000 0.00000000 -43.72014743 -109.33596040 0.00000000 0.00000000 0.00000000 0.00000000 
204256960 0.00000000 0.00000000 -44.50146063 -107.00954495 0.00000000 0.00000000 0.00000000 0.00000000 
206174478 0.00000000 0.00000000 -46.13687605 -104.47824425 0.00000000 0.00000000 0.00000000 0.00000000 
208091998 0.00000000 0.00000000 -46.92496556 -107.19872886 0.00000000 0.00000000 0.00000000 0.00000000 
210009516 0.00000000 0.00000000 -47.74843971 -102.24981754 0.00000000 0.00000000 0.00000000 0.00000000 
211927034 0.00000000 0.00000000 -48.07166032 -104.81053079 0.00000000 0.00000000 0.00000000 0.00000000 
213844552 0.00000000 0.00000000 -48.73258869 -102.18075189 0.00000000 0.00000000 0.00000000 0.00000000 
215762072 0.00000000 0.00000000 -48.46309258 -98.22498121 0.00000000 0.00000000 0.00000000 0.00000000 
217679590 0.00000000 0.00000000 -49.03404374 -99.05105369 0.00000000 0.00000000 0.00000000 0.00000000 
219597108 0.00000000 0.00000000 -49.59960369 -95.15064782 0.00000000 0.00000000 0.00000000 0.00000000 
221514626 0.00000000 0.00000000 -49.12664955 -87.74383293 0.00000000 0.00000000 0.00000000 0.00000000 
223432146 0.00000000 0.00000000 -49.42901934 -85.94411177 0.00000000 0.00000000 0.00000000 0.00000000 
225349664 0.00000000 0.00000000 -50.16916283 -88.52329563 0.00000000 0.00000000 0.00000000 0.00000000 
227267182 0.00000000 0.00000000 -50.75966291 -84.32049573 0.00000000 0.00000000 0.00000000 0.00000000 
229184700 0.00000000 0.00000000 -50.59838770 -82.96567982 0.00000000 0.00000000 0.00000000 0.00000000 
231102220 0.00000000 0.00000000 -51.18842943 -76.50755246 0.00000000 0.00000000 0.00000000 0.00000000 
233019738 0.00000000 0.00000000 -50.34548855 -74.74572897 0.00000000 0.00000000 0.00000000 0.00000000 
234937256 0.00000000 0.00000000 -50.41982831 -67.68244461 0.00000000 0.00000000 0.00000000 0.00000000 
236854774 0.00000000 0.00000000 -50.84488609 -68.90605887 0.00000000 0.00000000 0.00000000 0.00000000 
238772294 0.00000000 0.00000000 -49.48616090 -62.70674125 0.00000000 0.00000000 0.00000000 0.00000000 
240689812 0.00000000 0.00000000 -49.70125238 -62.11823221 0.00000000 0.00000000 0.00000000 0.00000000 
242607330 0.00000000 0.00000000 -49.05633158 -58.52670337 0.00000000 0.00000000 0.00000000 0.00000000 
244524848 0.00000000 0.00000000 -48.99691246 -58.55465690 0.00000000 0.00000000 0.00000000 0.00000000 
246442368 0.00000000 0.00000000 -48.86568350 -55.21330887 0.00000000 0.00000000 0.00000000 0.00000000 
248359886 0.00000000 0.00000000 -48.35188843 -55.29482857 0.00000000 0.00000000 0.00000000 0.00000000 
250277404 0.00000000 0.00000000 -47.60501186 -62.29769044 0.00000000 0.00000000 0.00000000 0.00000000 
252194922 0.00000000 0.00000000 -47.82264875 -61.91055085 0.00000000 0.00000000 0.00000000 0.00000000 
254112442 0.00000000 0.00000000 -47.08746003 -65.11846392 0.00000000 0.00000000 0.00000000 0.00000000 
256029960 0.00000000 0.00000000 -47.16064737 -68.63065139 0.00000000 0.00000000 0.00000000 0.00000000 
257947478 0.00000000 0.00000000 -46.49286633 -69.49314102 0.00000000 0.00000000 0.00000000 0.00000000 
259864996 0.00000000 0.00000000 -45.99354933 -68.67622249 0.00000000 0.00000000 0.00000000 0.00000000 
261782516 0.00000000 0.00000000 -45.65771708 -69.14181652 0.00000000 0.00000000 0.00000000 0.00000000 
263700034 0.00000000 0.00000000 -45.42648276 -73.79751422 0.00000000 0.00000000 0.00000000 0.00000000 
265617552 0.00000000 0.00000000 -45.52260404 -79.21066072 0.00000000 0.00000000 0.00000000 0.00000000 
267535070 0.00000000 0.00000000 -44.95523745 -79.12849417 0.00000000 0.00000000 0.00000000 0.00000000 
269452590 0.00000000 0.00000000 -44.11120201 -80.61483803 0.00000000 0.00000000 0.00000000 0.00000000 
271370108 0.00000000 0.00000000 -43.77024401 -82.58286278 0.00000000 0.00000000 0.00000000 0.00000000 
273287626 0.00000000 0.00000000 -43.85390847 -86.02990655 0.00000000 0.00000000 0.00000000 0.00000000 
275205144 0.00000000 0.00000000 -43.57961177 -89.62904073 0.00000000 0.00000000 0.00000000 0.00000000 
277122664 0.00000000 0.00000000 -42.26605063 -89.04194288 0.00000000 0.00000000 0.00000000 0.00000000 
279040182 0.00000000 0.00000000 -43.17741136 -92.20609597 0.00000000 0.00000000 0.00000000 0.00000000 
280957700 0.00000000 0.00000000 -43.07069220 -104.18226062 0.00000000 0.00000000 0.00000000 0.00000000 
282875218 0.00000000 0.00000000 -42.36880233 -105.17556791 0.00000000 0.00000000 0.00000000 0.00000000 
284792738 0.00000000 0.00000000 -41.51127180 -109.02399367 0.00000000 0.00000000 0.00000000 0.00000000 
286710256 0.00000000 0.00000000 -41.85995203 -111.15670303 0.00000000 0.00000000 0.00000000 0.00000000 
288627774 0.00000000 0.00000000 -42.15551813 -118.14560749 0.00000000 0.00000000 0.00000000 0.00000000 
290545292 0.00000000 0.00000000 -41.80219211 -119.84332091 0.00000000 0.00000000 0.00000000 0.00000000 
292462812 0.00000000 0.00000000 -41.38207672 -125.87420480 0.00000000 0.00000000 0.00000000 0.00000000 
294380330 0.00000000 0.00000000 -41.35530172 -127.91660212 0.00000000 0.00000000 0.00000000 0.00000000 
296297848 0.00000000 0.00000000 -41.85255996 -124.53724158 0.00000000 0.00000000 0.00000000 0.00000000 
298215366 0.00000000 0.00000000 -41.96687249 -130.62173994 0.00000000 0.00000000 0.00000000 0.00000000 
300132886 0.00000000 0.00000000 -41.91403491 -132.03312271 0.00000000 0.00000000 0.00000000 0.00000000 
302050404 0.00000000 0.00000000 -42.37239057 -135.76875035 0.00000000 0.00000000 0.00000000 0.00000000 
303967922 0.00000000 0.00000000 -42.39645809 -140.60216988 0.00000000 0.00000000 0.00000000 0.00000000 
305885440 0.00000000 0.00000000 -41.95652030 -146.79222240 0.00000000 0.00000000 0.00000000 0.00000000 
307802960 0.00000000 0.00000000 -41.28028508 -148.31630517 0.00000000 0.00000000 0.00000000 0.00000000 
309720478 0.00000000 0.00000000 -41.89586798 -152.92519280 0.00000000 0.00000000 0.00000000 0.00000000 
311637996 0.00000000 0.00000000 -41.99848113 -156.76364256 0.00000000 0.00000000 0.00000000 0.00000000 
313555514 0.00000000 0.00000000 -41.93837911 -160.59743773 0.00000000 0.00000000 0.00000000 0.00000000 
315473034 0.00000000 0.00000000 -41.20618102 -163.04433300 0.00000000 0.00000000 0.00000000 0.00000000 
317390552 0.00000000 0.00000000 -42.07602892 -161.84722610 0.00000000 0.00000000 0.00000000 0.00000000 
319308070 0.00000000 0.00000000 -42.54276887 -165.13613966 0.00000000 0.00000000 0.00000000 0.00000000 
321225588 0.00000000 0.00000000 -43.33852024 -169.45273355 0.00000000 0.00000000 0.00000000 0.00000000 
323143108 0.00000000 0.00000000 -42.78306240 -171.00521212 0.00000000 0.00000000 0.00000000 0.00000000 
325060626 0.00000000 0.00000000 -42.95832805 -173.26849738 0.00000000 0.00000000 0.00000000 0.00000000 
326978144 0.00000000 0.00000000 -43.30133767 -172.94468777 0.00000000 0.00000000 0.00000000 0.00000000 
328895662 0.00000000 0.00000000 -43.46239719 -172.94268242 0.00000000 0.00000000 0.00000000 0.00000000 
330813182 0.00000000 0.00000000 -42.85966015 -174.01038396 0.00000000 0.00000000 0.00000000 0.00000000 
332730700 0.00000000 0.00000000 -42.66736552 -174.71251108 0.00000000 0.00000000 0.00000000 0.00000000 
334648218 0.00000000 0.00000000 -42.28643857 -176.28778037 0.00000000 0.00000000 0.00000000 0.00000000 
336565736 0.00000000 0.00000000 -42.02662821 1.34426609 0.00000000 0.00000000 0.00000000 0.00000000 
338483256 0.00000000 0.00000000 -40.97026065 -177.45690647 0.00000000 0.00000000 0.00000000 0.00000000 
340400774 0.00000000 0.00000000 -41.07719478 1.87831767 0.00000000 0.00000000 0.00000000 0.00000000 
342318292 0.00000000 0.00000000 -40.91363546 0.97250707 0.00000000 0.00000000 0.00000000 0.00000000 
344235810 0.00000000 0.00000000 -41.15124172 0.56603443 0.00000000 0.00000000 0.00000000 0.00000000 
346153330 0.00000000 0.00000000 -40.45858008 179.87320609 0.00000000 0.00000000 0.00000000 0.00000000 
348070848 0.00000000 0.00000000 -40.43795681 176.44979777 0.00000000 0.00000000 0.00000000 0.00000000 
349988366 0.00000000 0.00000000 -39.62875219 174.88342626 0.00000000 0.00000000 0.00000000 0.00000000 
351905884 0.00000000 0.00000000 -38.91215742 174.83918007 0.00000000 0.00000000 0.00000000 0.00000000 
353823404 0.00000000 0.00000000 -37.92397615 176.61522002 0.00000000 0.00000000 0.00000000 0.00000000 
355740922 0.00000000 0.00000000 -38.22185170 168.71240053 0.00000000 0.00000000 0.00000000 0.00000000 
357658440 0.00000000 0.00000000 -37.63479382 160.98819706 0.00000000 0.00000000 0.00000000 0.00000000 
359575958 0.00000000 0.00000000 -36.60618054 158.37341130 0.00000000 0.00000000 0.00000000 0.00000000 
361493478 0.00000000 0.00000000 -35.44389881 156.28405199 0.00000000 0.00000000 0.00000000 0.00000000 
363410996 0.00000000 0.00000000 -36.20258770 149.10914294 0.00000000 0.00000000 0.00000000 0.00000000 
365328514 0.00000000 0.00000000 -36.30909632 141.59738447 0.00000000 0.00000000 0.00000000 0.00000000 
367246032 0.00000000 0.00000000 -35.56283321 136.06660543 0.00000000 0.00000000 0.00000000 0.00000000 
369163552 0.00000000 0.00000000 -34.71670195 131.57568235 0.00000000 0.00000000 0.00000000 0.00000000 
