! created by ADMIN at Mon Apr 20 18:47:00 IST 2026
! generated using vna/J Version 3.2.10
# Hz S DB R 50
001000000 0.00000000 0.00000000 -65.93733286 47.96585979 0.00000000 0.00000000 0.00000000 0.00000000 
002917518 0.00000000 0.00000000 -69.06408877 64.12793384 0.00000000 0.00000000 0.00000000 0.00000000 
004835036 0.00000000 0.00000000 -68.12440465 64.81165545 0.00000000 0.00000000 0.00000000 0.00000000 
006752554 0.00000000 0.00000000 -65.40320157 37.05671517 0.00000000 0.00000000 0.00000000 0.00000000 
008670074 0.00000000 0.00000000 -67.05155311 73.70131676 0.00000000 0.00000000 0.00000000 0.00000000 
010587592 0.00000000 0.00000000 -65.34293847 67.88576928 0.00000000 0.00000000 0.00000000 0.00000000 
012505110 0.00000000 0.00000000 -67.07049810 64.49715229 0.00000000 0.00000000 0.00000000 0.00000000 
014422628 0.00000000 0.00000000 -69.68330531 57.20536875 0.00000000 0.00000000 0.00000000 0.00000000 
016340148 0.00000000 0.00000000 -70.56347189 27.97376798 0.00000000 0.00000000 0.00000000 0.00000000 
018257666 0.00000000 0.00000000 -65.64549318 39.17284160 0.00000000 0.00000000 0.00000000 0.00000000 
020175184 0.00000000 0.00000000 -63.78300084 48.71679856 0.00000000 0.00000000 0.00000000 0.00000000 
022092702 0.00000000 0.00000000 -62.39659474 53.64358863 0.00000000 0.00000000 0.00000000 0.00000000 
024010222 0.00000000 0.00000000 -64.21280824 80.83684026 0.00000000 0.00000000 0.00000000 0.00000000 
025927740 0.00000000 0.00000000 -62.02504868 41.76982538 0.00000000 0.00000000 0.00000000 0.00000000 
027845258 0.00000000 0.00000000 -62.83145462 51.11184092 0.00000000 0.00000000 0.00000000 0.00000000 
029762776 0.00000000 0.00000000 -62.28168289 45.81553747 0.00000000 0.00000000 0.00000000 0.00000000 
031680296 0.00000000 0.00000000 -57.75958254 39.08933921 0.00000000 0.00000000 0.00000000 0.00000000 
033597814 0.00000000 0.00000000 -60.10885212 31.00989834 0.00000000 0.00000000 0.00000000 0.00000000 
035515332 0.00000000 0.00000000 -59.21677512 31.05310930 0.00000000 0.00000000 0.00000000 0.00000000 
037432850 0.00000000 0.00000000 -60.62617384 24.47208078 0.00000000 0.00000000 0.00000000 0.00000000 
039350370 0.00000000 0.00000000 -58.00452094 24.12164134 0.00000000 0.00000000 0.00000000 0.00000000 
041267888 0.00000000 0.00000000 -55.53526250 18.18422623 0.00000000 0.00000000 0.00000000 0.00000000 
043185406 0.00000000 0.00000000 -53.61083982 18.87272360 0.00000000 0.00000000 0.00000000 0.00000000 
045102924 0.00000000 0.00000000 -51.04088717 27.37060944 0.00000000 0.00000000 0.00000000 0.00000000 
047020444 0.00000000 0.00000000 -49.55113549 28.01458911 0.00000000 0.00000000 0.00000000 0.00000000 
048937962 0.00000000 0.00000000 -53.18738798 31.55600425 0.00000000 0.00000000 0.00000000 0.00000000 
050855480 0.00000000 0.00000000 -57.22377589 20.27954795 0.00000000 0.00000000 0.00000000 0.00000000 
052772998 0.00000000 0.00000000 -59.57054649 -23.28424690 0.00000000 0.00000000 0.00000000 0.00000000 
054690518 0.00000000 0.00000000 -56.58940585 -54.46585213 0.00000000 0.00000000 0.00000000 0.00000000 
056608036 0.00000000 0.00000000 -58.78409083 -45.53912034 0.00000000 0.00000000 0.00000000 0.00000000 
058525554 0.00000000 0.00000000 -58.05496303 -47.06396063 0.00000000 0.00000000 0.00000000 0.00000000 
060443072 0.00000000 0.00000000 -56.96007088 -36.65193886 0.00000000 0.00000000 0.00000000 0.00000000 
062360592 0.00000000 0.00000000 -57.94143318 -35.46167522 0.00000000 0.00000000 0.00000000 0.00000000 
064278110 0.00000000 0.00000000 -59.98512741 -17.40375708 0.00000000 0.00000000 0.00000000 0.00000000 
066195628 0.00000000 0.00000000 -62.15550072 -27.07769552 0.00000000 0.00000000 0.00000000 0.00000000 
068113146 0.00000000 0.00000000 -63.26195375 2.01320412 0.00000000 0.00000000 0.00000000 0.00000000 
070030666 0.00000000 0.00000000 -63.76241197 37.55688007 0.00000000 0.00000000 0.00000000 0.00000000 
071948184 0.00000000 0.00000000 -64.36851145 27.79314469 0.00000000 0.00000000 0.00000000 0.00000000 
073865702 0.00000000 0.00000000 -63.81998229 49.40131445 0.00000000 0.00000000 0.00000000 0.00000000 
075783220 0.00000000 0.00000000 -61.91017988 64.34707266 0.00000000 0.00000000 0.00000000 0.00000000 
077700740 0.00000000 0.00000000 -60.03215922 73.46668374 0.00000000 0.00000000 0.00000000 0.00000000 
079618258 0.00000000 0.00000000 -61.46596161 61.74042769 0.00000000 0.00000000 0.00000000 0.00000000 
081535776 0.00000000 0.00000000 -58.70555684 61.32077466 0.00000000 0.00000000 0.00000000 0.00000000 
083453294 0.00000000 0.00000000 -58.78227741 53.27354748 0.00000000 0.00000000 0.00000000 0.00000000 
085370814 0.00000000 0.00000000 -58.45036679 62.23079015 0.00000000 0.00000000 0.00000000 0.00000000 
087288332 0.00000000 0.00000000 -61.83518265 43.29073059 0.00000000 0.00000000 0.00000000 0.00000000 
089205850 0.00000000 0.00000000 -59.48661232 41.57482629 0.00000000 0.00000000 0.00000000 0.00000000 
091123368 0.00000000 0.00000000 -59.09033203 25.05070752 0.00000000 0.00000000 0.00000000 0.00000000 
093040888 0.00000000 0.00000000 -58.83807244 17.04272821 0.00000000 0.00000000 0.00000000 0.00000000 
094958406 0.00000000 0.00000000 -59.13651968 16.17817426 0.00000000 0.00000000 0.00000000 0.00000000 
096875924 0.00000000 0.00000000 -58.58466579 15.21990477 0.00000000 0.00000000 0.00000000 0.00000000 
098793442 0.00000000 0.00000000 -58.19441473 12.49647587 0.00000000 0.00000000 0.00000000 0.00000000 
100710962 0.00000000 0.00000000 -58.06911163 9.40144420 0.00000000 0.00000000 0.00000000 0.00000000 
102628480 0.00000000 0.00000000 -57.94900931 21.25764359 0.00000000 0.00000000 0.00000000 0.00000000 
104545998 0.00000000 0.00000000 -60.91978690 24.63669976 0.00000000 0.00000000 0.00000000 0.00000000 
106463516 0.00000000 0.00000000 -62.59048925 27.93611418 0.00000000 0.00000000 0.00000000 0.00000000 
108381036 0.00000000 0.00000000 -59.05359581 24.33760133 0.00000000 0.00000000 0.00000000 0.00000000 
110298554 0.00000000 0.00000000 -59.84147944 32.73766273 0.00000000 0.00000000 0.00000000 0.00000000 
112216072 0.00000000 0.00000000 -56.45811079 51.65738075 0.00000000 0.00000000 0.00000000 0.00000000 
114133590 0.00000000 0.00000000 -56.14862834 60.64771124 0.00000000 0.00000000 0.00000000 0.00000000 
116051110 0.00000000 0.00000000 -53.46602095 59.65865630 0.00000000 0.00000000 0.00000000 0.00000000 
117968628 0.00000000 0.00000000 -54.99965599 60.58652686 0.00000000 0.00000000 0.00000000 0.00000000 
119886146 0.00000000 0.00000000 -56.46175606 52.09706703 0.00000000 0.00000000 0.00000000 0.00000000 
121803664 0.00000000 0.00000000 -57.38811958 41.62878237 0.00000000 0.00000000 0.00000000 0.00000000 
123721184 0.00000000 0.00000000 -56.99921456 47.57656430 0.00000000 0.00000000 0.00000000 0.00000000 
125638702 0.00000000 0.00000000 -56.81894765 31.39266421 0.00000000 0.00000000 0.00000000 0.00000000 
127556220 0.00000000 0.00000000 -54.43972693 28.95001540 0.00000000 0.00000000 0.00000000 0.00000000 
129473738 0.00000000 0.00000000 -53.71087570 32.55082299 0.00000000 0.00000000 0.00000000 0.00000000 
131391258 0.00000000 0.00000000 -52.62254399 38.19020437 0.00000000 0.00000000 0.00000000 0.00000000 
133308776 0.00000000 0.00000000 -53.71679805 43.03035439 0.00000000 0.00000000 0.00000000 0.00000000 
135226294 0.00000000 0.00000000 -51.44696736 45.76558871 0.00000000 0.00000000 0.00000000 0.00000000 
137143812 0.00000000 0.00000000 -50.93367843 41.12575547 0.00000000 0.00000000 0.00000000 0.00000000 
139061332 0.00000000 0.00000000 -50.65228626 44.99613816 0.00000000 0.00000000 0.00000000 0.00000000 
140978850 0.00000000 0.00000000 -49.80007538 44.53514714 0.00000000 0.00000000 0.00000000 0.00000000 
142896368 0.00000000 0.00000000 -48.64097987 45.44845332 0.00000000 0.00000000 0.00000000 0.00000000 
144813886 0.00000000 0.00000000 -48.75190750 44.46075925 0.00000000 0.00000000 0.00000000 0.00000000 
146731406 0.00000000 0.00000000 -48.01161504 48.49757110 0.00000000 0.00000000 0.00000000 0.00000000 
148648924 0.00000000 0.00000000 -46.41946899 47.65107934 0.00000000 0.00000000 0.00000000 0.00000000 
150566442 0.00000000 0.00000000 -45.34500507 47.84461917 0.00000000 0.00000000 0.00000000 0.00000000 
152483960 0.00000000 0.00000000 -44.06265581 48.71358136 0.00000000 0.00000000 0.00000000 0.00000000 
154401480 0.00000000 0.00000000 -43.27964448 53.99236883 0.00000000 0.00000000 0.00000000 0.00000000 
156318998 0.00000000 0.00000000 -42.96117304 48.21327007 0.00000000 0.00000000 0.00000000 0.00000000 
158236516 0.00000000 0.00000000 -41.96692678 42.40803939 0.00000000 0.00000000 0.00000000 0.00000000 
160154034 0.00000000 0.00000000 -40.74809879 42.32379905 0.00000000 0.00000000 0.00000000 0.00000000 
162071554 0.00000000 0.00000000 -39.67349213 43.50437983 0.00000000 0.00000000 0.00000000 0.00000000 
163989072 0.00000000 0.00000000 -39.14279083 26.77784920 0.00000000 0.00000000 0.00000000 0.00000000 
165906590 0.00000000 0.00000000 -37.03874312 17.47232667 0.00000000 0.00000000 0.00000000 0.00000000 
167824108 0.00000000 0.00000000 -35.40362604 13.41118319 0.00000000 0.00000000 0.00000000 0.00000000 
169741628 0.00000000 0.00000000 -33.51639027 14.92622419 0.00000000 0.00000000 0.00000000 0.00000000 
171659146 0.00000000 0.00000000 -35.96145627 -7.42191436 0.00000000 0.00000000 0.00000000 0.00000000 
173576664 0.00000000 0.00000000 -35.09054671 -36.86256829 0.00000000 0.00000000 0.00000000 0.00000000 
175494182 0.00000000 0.00000000 -32.18456451 -51.63266031 0.00000000 0.00000000 0.00000000 0.00000000 
177411702 0.00000000 0.00000000 -29.40808256 -55.38804905 0.00000000 0.00000000 0.00000000 0.00000000 
179329220 0.00000000 0.00000000 -31.93782723 -56.87231730 0.00000000 0.00000000 0.00000000 0.00000000 
181246738 0.00000000 0.00000000 -34.74008392 -67.77522492 0.00000000 0.00000000 0.00000000 0.00000000 
183164256 0.00000000 0.00000000 -36.58088684 -94.63235251 0.00000000 0.00000000 0.00000000 0.00000000 
185081776 0.00000000 0.00000000 -34.79682409 -119.70414974 0.00000000 0.00000000 0.00000000 0.00000000 
186999294 0.00000000 0.00000000 -36.59860359 -117.35768188 0.00000000 0.00000000 0.00000000 0.00000000 
188916812 0.00000000 0.00000000 -38.58333246 -120.85318699 0.00000000 0.00000000 0.00000000 0.00000000 
190834330 0.00000000 0.00000000 -40.42819604 -129.05016317 0.00000000 0.00000000 0.00000000 0.00000000 
192751850 0.00000000 0.00000000 -41.59428493 -146.77031482 0.00000000 0.00000000 0.00000000 0.00000000 
194669368 0.00000000 0.00000000 -43.11583716 -143.08357208 0.00000000 0.00000000 0.00000000 0.00000000 
196586886 0.00000000 0.00000000 -44.51811808 -142.70522252 0.00000000 0.00000000 0.00000000 0.00000000 
198504404 0.00000000 0.00000000 -46.08331722 -145.71377262 0.00000000 0.00000000 0.00000000 0.00000000 
200421924 0.00000000 0.00000000 -47.80286167 -154.77593176 0.00000000 0.00000000 0.00000000 0.00000000 
202339442 0.00000000 0.00000000 -48.56442178 -154.52537867 0.00000000 0.00000000 0.00000000 0.00000000 
204256960 0.00000000 0.00000000 -49.42748418 -156.09971194 0.00000000 0.00000000 0.00000000 0.00000000 
206174478 0.00000000 0.00000000 -51.25952070 -166.51646547 0.00000000 0.00000000 0.00000000 0.00000000 
208091998 0.00000000 0.00000000 -50.87558897 -174.39519453 0.00000000 0.00000000 0.00000000 0.00000000 
210009516 0.00000000 0.00000000 -53.70264642 -177.35547052 0.00000000 0.00000000 0.00000000 0.00000000 
211927034 0.00000000 0.00000000 -54.33779767 175.07521272 0.00000000 0.00000000 0.00000000 0.00000000 
213844552 0.00000000 0.00000000 -56.14954026 157.42639039 0.00000000 0.00000000 0.00000000 0.00000000 
215762072 0.00000000 0.00000000 -57.54309584 145.03617227 0.00000000 0.00000000 0.00000000 0.00000000 
217679590 0.00000000 0.00000000 -59.41659857 149.66624851 0.00000000 0.00000000 0.00000000 0.00000000 
219597108 0.00000000 0.00000000 -65.09540511 134.48093759 0.00000000 0.00000000 0.00000000 0.00000000 
221514626 0.00000000 0.00000000 -68.84100666 3.34183768 0.00000000 0.00000000 0.00000000 0.00000000 
223432146 0.00000000 0.00000000 -61.54821949 10.66760400 0.00000000 0.00000000 0.00000000 0.00000000 
225349664 0.00000000 0.00000000 -61.36254614 28.07189387 0.00000000 0.00000000 0.00000000 0.00000000 
227267182 0.00000000 0.00000000 -58.00024668 32.40121499 0.00000000 0.00000000 0.00000000 0.00000000 
229184700 0.00000000 0.00000000 -56.78855983 33.31249436 0.00000000 0.00000000 0.00000000 0.00000000 
231102220 0.00000000 0.00000000 -53.91071786 40.00638933 0.00000000 0.00000000 0.00000000 0.00000000 
233019738 0.00000000 0.00000000 -55.43661168 34.53843405 0.00000000 0.00000000 0.00000000 0.00000000 
234937256 0.00000000 0.00000000 -54.88603412 34.05965399 0.00000000 0.00000000 0.00000000 0.00000000 
236854774 0.00000000 0.00000000 -56.02756987 42.26506158 0.00000000 0.00000000 0.00000000 0.00000000 
238772294 0.00000000 0.00000000 -55.83276100 25.13396009 0.00000000 0.00000000 0.00000000 0.00000000 
240689812 0.00000000 0.00000000 -56.70901980 25.03999645 0.00000000 0.00000000 0.00000000 0.00000000 
242607330 0.00000000 0.00000000 -56.03231868 13.57269438 0.00000000 0.00000000 0.00000000 0.00000000 
244524848 0.00000000 0.00000000 -56.42289813 10.52678439 0.00000000 0.00000000 0.00000000 0.00000000 
246442368 0.00000000 0.00000000 -55.50172006 10.65766336 0.00000000 0.00000000 0.00000000 0.00000000 
248359886 0.00000000 0.00000000 -53.64675196 0.63633118 0.00000000 0.00000000 0.00000000 0.00000000 
250277404 0.00000000 0.00000000 -53.20843014 -11.97570253 0.00000000 0.00000000 0.00000000 0.00000000 
252194922 0.00000000 0.00000000 -52.29268499 -3.34196409 0.00000000 0.00000000 0.00000000 0.00000000 
254112442 0.00000000 0.00000000 -51.70622276 -4.80998788 0.00000000 0.00000000 0.00000000 0.00000000 
256029960 0.00000000 0.00000000 -51.69955298 -2.23054537 0.00000000 0.00000000 0.00000000 0.00000000 
257947478 0.00000000 0.00000000 -50.84666150 -2.80255333 0.00000000 0.00000000 0.00000000 0.00000000 
259864996 0.00000000 0.00000000 -50.00252553 1.09387584 0.00000000 0.00000000 0.00000000 0.00000000 
261782516 0.00000000 0.00000000 -49.78221615 7.40375928 0.00000000 0.00000000 0.00000000 0.00000000 
263700034 0.00000000 0.00000000 -49.51122550 -6.21343924 0.00000000 0.00000000 0.00000000 0.00000000 
265617552 0.00000000 0.00000000 -49.08025582 -11.10373960 0.00000000 0.00000000 0.00000000 0.00000000 
267535070 0.00000000 0.00000000 -47.26066440 -13.69903106 0.00000000 0.00000000 0.00000000 0.00000000 
269452590 0.00000000 0.00000000 -45.97753988 -15.22664733 0.00000000 0.00000000 0.00000000 0.00000000 
271370108 0.00000000 0.00000000 -46.24756610 -24.58175954 0.00000000 0.00000000 0.00000000 0.00000000 
273287626 0.00000000 0.00000000 -46.65809839 -30.43841120 0.00000000 0.00000000 0.00000000 0.00000000 
275205144 0.00000000 0.00000000 -46.60294337 -37.09203215 0.00000000 0.00000000 0.00000000 0.00000000 
277122664 0.00000000 0.00000000 -44.89882673 -44.88570319 0.00000000 0.00000000 0.00000000 0.00000000 
279040182 0.00000000 0.00000000 -45.58935372 -43.04250972 0.00000000 0.00000000 0.00000000 0.00000000 
280957700 0.00000000 0.00000000 -46.89864057 -52.61114767 0.00000000 0.00000000 0.00000000 0.00000000 
282875218 0.00000000 0.00000000 -45.91570654 -54.65390449 0.00000000 0.00000000 0.00000000 0.00000000 
284792738 0.00000000 0.00000000 -45.61990060 -58.61978274 0.00000000 0.00000000 0.00000000 0.00000000 
286710256 0.00000000 0.00000000 -45.45063858 -60.03456323 0.00000000 0.00000000 0.00000000 0.00000000 
288627774 0.00000000 0.00000000 -46.07302092 -62.21241388 0.00000000 0.00000000 0.00000000 0.00000000 
290545292 0.00000000 0.00000000 -45.25642233 -61.85791734 0.00000000 0.00000000 0.00000000 0.00000000 
292462812 0.00000000 0.00000000 -45.57061264 -62.13575053 0.00000000 0.00000000 0.00000000 0.00000000 
294380330 0.00000000 0.00000000 -46.28306569 -71.15886263 0.00000000 0.00000000 0.00000000 0.00000000 
296297848 0.00000000 0.00000000 -45.84258727 -69.41216517 0.00000000 0.00000000 0.00000000 0.00000000 
298215366 0.00000000 0.00000000 -46.79256295 -77.48783896 0.00000000 0.00000000 0.00000000 0.00000000 
300132886 0.00000000 0.00000000 -46.42712276 -80.28196488 0.00000000 0.00000000 0.00000000 0.00000000 
302050404 0.00000000 0.00000000 -46.65652982 -79.27844778 0.00000000 0.00000000 0.00000000 0.00000000 
303967922 0.00000000 0.00000000 -46.78982696 -79.43021142 0.00000000 0.00000000 0.00000000 0.00000000 
305885440 0.00000000 0.00000000 -47.17152950 -81.48013919 0.00000000 0.00000000 0.00000000 0.00000000 
307802960 0.00000000 0.00000000 -46.64485783 -80.45687482 0.00000000 0.00000000 0.00000000 0.00000000 
309720478 0.00000000 0.00000000 -48.10817692 -79.85720134 0.00000000 0.00000000 0.00000000 0.00000000 
311637996 0.00000000 0.00000000 -48.93703912 -82.53994660 0.00000000 0.00000000 0.00000000 0.00000000 
313555514 0.00000000 0.00000000 -49.66607427 -84.13651315 0.00000000 0.00000000 0.00000000 0.00000000 
315473034 0.00000000 0.00000000 -49.70840973 -92.37882852 0.00000000 0.00000000 0.00000000 0.00000000 
317390552 0.00000000 0.00000000 -49.42296498 -88.20440631 0.00000000 0.00000000 0.00000000 0.00000000 
319308070 0.00000000 0.00000000 -50.04473768 -89.50993957 0.00000000 0.00000000 0.00000000 0.00000000 
321225588 0.00000000 0.00000000 -50.68184780 -81.11052810 0.00000000 0.00000000 0.00000000 0.00000000 
323143108 0.00000000 0.00000000 -50.02492328 -87.67748784 0.00000000 0.00000000 0.00000000 0.00000000 
325060626 0.00000000 0.00000000 -51.83841099 -93.03902867 0.00000000 0.00000000 0.00000000 0.00000000 
326978144 0.00000000 0.00000000 -52.35541900 -93.70216146 0.00000000 0.00000000 0.00000000 0.00000000 
328895662 0.00000000 0.00000000 -52.62124746 -95.07517873 0.00000000 0.00000000 0.00000000 0.00000000 
330813182 0.00000000 0.00000000 -52.58760204 -108.13141025 0.00000000 0.00000000 0.00000000 0.00000000 
332730700 0.00000000 0.00000000 -52.22996825 -105.63251707 0.00000000 0.00000000 0.00000000 0.00000000 
334648218 0.00000000 0.00000000 -52.51618263 -103.28019193 0.00000000 0.00000000 0.00000000 0.00000000 
336565736 0.00000000 0.00000000 -53.89058710 -93.98843555 0.00000000 0.00000000 0.00000000 0.00000000 
338483256 0.00000000 0.00000000 -53.58929162 -100.06082408 0.00000000 0.00000000 0.00000000 0.00000000 
340400774 0.00000000 0.00000000 -53.82170033 -100.81125316 0.00000000 0.00000000 0.00000000 0.00000000 
342318292 0.00000000 0.00000000 -53.84266564 -103.34185894 0.00000000 0.00000000 0.00000000 0.00000000 
344235810 0.00000000 0.00000000 -53.73276796 -88.05635830 0.00000000 0.00000000 0.00000000 0.00000000 
346153330 0.00000000 0.00000000 -53.94242285 -94.02958545 0.00000000 0.00000000 0.00000000 0.00000000 
348070848 0.00000000 0.00000000 -55.13680568 -81.13520156 0.00000000 0.00000000 0.00000000 0.00000000 
349988366 0.00000000 0.00000000 -56.08455992 -88.64526323 0.00000000 0.00000000 0.00000000 0.00000000 
351905884 0.00000000 0.00000000 -56.34572496 -88.67859934 0.00000000 0.00000000 0.00000000 0.00000000 
353823404 0.00000000 0.00000000 -55.78695793 -98.88715106 0.00000000 0.00000000 0.00000000 0.00000000 
355740922 0.00000000 0.00000000 -55.69818870 -83.99775922 0.00000000 0.00000000 0.00000000 0.00000000 
357658440 0.00000000 0.00000000 -56.48041485 -79.31543584 0.00000000 0.00000000 0.00000000 0.00000000 
359575958 0.00000000 0.00000000 -54.51151901 -86.57543013 0.00000000 0.00000000 0.00000000 0.00000000 
361493478 0.00000000 0.00000000 -54.67591172 -83.33966738 0.00000000 0.00000000 0.00000000 0.00000000 
363410996 0.00000000 0.00000000 -54.74066062 -70.47415966 0.00000000 0.00000000 0.00000000 0.00000000 
365328514 0.00000000 0.00000000 -54.29252728 -66.64553530 0.00000000 0.00000000 0.00000000 0.00000000 
367246032 0.00000000 0.00000000 -55.23894244 -75.80216521 0.00000000 0.00000000 0.00000000 0.00000000 
369163552 0.00000000 0.00000000 -54.67712995 -64.02775367 0.00000000 0.00000000 0.00000000 0.00000000 
371081070 0.00000000 0.00000000 -53.13768645 -60.31726858 0.00000000 0.00000000 0.00000000 0.00000000 
