! created by ADMIN at Tue Apr 21 15:26:11 IST 2026
! generated using vna/J Version 3.2.10
# Hz S DB R 50
001000000 0.00000000 0.00000000 -68.26914735 52.32309126 0.00000000 0.00000000 0.00000000 0.00000000 
002917518 0.00000000 0.00000000 -73.02362064 91.23008039 0.00000000 0.00000000 0.00000000 0.00000000 
004835036 0.00000000 0.00000000 -72.89349768 105.71490112 0.00000000 0.00000000 0.00000000 0.00000000 
006752554 0.00000000 0.00000000 -73.98262066 42.86995008 0.00000000 0.00000000 0.00000000 0.00000000 
008670074 0.00000000 0.00000000 -72.35226552 148.00658688 0.00000000 0.00000000 0.00000000 0.00000000 
010587592 0.00000000 0.00000000 -72.58102223 98.71950416 0.00000000 0.00000000 0.00000000 0.00000000 
012505110 0.00000000 0.00000000 -74.88204072 78.18061974 0.00000000 0.00000000 0.00000000 0.00000000 
014422628 0.00000000 0.00000000 -76.78891316 51.45685194 0.00000000 0.00000000 0.00000000 0.00000000 
016340148 0.00000000 0.00000000 -72.89053037 14.29286084 0.00000000 0.00000000 0.00000000 0.00000000 
018257666 0.00000000 0.00000000 -70.16937743 39.00115837 0.00000000 0.00000000 0.00000000 0.00000000 
020175184 0.00000000 0.00000000 -70.30426396 57.34954360 0.00000000 0.00000000 0.00000000 0.00000000 
022092702 0.00000000 0.00000000 -70.90996857 65.29167182 0.00000000 0.00000000 0.00000000 0.00000000 
024010222 0.00000000 0.00000000 -71.38102913 162.28996756 0.00000000 0.00000000 0.00000000 0.00000000 
025927740 0.00000000 0.00000000 -76.42960153 23.04606724 0.00000000 0.00000000 0.00000000 0.00000000 
027845258 0.00000000 0.00000000 -77.76805343 152.80258200 0.00000000 0.00000000 0.00000000 0.00000000 
029762776 0.00000000 0.00000000 -76.50791070 -174.72029338 0.00000000 0.00000000 0.00000000 0.00000000 
031680296 0.00000000 0.00000000 -71.76447290 39.42317444 0.00000000 0.00000000 0.00000000 0.00000000 
033597814 0.00000000 0.00000000 -80.00000000 -63.29244388 0.00000000 0.00000000 0.00000000 0.00000000 
035515332 0.00000000 0.00000000 -80.00000000 14.76463101 0.00000000 0.00000000 0.00000000 0.00000000 
037432850 0.00000000 0.00000000 -74.73934796 -120.19244298 0.00000000 0.00000000 0.00000000 0.00000000 
039350370 0.00000000 0.00000000 -79.82918591 -24.56834592 0.00000000 0.00000000 0.00000000 0.00000000 
041267888 0.00000000 0.00000000 -76.69602805 -59.54124085 0.00000000 0.00000000 0.00000000 0.00000000 
043185406 0.00000000 0.00000000 -73.32551195 -86.90578700 0.00000000 0.00000000 0.00000000 0.00000000 
045102924 0.00000000 0.00000000 -79.65909490 14.80907215 0.00000000 0.00000000 0.00000000 0.00000000 
047020444 0.00000000 0.00000000 -70.35582394 -42.08679370 0.00000000 0.00000000 0.00000000 0.00000000 
048937962 0.00000000 0.00000000 -80.00000000 -134.49638199 0.00000000 0.00000000 0.00000000 0.00000000 
050855480 0.00000000 0.00000000 -80.00000000 120.88516752 0.00000000 0.00000000 0.00000000 0.00000000 
052772998 0.00000000 0.00000000 -80.00000000 120.16607469 0.00000000 0.00000000 0.00000000 0.00000000 
054690518 0.00000000 0.00000000 -70.60315011 116.67166461 0.00000000 0.00000000 0.00000000 0.00000000 
056608036 0.00000000 0.00000000 -67.47664197 124.30415269 0.00000000 0.00000000 0.00000000 0.00000000 
058525554 0.00000000 0.00000000 -76.43503955 -175.12203980 0.00000000 0.00000000 0.00000000 0.00000000 
060443072 0.00000000 0.00000000 -71.27738966 -36.87989214 0.00000000 0.00000000 0.00000000 0.00000000 
062360592 0.00000000 0.00000000 -69.14298867 -47.40935895 0.00000000 0.00000000 0.00000000 0.00000000 
064278110 0.00000000 0.00000000 -75.25583227 -32.08320203 0.00000000 0.00000000 0.00000000 0.00000000 
066195628 0.00000000 0.00000000 -67.58190850 -94.92986201 0.00000000 0.00000000 0.00000000 0.00000000 
068113146 0.00000000 0.00000000 -71.38553843 -77.19583392 0.00000000 0.00000000 0.00000000 0.00000000 
070030666 0.00000000 0.00000000 -79.95665018 -65.69913178 0.00000000 0.00000000 0.00000000 0.00000000 
071948184 0.00000000 0.00000000 -70.01992090 -65.27156831 0.00000000 0.00000000 0.00000000 0.00000000 
073865702 0.00000000 0.00000000 -74.77394722 -64.05055894 0.00000000 0.00000000 0.00000000 0.00000000 
075783220 0.00000000 0.00000000 -80.00000000 -0.60586418 0.00000000 0.00000000 0.00000000 0.00000000 
077700740 0.00000000 0.00000000 -73.75606331 57.51323580 0.00000000 0.00000000 0.00000000 0.00000000 
079618258 0.00000000 0.00000000 -76.56513605 -38.02374464 0.00000000 0.00000000 0.00000000 0.00000000 
081535776 0.00000000 0.00000000 -75.43746499 27.12059309 0.00000000 0.00000000 0.00000000 0.00000000 
083453294 0.00000000 0.00000000 -71.07305898 -38.84414063 0.00000000 0.00000000 0.00000000 0.00000000 
085370814 0.00000000 0.00000000 -71.67876769 -78.81911119 0.00000000 0.00000000 0.00000000 0.00000000 
087288332 0.00000000 0.00000000 -66.91895602 -80.72647201 0.00000000 0.00000000 0.00000000 0.00000000 
089205850 0.00000000 0.00000000 -78.11879148 -9.41486016 0.00000000 0.00000000 0.00000000 0.00000000 
091123368 0.00000000 0.00000000 -77.67651947 -19.30778595 0.00000000 0.00000000 0.00000000 0.00000000 
093040888 0.00000000 0.00000000 -80.00000000 -142.90509375 0.00000000 0.00000000 0.00000000 0.00000000 
094958406 0.00000000 0.00000000 -75.77425567 -154.81365010 0.00000000 0.00000000 0.00000000 0.00000000 
096875924 0.00000000 0.00000000 -76.16483898 -154.95540989 0.00000000 0.00000000 0.00000000 0.00000000 
098793442 0.00000000 0.00000000 -73.48549585 -140.27840341 0.00000000 0.00000000 0.00000000 0.00000000 
100710962 0.00000000 0.00000000 -69.10008739 -132.16782743 0.00000000 0.00000000 0.00000000 0.00000000 
102628480 0.00000000 0.00000000 -80.00000000 -154.46236309 0.00000000 0.00000000 0.00000000 0.00000000 
104545998 0.00000000 0.00000000 -71.79898762 -151.76713141 0.00000000 0.00000000 0.00000000 0.00000000 
106463516 0.00000000 0.00000000 -72.83586756 -156.61076239 0.00000000 0.00000000 0.00000000 0.00000000 
108381036 0.00000000 0.00000000 -69.92584707 28.83369443 0.00000000 0.00000000 0.00000000 0.00000000 
110298554 0.00000000 0.00000000 -74.66869208 -138.85492675 0.00000000 0.00000000 0.00000000 0.00000000 
112216072 0.00000000 0.00000000 -71.13810648 163.52793563 0.00000000 0.00000000 0.00000000 0.00000000 
114133590 0.00000000 0.00000000 -65.19429112 -153.83561263 0.00000000 0.00000000 0.00000000 0.00000000 
116051110 0.00000000 0.00000000 -70.40485070 -117.52137638 0.00000000 0.00000000 0.00000000 0.00000000 
117968628 0.00000000 0.00000000 -71.84961016 -114.92000272 0.00000000 0.00000000 0.00000000 0.00000000 
119886146 0.00000000 0.00000000 -71.63224136 -76.30742372 0.00000000 0.00000000 0.00000000 0.00000000 
121803664 0.00000000 0.00000000 -71.34947261 -56.39110534 0.00000000 0.00000000 0.00000000 0.00000000 
123721184 0.00000000 0.00000000 -74.76425314 102.47979507 0.00000000 0.00000000 0.00000000 0.00000000 
125638702 0.00000000 0.00000000 -74.28457159 -98.69573021 0.00000000 0.00000000 0.00000000 0.00000000 
127556220 0.00000000 0.00000000 -72.78183836 -59.38422612 0.00000000 0.00000000 0.00000000 0.00000000 
129473738 0.00000000 0.00000000 -70.22816721 -98.92003951 0.00000000 0.00000000 0.00000000 0.00000000 
131391258 0.00000000 0.00000000 -68.26056312 -111.87761415 0.00000000 0.00000000 0.00000000 0.00000000 
133308776 0.00000000 0.00000000 -63.49309070 -132.81365666 0.00000000 0.00000000 0.00000000 0.00000000 
135226294 0.00000000 0.00000000 -76.56788567 -154.91942026 0.00000000 0.00000000 0.00000000 0.00000000 
137143812 0.00000000 0.00000000 -71.05001479 -62.69178109 0.00000000 0.00000000 0.00000000 0.00000000 
139061332 0.00000000 0.00000000 -71.95721037 -81.23608888 0.00000000 0.00000000 0.00000000 0.00000000 
140978850 0.00000000 0.00000000 -76.77341853 -64.47715630 0.00000000 0.00000000 0.00000000 0.00000000 
142896368 0.00000000 0.00000000 -77.70976740 27.28197408 0.00000000 0.00000000 0.00000000 0.00000000 
144813886 0.00000000 0.00000000 -69.65944734 -100.88781317 0.00000000 0.00000000 0.00000000 0.00000000 
146731406 0.00000000 0.00000000 -68.31668526 -125.06444393 0.00000000 0.00000000 0.00000000 0.00000000 
148648924 0.00000000 0.00000000 -77.19137490 -112.37689247 0.00000000 0.00000000 0.00000000 0.00000000 
150566442 0.00000000 0.00000000 -73.82101026 -85.42138779 0.00000000 0.00000000 0.00000000 0.00000000 
152483960 0.00000000 0.00000000 -69.22077743 -35.22875009 0.00000000 0.00000000 0.00000000 0.00000000 
154401480 0.00000000 0.00000000 -71.75568324 -70.41256022 0.00000000 0.00000000 0.00000000 0.00000000 
156318998 0.00000000 0.00000000 -76.85154760 -82.70025598 0.00000000 0.00000000 0.00000000 0.00000000 
158236516 0.00000000 0.00000000 -71.89445854 -11.07657565 0.00000000 0.00000000 0.00000000 0.00000000 
160154034 0.00000000 0.00000000 -67.80423861 68.64421762 0.00000000 0.00000000 0.00000000 0.00000000 
162071554 0.00000000 0.00000000 -64.72563530 95.00244735 0.00000000 0.00000000 0.00000000 0.00000000 
163989072 0.00000000 0.00000000 -67.13521996 120.42239418 0.00000000 0.00000000 0.00000000 0.00000000 
165906590 0.00000000 0.00000000 -62.63035838 75.38232487 0.00000000 0.00000000 0.00000000 0.00000000 
167824108 0.00000000 0.00000000 -66.91608661 120.01088573 0.00000000 0.00000000 0.00000000 0.00000000 
169741628 0.00000000 0.00000000 -62.42947265 94.47200777 0.00000000 0.00000000 0.00000000 0.00000000 
171659146 0.00000000 0.00000000 -63.59777678 109.06882296 0.00000000 0.00000000 0.00000000 0.00000000 
173576664 0.00000000 0.00000000 -67.28801519 106.55508394 0.00000000 0.00000000 0.00000000 0.00000000 
175494182 0.00000000 0.00000000 -68.61644796 75.61433604 0.00000000 0.00000000 0.00000000 0.00000000 
177411702 0.00000000 0.00000000 -68.17682220 38.55074409 0.00000000 0.00000000 0.00000000 0.00000000 
179329220 0.00000000 0.00000000 -65.85141472 45.15249401 0.00000000 0.00000000 0.00000000 0.00000000 
181246738 0.00000000 0.00000000 -68.64204382 39.60009434 0.00000000 0.00000000 0.00000000 0.00000000 
183164256 0.00000000 0.00000000 -66.11844324 108.92073634 0.00000000 0.00000000 0.00000000 0.00000000 
185081776 0.00000000 0.00000000 -78.24873360 26.79673519 0.00000000 0.00000000 0.00000000 0.00000000 
186999294 0.00000000 0.00000000 -68.59937884 9.99730375 0.00000000 0.00000000 0.00000000 0.00000000 
188916812 0.00000000 0.00000000 -73.58546694 56.47504328 0.00000000 0.00000000 0.00000000 0.00000000 
190834330 0.00000000 0.00000000 -77.45816024 -20.24271719 0.00000000 0.00000000 0.00000000 0.00000000 
192751850 0.00000000 0.00000000 -80.00000000 23.68417439 0.00000000 0.00000000 0.00000000 0.00000000 
194669368 0.00000000 0.00000000 -79.11600530 12.64439793 0.00000000 0.00000000 0.00000000 0.00000000 
196586886 0.00000000 0.00000000 -77.33830627 -156.73839641 0.00000000 0.00000000 0.00000000 0.00000000 
198504404 0.00000000 0.00000000 -69.81204752 -154.28540803 0.00000000 0.00000000 0.00000000 0.00000000 
200421924 0.00000000 0.00000000 -68.90501848 -162.43467739 0.00000000 0.00000000 0.00000000 0.00000000 
202339442 0.00000000 0.00000000 -66.42219671 -150.87537380 0.00000000 0.00000000 0.00000000 0.00000000 
204256960 0.00000000 0.00000000 -65.86632399 -141.57309078 0.00000000 0.00000000 0.00000000 0.00000000 
206174478 0.00000000 0.00000000 -76.78800811 147.35611418 0.00000000 0.00000000 0.00000000 0.00000000 
208091998 0.00000000 0.00000000 -70.63816075 166.10120278 0.00000000 0.00000000 0.00000000 0.00000000 
210009516 0.00000000 0.00000000 -75.82054238 178.52085948 0.00000000 0.00000000 0.00000000 0.00000000 
211927034 0.00000000 0.00000000 -65.09032740 -161.25408914 0.00000000 0.00000000 0.00000000 0.00000000 
213844552 0.00000000 0.00000000 -66.09177254 -145.59713952 0.00000000 0.00000000 0.00000000 0.00000000 
215762072 0.00000000 0.00000000 -62.39304044 -105.30132807 0.00000000 0.00000000 0.00000000 0.00000000 
217679590 0.00000000 0.00000000 -64.36962393 -120.62569926 0.00000000 0.00000000 0.00000000 0.00000000 
219597108 0.00000000 0.00000000 -69.14873443 -113.19579536 0.00000000 0.00000000 0.00000000 0.00000000 
221514626 0.00000000 0.00000000 -65.82497655 -65.98922092 0.00000000 0.00000000 0.00000000 0.00000000 
223432146 0.00000000 0.00000000 -69.68856795 -53.07852391 0.00000000 0.00000000 0.00000000 0.00000000 
225349664 0.00000000 0.00000000 -73.07892000 -121.03088622 0.00000000 0.00000000 0.00000000 0.00000000 
227267182 0.00000000 0.00000000 -77.09096204 -94.62114222 0.00000000 0.00000000 0.00000000 0.00000000 
229184700 0.00000000 0.00000000 -69.93903269 -90.46864791 0.00000000 0.00000000 0.00000000 0.00000000 
231102220 0.00000000 0.00000000 -70.90960740 -34.08453536 0.00000000 0.00000000 0.00000000 0.00000000 
233019738 0.00000000 0.00000000 -66.77944995 -56.51126074 0.00000000 0.00000000 0.00000000 0.00000000 
234937256 0.00000000 0.00000000 -66.47872049 -24.35494024 0.00000000 0.00000000 0.00000000 0.00000000 
236854774 0.00000000 0.00000000 -77.25174109 -18.77520187 0.00000000 0.00000000 0.00000000 0.00000000 
238772294 0.00000000 0.00000000 -65.72450353 -35.60047231 0.00000000 0.00000000 0.00000000 0.00000000 
240689812 0.00000000 0.00000000 -69.66449417 -43.98301651 0.00000000 0.00000000 0.00000000 0.00000000 
242607330 0.00000000 0.00000000 -66.08441255 -44.68196396 0.00000000 0.00000000 0.00000000 0.00000000 
244524848 0.00000000 0.00000000 -67.63297934 -69.25505048 0.00000000 0.00000000 0.00000000 0.00000000 
246442368 0.00000000 0.00000000 -68.79083900 -72.09074930 0.00000000 0.00000000 0.00000000 0.00000000 
248359886 0.00000000 0.00000000 -65.11725822 -36.41648983 0.00000000 0.00000000 0.00000000 0.00000000 
250277404 0.00000000 0.00000000 -63.53679993 -60.80177486 0.00000000 0.00000000 0.00000000 0.00000000 
252194922 0.00000000 0.00000000 -70.27136054 -19.86687726 0.00000000 0.00000000 0.00000000 0.00000000 
254112442 0.00000000 0.00000000 -76.47601389 -52.98842084 0.00000000 0.00000000 0.00000000 0.00000000 
256029960 0.00000000 0.00000000 -74.32420954 -167.08837984 0.00000000 0.00000000 0.00000000 0.00000000 
257947478 0.00000000 0.00000000 -70.72203099 -139.73270328 0.00000000 0.00000000 0.00000000 0.00000000 
259864996 0.00000000 0.00000000 -70.14066531 -144.32720308 0.00000000 0.00000000 0.00000000 0.00000000 
261782516 0.00000000 0.00000000 -65.33790225 -166.31389094 0.00000000 0.00000000 0.00000000 0.00000000 
263700034 0.00000000 0.00000000 -65.38979609 -150.99180925 0.00000000 0.00000000 0.00000000 0.00000000 
265617552 0.00000000 0.00000000 -63.50765233 0.05268497 0.00000000 0.00000000 0.00000000 0.00000000 
267535070 0.00000000 0.00000000 -66.61183681 162.77356580 0.00000000 0.00000000 0.00000000 0.00000000 
269452590 0.00000000 0.00000000 -65.01619562 164.72666089 0.00000000 0.00000000 0.00000000 0.00000000 
271370108 0.00000000 0.00000000 -70.01652522 -136.37199661 0.00000000 0.00000000 0.00000000 0.00000000 
273287626 0.00000000 0.00000000 -74.62572573 -172.89900678 0.00000000 0.00000000 0.00000000 0.00000000 
275205144 0.00000000 0.00000000 -70.27533830 146.12893308 0.00000000 0.00000000 0.00000000 0.00000000 
277122664 0.00000000 0.00000000 -71.49790481 -90.73743423 0.00000000 0.00000000 0.00000000 0.00000000 
279040182 0.00000000 0.00000000 -70.97594500 38.24432987 0.00000000 0.00000000 0.00000000 0.00000000 
280957700 0.00000000 0.00000000 -63.92080790 150.83620930 0.00000000 0.00000000 0.00000000 0.00000000 
282875218 0.00000000 0.00000000 -72.52805898 140.29878823 0.00000000 0.00000000 0.00000000 0.00000000 
284792738 0.00000000 0.00000000 -66.24736656 146.28478659 0.00000000 0.00000000 0.00000000 0.00000000 
286710256 0.00000000 0.00000000 -75.47952818 -155.77266070 0.00000000 0.00000000 0.00000000 0.00000000 
288627774 0.00000000 0.00000000 -70.83636919 151.35025328 0.00000000 0.00000000 0.00000000 0.00000000 
290545292 0.00000000 0.00000000 -72.43450350 -23.31122537 0.00000000 0.00000000 0.00000000 0.00000000 
292462812 0.00000000 0.00000000 -67.93634098 66.11793577 0.00000000 0.00000000 0.00000000 0.00000000 
294380330 0.00000000 0.00000000 -69.16933667 164.70496963 0.00000000 0.00000000 0.00000000 0.00000000 
296297848 0.00000000 0.00000000 -69.09187199 -24.89315578 0.00000000 0.00000000 0.00000000 0.00000000 
298215366 0.00000000 0.00000000 -71.00689044 117.19712237 0.00000000 0.00000000 0.00000000 0.00000000 
300132886 0.00000000 0.00000000 -69.72633229 91.06250931 0.00000000 0.00000000 0.00000000 0.00000000 
302050404 0.00000000 0.00000000 -76.46943936 49.92577637 0.00000000 0.00000000 0.00000000 0.00000000 
303967922 0.00000000 0.00000000 -74.26495466 -18.95145985 0.00000000 0.00000000 0.00000000 0.00000000 
305885440 0.00000000 0.00000000 -77.33811283 -12.79104343 0.00000000 0.00000000 0.00000000 0.00000000 
307802960 0.00000000 0.00000000 -65.81464650 -33.66956006 0.00000000 0.00000000 0.00000000 0.00000000 
309720478 0.00000000 0.00000000 -70.22444244 -13.46051040 0.00000000 0.00000000 0.00000000 0.00000000 
311637996 0.00000000 0.00000000 -72.44431314 -47.76691754 0.00000000 0.00000000 0.00000000 0.00000000 
313555514 0.00000000 0.00000000 -70.27377524 -46.46433324 0.00000000 0.00000000 0.00000000 0.00000000 
315473034 0.00000000 0.00000000 -67.04190785 -90.90009809 0.00000000 0.00000000 0.00000000 0.00000000 
317390552 0.00000000 0.00000000 -63.48558674 -75.73870716 0.00000000 0.00000000 0.00000000 0.00000000 
319308070 0.00000000 0.00000000 -66.05544316 -89.15509134 0.00000000 0.00000000 0.00000000 0.00000000 
321225588 0.00000000 0.00000000 -67.18247899 -34.98250883 0.00000000 0.00000000 0.00000000 0.00000000 
323143108 0.00000000 0.00000000 -65.40986623 -91.00479873 0.00000000 0.00000000 0.00000000 0.00000000 
325060626 0.00000000 0.00000000 -69.64278664 -125.37105224 0.00000000 0.00000000 0.00000000 0.00000000 
326978144 0.00000000 0.00000000 -69.51553306 -95.57476201 0.00000000 0.00000000 0.00000000 0.00000000 
328895662 0.00000000 0.00000000 -68.25408144 -68.74910523 0.00000000 0.00000000 0.00000000 0.00000000 
330813182 0.00000000 0.00000000 -69.98238699 -117.63918306 0.00000000 0.00000000 0.00000000 0.00000000 
332730700 0.00000000 0.00000000 -67.64048724 -110.47509595 0.00000000 0.00000000 0.00000000 0.00000000 
334648218 0.00000000 0.00000000 -70.09979026 -110.85591441 0.00000000 0.00000000 0.00000000 0.00000000 
336565736 0.00000000 0.00000000 -73.83224994 23.21905466 0.00000000 0.00000000 0.00000000 0.00000000 
338483256 0.00000000 0.00000000 -75.60797015 142.30360508 0.00000000 0.00000000 0.00000000 0.00000000 
340400774 0.00000000 0.00000000 -71.62020969 -165.80820926 0.00000000 0.00000000 0.00000000 0.00000000 
342318292 0.00000000 0.00000000 -66.90088915 -146.79399128 0.00000000 0.00000000 0.00000000 0.00000000 
344235810 0.00000000 0.00000000 -66.17407156 -67.98625085 0.00000000 0.00000000 0.00000000 0.00000000 
346153330 0.00000000 0.00000000 -65.36786017 -86.32633647 0.00000000 0.00000000 0.00000000 0.00000000 
348070848 0.00000000 0.00000000 -69.40976234 -38.39573481 0.00000000 0.00000000 0.00000000 0.00000000 
349988366 0.00000000 0.00000000 -76.25942169 -159.18334419 0.00000000 0.00000000 0.00000000 0.00000000 
351905884 0.00000000 0.00000000 -69.88681395 2.84731650 0.00000000 0.00000000 0.00000000 0.00000000 
353823404 0.00000000 0.00000000 -62.06681489 -169.64005179 0.00000000 0.00000000 0.00000000 0.00000000 
355740922 0.00000000 0.00000000 -67.12951876 -159.36749954 0.00000000 0.00000000 0.00000000 0.00000000 
357658440 0.00000000 0.00000000 -68.25595395 179.27975077 0.00000000 0.00000000 0.00000000 0.00000000 
359575958 0.00000000 0.00000000 -62.67775148 -146.02240456 0.00000000 0.00000000 0.00000000 0.00000000 
361493478 0.00000000 0.00000000 -62.99463261 -149.43503140 0.00000000 0.00000000 0.00000000 0.00000000 
363410996 0.00000000 0.00000000 -69.61659029 -139.18303446 0.00000000 0.00000000 0.00000000 0.00000000 
365328514 0.00000000 0.00000000 -71.32672812 -123.35419082 0.00000000 0.00000000 0.00000000 0.00000000 
367246032 0.00000000 0.00000000 -64.49676048 -167.77067346 0.00000000 0.00000000 0.00000000 0.00000000 
369163552 0.00000000 0.00000000 -69.69403956 -170.05761541 0.00000000 0.00000000 0.00000000 0.00000000 
