! created by ADMIN at Tue Apr 21 15:17:59 IST 2026
! generated using vna/J Version 3.2.10
# Hz S DB R 50
001000000 0.00000000 0.00000000 -61.80651150 37.26179743 0.00000000 0.00000000 0.00000000 0.00000000 
002917518 0.00000000 0.00000000 -64.86932869 56.78821874 0.00000000 0.00000000 0.00000000 0.00000000 
004835036 0.00000000 0.00000000 -65.31544690 67.41348406 0.00000000 0.00000000 0.00000000 0.00000000 
006752554 0.00000000 0.00000000 -64.73070799 49.10409312 0.00000000 0.00000000 0.00000000 0.00000000 
008670074 0.00000000 0.00000000 -67.13747035 89.88526121 0.00000000 0.00000000 0.00000000 0.00000000 
010587592 0.00000000 0.00000000 -65.30731051 67.89565264 0.00000000 0.00000000 0.00000000 0.00000000 
012505110 0.00000000 0.00000000 -65.38634766 52.04806879 0.00000000 0.00000000 0.00000000 0.00000000 
014422628 0.00000000 0.00000000 -64.77474666 38.62175189 0.00000000 0.00000000 0.00000000 0.00000000 
016340148 0.00000000 0.00000000 -62.75566116 26.60887750 0.00000000 0.00000000 0.00000000 0.00000000 
018257666 0.00000000 0.00000000 -61.04326000 26.32651477 0.00000000 0.00000000 0.00000000 0.00000000 
020175184 0.00000000 0.00000000 -60.24626183 26.28762326 0.00000000 0.00000000 0.00000000 0.00000000 
022092702 0.00000000 0.00000000 -59.17916597 24.83205013 0.00000000 0.00000000 0.00000000 0.00000000 
024010222 0.00000000 0.00000000 -61.09790468 24.75232212 0.00000000 0.00000000 0.00000000 0.00000000 
025927740 0.00000000 0.00000000 -57.80697894 20.98436905 0.00000000 0.00000000 0.00000000 0.00000000 
027845258 0.00000000 0.00000000 -59.09191822 31.48328236 0.00000000 0.00000000 0.00000000 0.00000000 
029762776 0.00000000 0.00000000 -59.16944487 34.97115354 0.00000000 0.00000000 0.00000000 0.00000000 
031680296 0.00000000 0.00000000 -56.23538360 38.03135048 0.00000000 0.00000000 0.00000000 0.00000000 
033597814 0.00000000 0.00000000 -57.39769499 24.01588226 0.00000000 0.00000000 0.00000000 0.00000000 
035515332 0.00000000 0.00000000 -55.88414336 21.16426439 0.00000000 0.00000000 0.00000000 0.00000000 
037432850 0.00000000 0.00000000 -55.53755800 14.45365867 0.00000000 0.00000000 0.00000000 0.00000000 
039350370 0.00000000 0.00000000 -53.12205121 17.14874416 0.00000000 0.00000000 0.00000000 0.00000000 
041267888 0.00000000 0.00000000 -54.75507652 6.58341897 0.00000000 0.00000000 0.00000000 0.00000000 
043185406 0.00000000 0.00000000 -55.58705375 -10.34534937 0.00000000 0.00000000 0.00000000 0.00000000 
045102924 0.00000000 0.00000000 -54.75718997 -15.73191042 0.00000000 0.00000000 0.00000000 0.00000000 
047020444 0.00000000 0.00000000 -52.45568068 -28.80612934 0.00000000 0.00000000 0.00000000 0.00000000 
048937962 0.00000000 0.00000000 -54.95634900 -21.98099883 0.00000000 0.00000000 0.00000000 0.00000000 
050855480 0.00000000 0.00000000 -56.61885245 -11.80930085 0.00000000 0.00000000 0.00000000 0.00000000 
052772998 0.00000000 0.00000000 -58.44623054 -5.03680293 0.00000000 0.00000000 0.00000000 0.00000000 
054690518 0.00000000 0.00000000 -61.31660198 12.13003396 0.00000000 0.00000000 0.00000000 0.00000000 
056608036 0.00000000 0.00000000 -61.79685908 29.29322992 0.00000000 0.00000000 0.00000000 0.00000000 
058525554 0.00000000 0.00000000 -62.18881689 11.98685400 0.00000000 0.00000000 0.00000000 0.00000000 
060443072 0.00000000 0.00000000 -59.33275454 6.92807153 0.00000000 0.00000000 0.00000000 0.00000000 
062360592 0.00000000 0.00000000 -59.75982277 7.86641157 0.00000000 0.00000000 0.00000000 0.00000000 
064278110 0.00000000 0.00000000 -59.98046650 20.16669217 0.00000000 0.00000000 0.00000000 0.00000000 
066195628 0.00000000 0.00000000 -62.12370980 5.46512900 0.00000000 0.00000000 0.00000000 0.00000000 
068113146 0.00000000 0.00000000 -60.56059271 18.69231824 0.00000000 0.00000000 0.00000000 0.00000000 
070030666 0.00000000 0.00000000 -59.65619949 32.60518830 0.00000000 0.00000000 0.00000000 0.00000000 
071948184 0.00000000 0.00000000 -59.29872445 28.58168099 0.00000000 0.00000000 0.00000000 0.00000000 
073865702 0.00000000 0.00000000 -58.64222691 43.24782091 0.00000000 0.00000000 0.00000000 0.00000000 
075783220 0.00000000 0.00000000 -57.27213301 55.48739320 0.00000000 0.00000000 0.00000000 0.00000000 
077700740 0.00000000 0.00000000 -55.82724637 64.85660760 0.00000000 0.00000000 0.00000000 0.00000000 
079618258 0.00000000 0.00000000 -56.61648992 54.88828228 0.00000000 0.00000000 0.00000000 0.00000000 
081535776 0.00000000 0.00000000 -54.93438500 54.60147566 0.00000000 0.00000000 0.00000000 0.00000000 
083453294 0.00000000 0.00000000 -54.63286279 47.61366483 0.00000000 0.00000000 0.00000000 0.00000000 
085370814 0.00000000 0.00000000 -54.26620465 51.81616113 0.00000000 0.00000000 0.00000000 0.00000000 
087288332 0.00000000 0.00000000 -55.50840655 41.29751345 0.00000000 0.00000000 0.00000000 0.00000000 
089205850 0.00000000 0.00000000 -54.07566022 43.51640404 0.00000000 0.00000000 0.00000000 0.00000000 
091123368 0.00000000 0.00000000 -53.74042791 37.15752862 0.00000000 0.00000000 0.00000000 0.00000000 
093040888 0.00000000 0.00000000 -53.61152843 35.56334339 0.00000000 0.00000000 0.00000000 0.00000000 
094958406 0.00000000 0.00000000 -54.43604823 34.08239364 0.00000000 0.00000000 0.00000000 0.00000000 
096875924 0.00000000 0.00000000 -54.64381500 30.46425684 0.00000000 0.00000000 0.00000000 0.00000000 
098793442 0.00000000 0.00000000 -54.72797623 24.85669233 0.00000000 0.00000000 0.00000000 0.00000000 
100710962 0.00000000 0.00000000 -54.69572519 18.71362643 0.00000000 0.00000000 0.00000000 0.00000000 
102628480 0.00000000 0.00000000 -54.70107591 33.10011709 0.00000000 0.00000000 0.00000000 0.00000000 
104545998 0.00000000 0.00000000 -56.78800056 45.07555971 0.00000000 0.00000000 0.00000000 0.00000000 
106463516 0.00000000 0.00000000 -57.93206687 58.24778572 0.00000000 0.00000000 0.00000000 0.00000000 
108381036 0.00000000 0.00000000 -56.47253284 57.74107970 0.00000000 0.00000000 0.00000000 0.00000000 
110298554 0.00000000 0.00000000 -56.24145284 63.03648536 0.00000000 0.00000000 0.00000000 0.00000000 
112216072 0.00000000 0.00000000 -53.13303844 69.46904049 0.00000000 0.00000000 0.00000000 0.00000000 
114133590 0.00000000 0.00000000 -52.41022332 75.05404645 0.00000000 0.00000000 0.00000000 0.00000000 
116051110 0.00000000 0.00000000 -50.31202600 73.16499001 0.00000000 0.00000000 0.00000000 0.00000000 
117968628 0.00000000 0.00000000 -50.43408653 69.16033515 0.00000000 0.00000000 0.00000000 0.00000000 
119886146 0.00000000 0.00000000 -50.12485401 62.48078832 0.00000000 0.00000000 0.00000000 0.00000000 
121803664 0.00000000 0.00000000 -49.40837183 59.00454910 0.00000000 0.00000000 0.00000000 0.00000000 
123721184 0.00000000 0.00000000 -48.06976942 63.72852020 0.00000000 0.00000000 0.00000000 0.00000000 
125638702 0.00000000 0.00000000 -49.18916114 56.72384220 0.00000000 0.00000000 0.00000000 0.00000000 
127556220 0.00000000 0.00000000 -48.90000809 50.16906979 0.00000000 0.00000000 0.00000000 0.00000000 
129473738 0.00000000 0.00000000 -48.83158682 47.22015296 0.00000000 0.00000000 0.00000000 0.00000000 
131391258 0.00000000 0.00000000 -48.21274801 45.53576413 0.00000000 0.00000000 0.00000000 0.00000000 
133308776 0.00000000 0.00000000 -48.48923412 46.96539707 0.00000000 0.00000000 0.00000000 0.00000000 
135226294 0.00000000 0.00000000 -46.77248533 48.02828430 0.00000000 0.00000000 0.00000000 0.00000000 
137143812 0.00000000 0.00000000 -45.99468617 45.55400286 0.00000000 0.00000000 0.00000000 0.00000000 
139061332 0.00000000 0.00000000 -45.34313486 48.60197916 0.00000000 0.00000000 0.00000000 0.00000000 
140978850 0.00000000 0.00000000 -44.39948183 46.04899266 0.00000000 0.00000000 0.00000000 0.00000000 
142896368 0.00000000 0.00000000 -43.19633404 45.55116108 0.00000000 0.00000000 0.00000000 0.00000000 
144813886 0.00000000 0.00000000 -42.59819170 44.88908473 0.00000000 0.00000000 0.00000000 0.00000000 
146731406 0.00000000 0.00000000 -41.59560801 47.85326893 0.00000000 0.00000000 0.00000000 0.00000000 
148648924 0.00000000 0.00000000 -40.28427500 39.36285714 0.00000000 0.00000000 0.00000000 0.00000000 
150566442 0.00000000 0.00000000 -38.82540171 34.38186228 0.00000000 0.00000000 0.00000000 0.00000000 
152483960 0.00000000 0.00000000 -37.18464398 32.93317363 0.00000000 0.00000000 0.00000000 0.00000000 
154401480 0.00000000 0.00000000 -35.88850454 34.97109283 0.00000000 0.00000000 0.00000000 0.00000000 
156318998 0.00000000 0.00000000 -37.16792138 6.02066050 0.00000000 0.00000000 0.00000000 0.00000000 
158236516 0.00000000 0.00000000 -34.85142896 -18.55257772 0.00000000 0.00000000 0.00000000 0.00000000 
160154034 0.00000000 0.00000000 -31.95930242 -27.18280787 0.00000000 0.00000000 0.00000000 0.00000000 
162071554 0.00000000 0.00000000 -29.46169337 -28.20471202 0.00000000 0.00000000 0.00000000 0.00000000 
163989072 0.00000000 0.00000000 -32.05587090 -30.23498679 0.00000000 0.00000000 0.00000000 0.00000000 
165906590 0.00000000 0.00000000 -34.94910218 -39.02947265 0.00000000 0.00000000 0.00000000 0.00000000 
167824108 0.00000000 0.00000000 -36.83367719 -65.95705251 0.00000000 0.00000000 0.00000000 0.00000000 
169741628 0.00000000 0.00000000 -35.55442654 -92.08540497 0.00000000 0.00000000 0.00000000 0.00000000 
171659146 0.00000000 0.00000000 -37.26763273 -92.97324268 0.00000000 0.00000000 0.00000000 0.00000000 
173576664 0.00000000 0.00000000 -38.94728934 -97.12900742 0.00000000 0.00000000 0.00000000 0.00000000 
175494182 0.00000000 0.00000000 -40.39678836 -106.44856565 0.00000000 0.00000000 0.00000000 0.00000000 
177411702 0.00000000 0.00000000 -40.77659291 -120.08081127 0.00000000 0.00000000 0.00000000 0.00000000 
179329220 0.00000000 0.00000000 -42.29148202 -120.53961445 0.00000000 0.00000000 0.00000000 0.00000000 
181246738 0.00000000 0.00000000 -43.41508589 -124.12514397 0.00000000 0.00000000 0.00000000 0.00000000 
183164256 0.00000000 0.00000000 -44.13989243 -135.96767011 0.00000000 0.00000000 0.00000000 0.00000000 
185081776 0.00000000 0.00000000 -44.21077114 -141.07987728 0.00000000 0.00000000 0.00000000 0.00000000 
186999294 0.00000000 0.00000000 -45.85356265 -140.04603675 0.00000000 0.00000000 0.00000000 0.00000000 
188916812 0.00000000 0.00000000 -46.85178964 -146.82482404 0.00000000 0.00000000 0.00000000 0.00000000 
190834330 0.00000000 0.00000000 -47.51531767 -151.76247096 0.00000000 0.00000000 0.00000000 0.00000000 
192751850 0.00000000 0.00000000 -47.62997740 -162.82314880 0.00000000 0.00000000 0.00000000 0.00000000 
194669368 0.00000000 0.00000000 -49.39169981 -161.10913414 0.00000000 0.00000000 0.00000000 0.00000000 
196586886 0.00000000 0.00000000 -50.54460158 -162.93105743 0.00000000 0.00000000 0.00000000 0.00000000 
198504404 0.00000000 0.00000000 -51.68765992 -168.74211033 0.00000000 0.00000000 0.00000000 0.00000000 
200421924 0.00000000 0.00000000 -52.63681244 178.06886321 0.00000000 0.00000000 0.00000000 0.00000000 
202339442 0.00000000 0.00000000 -52.29594250 2.49883528 0.00000000 0.00000000 0.00000000 0.00000000 
204256960 0.00000000 0.00000000 -52.19408992 -174.07980391 0.00000000 0.00000000 0.00000000 0.00000000 
206174478 0.00000000 0.00000000 -53.04515352 178.22644233 0.00000000 0.00000000 0.00000000 0.00000000 
208091998 0.00000000 0.00000000 -52.18753702 0.81533633 0.00000000 0.00000000 0.00000000 0.00000000 
210009516 0.00000000 0.00000000 -54.20564919 170.60848092 0.00000000 0.00000000 0.00000000 0.00000000 
211927034 0.00000000 0.00000000 -53.39419631 162.62577397 0.00000000 0.00000000 0.00000000 0.00000000 
213844552 0.00000000 0.00000000 -53.31160484 149.39412449 0.00000000 0.00000000 0.00000000 0.00000000 
215762072 0.00000000 0.00000000 -53.34871937 145.41519599 0.00000000 0.00000000 0.00000000 0.00000000 
217679590 0.00000000 0.00000000 -53.11981814 141.45664616 0.00000000 0.00000000 0.00000000 0.00000000 
219597108 0.00000000 0.00000000 -53.36678902 131.89966207 0.00000000 0.00000000 0.00000000 0.00000000 
221514626 0.00000000 0.00000000 -54.69477143 123.13770896 0.00000000 0.00000000 0.00000000 0.00000000 
223432146 0.00000000 0.00000000 -53.40307452 117.90429943 0.00000000 0.00000000 0.00000000 0.00000000 
225349664 0.00000000 0.00000000 -52.86647610 121.14907273 0.00000000 0.00000000 0.00000000 0.00000000 
227267182 0.00000000 0.00000000 -52.83923058 115.04558428 0.00000000 0.00000000 0.00000000 0.00000000 
229184700 0.00000000 0.00000000 -53.08056120 113.92325792 0.00000000 0.00000000 0.00000000 0.00000000 
231102220 0.00000000 0.00000000 -52.09978143 105.69594553 0.00000000 0.00000000 0.00000000 0.00000000 
233019738 0.00000000 0.00000000 -53.59909920 99.49047979 0.00000000 0.00000000 0.00000000 0.00000000 
234937256 0.00000000 0.00000000 -52.80328500 86.37189264 0.00000000 0.00000000 0.00000000 0.00000000 
236854774 0.00000000 0.00000000 -51.65824248 87.28118452 0.00000000 0.00000000 0.00000000 0.00000000 
238772294 0.00000000 0.00000000 -51.24561103 76.56939897 0.00000000 0.00000000 0.00000000 0.00000000 
240689812 0.00000000 0.00000000 -50.76840907 82.85914999 0.00000000 0.00000000 0.00000000 0.00000000 
242607330 0.00000000 0.00000000 -50.62306775 83.18754979 0.00000000 0.00000000 0.00000000 0.00000000 
244524848 0.00000000 0.00000000 -50.25268848 90.60137327 0.00000000 0.00000000 0.00000000 0.00000000 
246442368 0.00000000 0.00000000 -49.55689827 95.09483223 0.00000000 0.00000000 0.00000000 0.00000000 
248359886 0.00000000 0.00000000 -49.80371424 86.02679224 0.00000000 0.00000000 0.00000000 0.00000000 
250277404 0.00000000 0.00000000 -50.45099874 84.18816634 0.00000000 0.00000000 0.00000000 0.00000000 
252194922 0.00000000 0.00000000 -48.81436550 82.93803386 0.00000000 0.00000000 0.00000000 0.00000000 
254112442 0.00000000 0.00000000 -48.30427724 84.31269138 0.00000000 0.00000000 0.00000000 0.00000000 
256029960 0.00000000 0.00000000 -48.04620786 82.75123804 0.00000000 0.00000000 0.00000000 0.00000000 
257947478 0.00000000 0.00000000 -47.79407916 78.13902124 0.00000000 0.00000000 0.00000000 0.00000000 
259864996 0.00000000 0.00000000 -46.91205588 75.70948727 0.00000000 0.00000000 0.00000000 0.00000000 
261782516 0.00000000 0.00000000 -45.91414128 78.09529760 0.00000000 0.00000000 0.00000000 0.00000000 
263700034 0.00000000 0.00000000 -46.34281815 70.16957765 0.00000000 0.00000000 0.00000000 0.00000000 
265617552 0.00000000 0.00000000 -45.72872198 66.72057586 0.00000000 0.00000000 0.00000000 0.00000000 
267535070 0.00000000 0.00000000 -44.61233626 60.63446349 0.00000000 0.00000000 0.00000000 0.00000000 
269452590 0.00000000 0.00000000 -43.66125860 59.20154755 0.00000000 0.00000000 0.00000000 0.00000000 
271370108 0.00000000 0.00000000 -44.44538485 50.75605337 0.00000000 0.00000000 0.00000000 0.00000000 
273287626 0.00000000 0.00000000 -44.35408709 46.37131950 0.00000000 0.00000000 0.00000000 0.00000000 
275205144 0.00000000 0.00000000 -43.93318189 43.16174949 0.00000000 0.00000000 0.00000000 0.00000000 
277122664 0.00000000 0.00000000 -43.32198224 35.55094413 0.00000000 0.00000000 0.00000000 0.00000000 
279040182 0.00000000 0.00000000 -43.62797491 32.90378046 0.00000000 0.00000000 0.00000000 0.00000000 
280957700 0.00000000 0.00000000 -44.90933262 31.11555789 0.00000000 0.00000000 0.00000000 0.00000000 
282875218 0.00000000 0.00000000 -44.33182520 20.75790125 0.00000000 0.00000000 0.00000000 0.00000000 
284792738 0.00000000 0.00000000 -43.80115695 16.69095980 0.00000000 0.00000000 0.00000000 0.00000000 
286710256 0.00000000 0.00000000 -44.49618586 10.45959423 0.00000000 0.00000000 0.00000000 0.00000000 
288627774 0.00000000 0.00000000 -45.18210531 7.66920246 0.00000000 0.00000000 0.00000000 0.00000000 
290545292 0.00000000 0.00000000 -44.54785308 -0.81465186 0.00000000 0.00000000 0.00000000 0.00000000 
292462812 0.00000000 0.00000000 -44.22348062 -1.79058967 0.00000000 0.00000000 0.00000000 0.00000000 
294380330 0.00000000 0.00000000 -46.11226914 -7.13728686 0.00000000 0.00000000 0.00000000 0.00000000 
296297848 0.00000000 0.00000000 -45.78839906 -13.48710166 0.00000000 0.00000000 0.00000000 0.00000000 
298215366 0.00000000 0.00000000 -47.14504413 -17.53050940 0.00000000 0.00000000 0.00000000 0.00000000 
300132886 0.00000000 0.00000000 -46.76281327 -23.97024739 0.00000000 0.00000000 0.00000000 0.00000000 
302050404 0.00000000 0.00000000 -48.54154345 -27.73345593 0.00000000 0.00000000 0.00000000 0.00000000 
303967922 0.00000000 0.00000000 -50.25944442 -37.98764749 0.00000000 0.00000000 0.00000000 0.00000000 
305885440 0.00000000 0.00000000 -51.76835569 -55.46248571 0.00000000 0.00000000 0.00000000 0.00000000 
307802960 0.00000000 0.00000000 -50.25203774 -71.23491185 0.00000000 0.00000000 0.00000000 0.00000000 
309720478 0.00000000 0.00000000 -54.35429390 -67.10511073 0.00000000 0.00000000 0.00000000 0.00000000 
311637996 0.00000000 0.00000000 -59.44989368 -75.81197295 0.00000000 0.00000000 0.00000000 0.00000000 
313555514 0.00000000 0.00000000 -66.91208815 -122.43003730 0.00000000 0.00000000 0.00000000 0.00000000 
315473034 0.00000000 0.00000000 -58.49100638 -175.54243978 0.00000000 0.00000000 0.00000000 0.00000000 
317390552 0.00000000 0.00000000 -62.80024205 179.17572745 0.00000000 0.00000000 0.00000000 0.00000000 
319308070 0.00000000 0.00000000 -60.96036277 143.06940608 0.00000000 0.00000000 0.00000000 0.00000000 
321225588 0.00000000 0.00000000 -57.98953422 105.33066843 0.00000000 0.00000000 0.00000000 0.00000000 
323143108 0.00000000 0.00000000 -55.98526153 120.57964608 0.00000000 0.00000000 0.00000000 0.00000000 
325060626 0.00000000 0.00000000 -54.26585228 113.10979858 0.00000000 0.00000000 0.00000000 0.00000000 
326978144 0.00000000 0.00000000 -53.91581947 102.76194646 0.00000000 0.00000000 0.00000000 0.00000000 
328895662 0.00000000 0.00000000 -52.84786862 95.51382165 0.00000000 0.00000000 0.00000000 0.00000000 
330813182 0.00000000 0.00000000 -51.09732345 101.82462932 0.00000000 0.00000000 0.00000000 0.00000000 
332730700 0.00000000 0.00000000 -50.69288218 105.24830013 0.00000000 0.00000000 0.00000000 0.00000000 
334648218 0.00000000 0.00000000 -49.69599852 108.00837971 0.00000000 0.00000000 0.00000000 0.00000000 
336565736 0.00000000 0.00000000 -48.34644287 106.24535724 0.00000000 0.00000000 0.00000000 0.00000000 
338483256 0.00000000 0.00000000 -47.43515022 115.26004023 0.00000000 0.00000000 0.00000000 0.00000000 
340400774 0.00000000 0.00000000 -47.02165684 108.90699191 0.00000000 0.00000000 0.00000000 0.00000000 
342318292 0.00000000 0.00000000 -46.10615458 104.95158734 0.00000000 0.00000000 0.00000000 0.00000000 
344235810 0.00000000 0.00000000 -45.13612666 96.99845091 0.00000000 0.00000000 0.00000000 0.00000000 
346153330 0.00000000 0.00000000 -43.72248722 99.41044582 0.00000000 0.00000000 0.00000000 0.00000000 
348070848 0.00000000 0.00000000 -43.58075681 92.78563228 0.00000000 0.00000000 0.00000000 0.00000000 
349988366 0.00000000 0.00000000 -43.21363398 91.73815232 0.00000000 0.00000000 0.00000000 0.00000000 
351905884 0.00000000 0.00000000 -42.67969177 89.40560515 0.00000000 0.00000000 0.00000000 0.00000000 
353823404 0.00000000 0.00000000 -42.06906022 90.33042082 0.00000000 0.00000000 0.00000000 0.00000000 
355740922 0.00000000 0.00000000 -42.09779599 81.88741209 0.00000000 0.00000000 0.00000000 0.00000000 
357658440 0.00000000 0.00000000 -41.47910060 76.75530262 0.00000000 0.00000000 0.00000000 0.00000000 
359575958 0.00000000 0.00000000 -41.13463436 73.93839411 0.00000000 0.00000000 0.00000000 0.00000000 
361493478 0.00000000 0.00000000 -40.07712276 72.55383955 0.00000000 0.00000000 0.00000000 0.00000000 
363410996 0.00000000 0.00000000 -40.10659230 67.22074363 0.00000000 0.00000000 0.00000000 0.00000000 
365328514 0.00000000 0.00000000 -39.96745200 62.92417999 0.00000000 0.00000000 0.00000000 0.00000000 
367246032 0.00000000 0.00000000 -39.61396798 62.45268120 0.00000000 0.00000000 0.00000000 0.00000000 
369163552 0.00000000 0.00000000 -38.78287895 60.13031415 0.00000000 0.00000000 0.00000000 0.00000000 
371081070 0.00000000 0.00000000 -39.43673378 54.89085733 0.00000000 0.00000000 0.00000000 0.00000000 
