! created by ADMIN at Tue Apr 21 15:33:44 IST 2026
! generated using vna/J Version 3.2.10
# Hz S DB R 50
001000000 0.00000000 0.00000000 -66.31574411 101.08110081 0.00000000 0.00000000 0.00000000 0.00000000 
002917518 0.00000000 0.00000000 -70.23044762 165.55964653 0.00000000 0.00000000 0.00000000 0.00000000 
004835036 0.00000000 0.00000000 -71.05454985 -144.39403706 0.00000000 0.00000000 0.00000000 0.00000000 
006752554 0.00000000 0.00000000 -66.77011749 -68.49074376 0.00000000 0.00000000 0.00000000 0.00000000 
008670074 0.00000000 0.00000000 -65.03146064 -85.02158963 0.00000000 0.00000000 0.00000000 0.00000000 
010587592 0.00000000 0.00000000 -70.01507130 -44.27832897 0.00000000 0.00000000 0.00000000 0.00000000 
012505110 0.00000000 0.00000000 -72.14294492 -14.42443515 0.00000000 0.00000000 0.00000000 0.00000000 
014422628 0.00000000 0.00000000 -74.65412027 17.97562102 0.00000000 0.00000000 0.00000000 0.00000000 
016340148 0.00000000 0.00000000 -74.04583433 44.15557392 0.00000000 0.00000000 0.00000000 0.00000000 
018257666 0.00000000 0.00000000 -72.23337485 43.21174389 0.00000000 0.00000000 0.00000000 0.00000000 
020175184 0.00000000 0.00000000 -74.20649006 41.37019964 0.00000000 0.00000000 0.00000000 0.00000000 
022092702 0.00000000 0.00000000 -74.98047452 14.06658206 0.00000000 0.00000000 0.00000000 0.00000000 
024010222 0.00000000 0.00000000 -73.01339658 -118.46009501 0.00000000 0.00000000 0.00000000 0.00000000 
025927740 0.00000000 0.00000000 -69.32944987 -30.22111367 0.00000000 0.00000000 0.00000000 0.00000000 
027845258 0.00000000 0.00000000 -77.86135963 -73.57597742 0.00000000 0.00000000 0.00000000 0.00000000 
029762776 0.00000000 0.00000000 -76.04991368 -95.43332680 0.00000000 0.00000000 0.00000000 0.00000000 
031680296 0.00000000 0.00000000 -70.03985741 8.57319521 0.00000000 0.00000000 0.00000000 0.00000000 
033597814 0.00000000 0.00000000 -75.83970397 -9.95068416 0.00000000 0.00000000 0.00000000 0.00000000 
035515332 0.00000000 0.00000000 -70.87901219 59.25207712 0.00000000 0.00000000 0.00000000 0.00000000 
037432850 0.00000000 0.00000000 -71.98590764 116.75347107 0.00000000 0.00000000 0.00000000 0.00000000 
039350370 0.00000000 0.00000000 -66.50982348 97.71156260 0.00000000 0.00000000 0.00000000 0.00000000 
041267888 0.00000000 0.00000000 -70.81705005 113.32233667 0.00000000 0.00000000 0.00000000 0.00000000 
043185406 0.00000000 0.00000000 -74.61465438 161.37773788 0.00000000 0.00000000 0.00000000 0.00000000 
045102924 0.00000000 0.00000000 -73.91604274 105.27475483 0.00000000 0.00000000 0.00000000 0.00000000 
047020444 0.00000000 0.00000000 -74.91491672 -45.05550194 0.00000000 0.00000000 0.00000000 0.00000000 
048937962 0.00000000 0.00000000 -75.53196433 -160.63548348 0.00000000 0.00000000 0.00000000 0.00000000 
050855480 0.00000000 0.00000000 -76.20235151 -165.80724965 0.00000000 0.00000000 0.00000000 0.00000000 
052772998 0.00000000 0.00000000 -75.28627942 -137.74649154 0.00000000 0.00000000 0.00000000 0.00000000 
054690518 0.00000000 0.00000000 -76.02369580 -172.85439345 0.00000000 0.00000000 0.00000000 0.00000000 
056608036 0.00000000 0.00000000 -71.07634176 131.43479675 0.00000000 0.00000000 0.00000000 0.00000000 
058525554 0.00000000 0.00000000 -80.00000000 177.58086423 0.00000000 0.00000000 0.00000000 0.00000000 
060443072 0.00000000 0.00000000 -70.66389310 1.85970600 0.00000000 0.00000000 0.00000000 0.00000000 
062360592 0.00000000 0.00000000 -71.47191174 16.33201083 0.00000000 0.00000000 0.00000000 0.00000000 
064278110 0.00000000 0.00000000 -70.13818572 67.17106335 0.00000000 0.00000000 0.00000000 0.00000000 
066195628 0.00000000 0.00000000 -77.96899423 178.87816546 0.00000000 0.00000000 0.00000000 0.00000000 
068113146 0.00000000 0.00000000 -73.63055040 119.24687736 0.00000000 0.00000000 0.00000000 0.00000000 
070030666 0.00000000 0.00000000 -67.56582666 118.78057264 0.00000000 0.00000000 0.00000000 0.00000000 
071948184 0.00000000 0.00000000 -75.46641012 150.77798397 0.00000000 0.00000000 0.00000000 0.00000000 
073865702 0.00000000 0.00000000 -72.33076186 150.86446965 0.00000000 0.00000000 0.00000000 0.00000000 
075783220 0.00000000 0.00000000 -71.04270771 134.96605043 0.00000000 0.00000000 0.00000000 0.00000000 
077700740 0.00000000 0.00000000 -69.55827553 116.13617187 0.00000000 0.00000000 0.00000000 0.00000000 
079618258 0.00000000 0.00000000 -80.00000000 136.37839961 0.00000000 0.00000000 0.00000000 0.00000000 
081535776 0.00000000 0.00000000 -71.40330939 76.29958588 0.00000000 0.00000000 0.00000000 0.00000000 
083453294 0.00000000 0.00000000 -73.82243180 22.64313725 0.00000000 0.00000000 0.00000000 0.00000000 
085370814 0.00000000 0.00000000 -79.39977868 58.09839775 0.00000000 0.00000000 0.00000000 0.00000000 
087288332 0.00000000 0.00000000 -77.17484558 -76.81765594 0.00000000 0.00000000 0.00000000 0.00000000 
089205850 0.00000000 0.00000000 -71.90109255 77.99149224 0.00000000 0.00000000 0.00000000 0.00000000 
091123368 0.00000000 0.00000000 -74.65898998 80.41451839 0.00000000 0.00000000 0.00000000 0.00000000 
093040888 0.00000000 0.00000000 -73.15190981 144.90178202 0.00000000 0.00000000 0.00000000 0.00000000 
094958406 0.00000000 0.00000000 -80.00000000 -131.00048675 0.00000000 0.00000000 0.00000000 0.00000000 
096875924 0.00000000 0.00000000 -71.42783623 -46.49515224 0.00000000 0.00000000 0.00000000 0.00000000 
098793442 0.00000000 0.00000000 -65.26624562 -36.54715244 0.00000000 0.00000000 0.00000000 0.00000000 
100710962 0.00000000 0.00000000 -62.00722073 -33.28045810 0.00000000 0.00000000 0.00000000 0.00000000 
102628480 0.00000000 0.00000000 -67.13629371 -5.84378900 0.00000000 0.00000000 0.00000000 0.00000000 
104545998 0.00000000 0.00000000 -76.72378461 -151.11797960 0.00000000 0.00000000 0.00000000 0.00000000 
106463516 0.00000000 0.00000000 -65.38154738 -169.35298132 0.00000000 0.00000000 0.00000000 0.00000000 
108381036 0.00000000 0.00000000 -67.22433366 -174.91033953 0.00000000 0.00000000 0.00000000 0.00000000 
110298554 0.00000000 0.00000000 -65.39722520 -161.53298440 0.00000000 0.00000000 0.00000000 0.00000000 
112216072 0.00000000 0.00000000 -67.22831099 142.81099753 0.00000000 0.00000000 0.00000000 0.00000000 
114133590 0.00000000 0.00000000 -66.97215220 145.61715670 0.00000000 0.00000000 0.00000000 0.00000000 
116051110 0.00000000 0.00000000 -64.46394853 80.73548083 0.00000000 0.00000000 0.00000000 0.00000000 
117968628 0.00000000 0.00000000 -66.72455369 83.09550190 0.00000000 0.00000000 0.00000000 0.00000000 
119886146 0.00000000 0.00000000 -69.48930753 52.44378401 0.00000000 0.00000000 0.00000000 0.00000000 
121803664 0.00000000 0.00000000 -69.06246195 23.63618477 0.00000000 0.00000000 0.00000000 0.00000000 
123721184 0.00000000 0.00000000 -66.53810413 62.83379623 0.00000000 0.00000000 0.00000000 0.00000000 
125638702 0.00000000 0.00000000 -71.77670888 21.62290648 0.00000000 0.00000000 0.00000000 0.00000000 
127556220 0.00000000 0.00000000 -67.53477118 19.76176841 0.00000000 0.00000000 0.00000000 0.00000000 
129473738 0.00000000 0.00000000 -72.05274620 23.94478853 0.00000000 0.00000000 0.00000000 0.00000000 
131391258 0.00000000 0.00000000 -75.51832038 45.32160835 0.00000000 0.00000000 0.00000000 0.00000000 
133308776 0.00000000 0.00000000 -72.95232015 -152.26759678 0.00000000 0.00000000 0.00000000 0.00000000 
135226294 0.00000000 0.00000000 -71.05518931 56.68211689 0.00000000 0.00000000 0.00000000 0.00000000 
137143812 0.00000000 0.00000000 -66.51431283 -2.77041174 0.00000000 0.00000000 0.00000000 0.00000000 
139061332 0.00000000 0.00000000 -66.56700748 -8.38143025 0.00000000 0.00000000 0.00000000 0.00000000 
140978850 0.00000000 0.00000000 -66.43742410 19.58042244 0.00000000 0.00000000 0.00000000 0.00000000 
142896368 0.00000000 0.00000000 -63.99740243 45.58505014 0.00000000 0.00000000 0.00000000 0.00000000 
144813886 0.00000000 0.00000000 -72.47416953 42.30003923 0.00000000 0.00000000 0.00000000 0.00000000 
146731406 0.00000000 0.00000000 -71.74165387 109.03133933 0.00000000 0.00000000 0.00000000 0.00000000 
148648924 0.00000000 0.00000000 -69.11488601 87.51617479 0.00000000 0.00000000 0.00000000 0.00000000 
150566442 0.00000000 0.00000000 -74.43222134 78.66325629 0.00000000 0.00000000 0.00000000 0.00000000 
152483960 0.00000000 0.00000000 -70.47859109 18.47257090 0.00000000 0.00000000 0.00000000 0.00000000 
154401480 0.00000000 0.00000000 -80.00000000 -21.42744621 0.00000000 0.00000000 0.00000000 0.00000000 
156318998 0.00000000 0.00000000 -73.77507423 -134.82439037 0.00000000 0.00000000 0.00000000 0.00000000 
158236516 0.00000000 0.00000000 -70.26244847 -93.59992694 0.00000000 0.00000000 0.00000000 0.00000000 
160154034 0.00000000 0.00000000 -73.27280721 -134.41794029 0.00000000 0.00000000 0.00000000 0.00000000 
162071554 0.00000000 0.00000000 -68.12069399 -141.90566484 0.00000000 0.00000000 0.00000000 0.00000000 
163989072 0.00000000 0.00000000 -64.38100258 -132.38258436 0.00000000 0.00000000 0.00000000 0.00000000 
165906590 0.00000000 0.00000000 -76.98313290 -55.56088139 0.00000000 0.00000000 0.00000000 0.00000000 
167824108 0.00000000 0.00000000 -65.88601365 -121.24559633 0.00000000 0.00000000 0.00000000 0.00000000 
169741628 0.00000000 0.00000000 -80.00000000 -107.58908889 0.00000000 0.00000000 0.00000000 0.00000000 
171659146 0.00000000 0.00000000 -74.59095801 -154.17341712 0.00000000 0.00000000 0.00000000 0.00000000 
173576664 0.00000000 0.00000000 -73.25774468 -115.64851012 0.00000000 0.00000000 0.00000000 0.00000000 
175494182 0.00000000 0.00000000 -74.19000823 -66.18339773 0.00000000 0.00000000 0.00000000 0.00000000 
177411702 0.00000000 0.00000000 -69.39590163 -47.26881691 0.00000000 0.00000000 0.00000000 0.00000000 
179329220 0.00000000 0.00000000 -69.54296101 0.39881740 0.00000000 0.00000000 0.00000000 0.00000000 
181246738 0.00000000 0.00000000 -71.50925192 2.66851229 0.00000000 0.00000000 0.00000000 0.00000000 
183164256 0.00000000 0.00000000 -67.30649699 118.75417215 0.00000000 0.00000000 0.00000000 0.00000000 
185081776 0.00000000 0.00000000 -80.00000000 98.52552016 0.00000000 0.00000000 0.00000000 0.00000000 
186999294 0.00000000 0.00000000 -72.56033923 43.65195350 0.00000000 0.00000000 0.00000000 0.00000000 
188916812 0.00000000 0.00000000 -68.44795206 118.16871558 0.00000000 0.00000000 0.00000000 0.00000000 
190834330 0.00000000 0.00000000 -69.76741596 153.70542292 0.00000000 0.00000000 0.00000000 0.00000000 
192751850 0.00000000 0.00000000 -65.44647926 155.56075833 0.00000000 0.00000000 0.00000000 0.00000000 
194669368 0.00000000 0.00000000 -73.81510477 -176.36892177 0.00000000 0.00000000 0.00000000 0.00000000 
196586886 0.00000000 0.00000000 -70.92104581 -120.42815543 0.00000000 0.00000000 0.00000000 0.00000000 
198504404 0.00000000 0.00000000 -67.86100971 -87.52224707 0.00000000 0.00000000 0.00000000 0.00000000 
200421924 0.00000000 0.00000000 -66.46196345 -48.67070748 0.00000000 0.00000000 0.00000000 0.00000000 
202339442 0.00000000 0.00000000 -66.74342051 -77.22029756 0.00000000 0.00000000 0.00000000 0.00000000 
204256960 0.00000000 0.00000000 -65.30275757 -91.09758429 0.00000000 0.00000000 0.00000000 0.00000000 
206174478 0.00000000 0.00000000 -71.91172911 -51.91635360 0.00000000 0.00000000 0.00000000 0.00000000 
208091998 0.00000000 0.00000000 -70.35990727 -108.72036242 0.00000000 0.00000000 0.00000000 0.00000000 
210009516 0.00000000 0.00000000 -76.02791815 -27.86068190 0.00000000 0.00000000 0.00000000 0.00000000 
211927034 0.00000000 0.00000000 -74.18805629 166.10238155 0.00000000 0.00000000 0.00000000 0.00000000 
213844552 0.00000000 0.00000000 -71.38776273 114.77291962 0.00000000 0.00000000 0.00000000 0.00000000 
215762072 0.00000000 0.00000000 -80.00000000 108.12784686 0.00000000 0.00000000 0.00000000 0.00000000 
217679590 0.00000000 0.00000000 -68.32960089 143.34646885 0.00000000 0.00000000 0.00000000 0.00000000 
219597108 0.00000000 0.00000000 -67.10353123 130.91390449 0.00000000 0.00000000 0.00000000 0.00000000 
221514626 0.00000000 0.00000000 -80.00000000 138.72489949 0.00000000 0.00000000 0.00000000 0.00000000 
223432146 0.00000000 0.00000000 -73.09001829 144.01192150 0.00000000 0.00000000 0.00000000 0.00000000 
225349664 0.00000000 0.00000000 -65.86773672 160.85077501 0.00000000 0.00000000 0.00000000 0.00000000 
227267182 0.00000000 0.00000000 -67.72331122 152.77600617 0.00000000 0.00000000 0.00000000 0.00000000 
229184700 0.00000000 0.00000000 -69.13612579 1.61984376 0.00000000 0.00000000 0.00000000 0.00000000 
231102220 0.00000000 0.00000000 -75.33431843 126.36568865 0.00000000 0.00000000 0.00000000 0.00000000 
233019738 0.00000000 0.00000000 -80.00000000 -106.05468143 0.00000000 0.00000000 0.00000000 0.00000000 
234937256 0.00000000 0.00000000 -71.07573762 38.52739786 0.00000000 0.00000000 0.00000000 0.00000000 
236854774 0.00000000 0.00000000 -67.87410758 96.91941654 0.00000000 0.00000000 0.00000000 0.00000000 
238772294 0.00000000 0.00000000 -69.46373497 43.06332199 0.00000000 0.00000000 0.00000000 0.00000000 
240689812 0.00000000 0.00000000 -65.89920937 72.41764229 0.00000000 0.00000000 0.00000000 0.00000000 
242607330 0.00000000 0.00000000 -63.74813879 62.25372832 0.00000000 0.00000000 0.00000000 0.00000000 
244524848 0.00000000 0.00000000 -62.21286469 85.06907429 0.00000000 0.00000000 0.00000000 0.00000000 
246442368 0.00000000 0.00000000 -59.50737213 93.51281526 0.00000000 0.00000000 0.00000000 0.00000000 
248359886 0.00000000 0.00000000 -61.15768285 82.81292626 0.00000000 0.00000000 0.00000000 0.00000000 
250277404 0.00000000 0.00000000 -67.51977758 106.80259193 0.00000000 0.00000000 0.00000000 0.00000000 
252194922 0.00000000 0.00000000 -63.18838313 107.14443334 0.00000000 0.00000000 0.00000000 0.00000000 
254112442 0.00000000 0.00000000 -64.52535063 132.65592679 0.00000000 0.00000000 0.00000000 0.00000000 
256029960 0.00000000 0.00000000 -64.53403601 138.94736060 0.00000000 0.00000000 0.00000000 0.00000000 
257947478 0.00000000 0.00000000 -70.38210483 140.61403940 0.00000000 0.00000000 0.00000000 0.00000000 
259864996 0.00000000 0.00000000 -73.01072749 93.26080204 0.00000000 0.00000000 0.00000000 0.00000000 
261782516 0.00000000 0.00000000 -68.38266965 97.01769118 0.00000000 0.00000000 0.00000000 0.00000000 
263700034 0.00000000 0.00000000 -72.48979424 133.35084317 0.00000000 0.00000000 0.00000000 0.00000000 
265617552 0.00000000 0.00000000 -64.49830738 146.50975825 0.00000000 0.00000000 0.00000000 0.00000000 
267535070 0.00000000 0.00000000 -65.96995173 138.48576872 0.00000000 0.00000000 0.00000000 0.00000000 
269452590 0.00000000 0.00000000 -64.91049925 160.05552662 0.00000000 0.00000000 0.00000000 0.00000000 
271370108 0.00000000 0.00000000 -71.10392057 -133.47798927 0.00000000 0.00000000 0.00000000 0.00000000 
273287626 0.00000000 0.00000000 -79.36790458 -167.34774738 0.00000000 0.00000000 0.00000000 0.00000000 
275205144 0.00000000 0.00000000 -73.51316263 127.36524288 0.00000000 0.00000000 0.00000000 0.00000000 
277122664 0.00000000 0.00000000 -70.17087726 -57.94901577 0.00000000 0.00000000 0.00000000 0.00000000 
279040182 0.00000000 0.00000000 -71.68477585 23.53794345 0.00000000 0.00000000 0.00000000 0.00000000 
280957700 0.00000000 0.00000000 -63.35379216 168.70693721 0.00000000 0.00000000 0.00000000 0.00000000 
282875218 0.00000000 0.00000000 -67.38740598 -154.56115328 0.00000000 0.00000000 0.00000000 0.00000000 
284792738 0.00000000 0.00000000 -63.12358018 -159.60305726 0.00000000 0.00000000 0.00000000 0.00000000 
286710256 0.00000000 0.00000000 -66.01016107 -114.46678918 0.00000000 0.00000000 0.00000000 0.00000000 
288627774 0.00000000 0.00000000 -75.49477566 -154.21982547 0.00000000 0.00000000 0.00000000 0.00000000 
290545292 0.00000000 0.00000000 -67.36858342 -13.94466334 0.00000000 0.00000000 0.00000000 0.00000000 
292462812 0.00000000 0.00000000 -62.95846448 55.53811342 0.00000000 0.00000000 0.00000000 0.00000000 
294380330 0.00000000 0.00000000 -69.75312132 130.20201079 0.00000000 0.00000000 0.00000000 0.00000000 
296297848 0.00000000 0.00000000 -68.67975157 -14.56509863 0.00000000 0.00000000 0.00000000 0.00000000 
298215366 0.00000000 0.00000000 -72.28132799 125.55182397 0.00000000 0.00000000 0.00000000 0.00000000 
300132886 0.00000000 0.00000000 -76.37856595 105.34205363 0.00000000 0.00000000 0.00000000 0.00000000 
302050404 0.00000000 0.00000000 -80.00000000 112.70913159 0.00000000 0.00000000 0.00000000 0.00000000 
303967922 0.00000000 0.00000000 -80.00000000 169.17425799 0.00000000 0.00000000 0.00000000 0.00000000 
305885440 0.00000000 0.00000000 -69.90100980 157.11008244 0.00000000 0.00000000 0.00000000 0.00000000 
307802960 0.00000000 0.00000000 -73.35190268 -151.77194331 0.00000000 0.00000000 0.00000000 0.00000000 
309720478 0.00000000 0.00000000 -78.80940164 176.79897479 0.00000000 0.00000000 0.00000000 0.00000000 
311637996 0.00000000 0.00000000 -76.41032016 -106.53955223 0.00000000 0.00000000 0.00000000 0.00000000 
313555514 0.00000000 0.00000000 -70.94274873 -39.29417900 0.00000000 0.00000000 0.00000000 0.00000000 
315473034 0.00000000 0.00000000 -68.27138164 -58.54182128 0.00000000 0.00000000 0.00000000 0.00000000 
317390552 0.00000000 0.00000000 -63.90817182 -53.48535579 0.00000000 0.00000000 0.00000000 0.00000000 
319308070 0.00000000 0.00000000 -67.89306612 -55.37073421 0.00000000 0.00000000 0.00000000 0.00000000 
321225588 0.00000000 0.00000000 -64.64045533 -5.49784941 0.00000000 0.00000000 0.00000000 0.00000000 
323143108 0.00000000 0.00000000 -68.74340009 -55.50918783 0.00000000 0.00000000 0.00000000 0.00000000 
325060626 0.00000000 0.00000000 -78.57477704 78.15845873 0.00000000 0.00000000 0.00000000 0.00000000 
326978144 0.00000000 0.00000000 -72.41133057 55.07288348 0.00000000 0.00000000 0.00000000 0.00000000 
328895662 0.00000000 0.00000000 -68.41021658 53.74213115 0.00000000 0.00000000 0.00000000 0.00000000 
330813182 0.00000000 0.00000000 -65.29861447 109.73092713 0.00000000 0.00000000 0.00000000 0.00000000 
332730700 0.00000000 0.00000000 -72.40783227 142.71227772 0.00000000 0.00000000 0.00000000 0.00000000 
334648218 0.00000000 0.00000000 -80.00000000 176.18320712 0.00000000 0.00000000 0.00000000 0.00000000 
336565736 0.00000000 0.00000000 -68.24867458 27.25728145 0.00000000 0.00000000 0.00000000 0.00000000 
338483256 0.00000000 0.00000000 -73.13992136 14.05832386 0.00000000 0.00000000 0.00000000 0.00000000 
340400774 0.00000000 0.00000000 -77.80302314 64.26973669 0.00000000 0.00000000 0.00000000 0.00000000 
342318292 0.00000000 0.00000000 -73.29316259 137.38669178 0.00000000 0.00000000 0.00000000 0.00000000 
344235810 0.00000000 0.00000000 -70.91515035 24.88084411 0.00000000 0.00000000 0.00000000 0.00000000 
346153330 0.00000000 0.00000000 -73.58521196 113.08366576 0.00000000 0.00000000 0.00000000 0.00000000 
348070848 0.00000000 0.00000000 -67.56167072 28.58775051 0.00000000 0.00000000 0.00000000 0.00000000 
349988366 0.00000000 0.00000000 -70.91718256 25.05252353 0.00000000 0.00000000 0.00000000 0.00000000 
351905884 0.00000000 0.00000000 -67.05964198 1.68436871 0.00000000 0.00000000 0.00000000 0.00000000 
353823404 0.00000000 0.00000000 -67.50595685 -21.08678721 0.00000000 0.00000000 0.00000000 0.00000000 
355740922 0.00000000 0.00000000 -62.90657937 -7.32100621 0.00000000 0.00000000 0.00000000 0.00000000 
357658440 0.00000000 0.00000000 -63.05115422 11.07515136 0.00000000 0.00000000 0.00000000 0.00000000 
359575958 0.00000000 0.00000000 -66.48442684 -27.64545474 0.00000000 0.00000000 0.00000000 0.00000000 
361493478 0.00000000 0.00000000 -68.00725888 -17.70374274 0.00000000 0.00000000 0.00000000 0.00000000 
363410996 0.00000000 0.00000000 -64.43560019 5.55773974 0.00000000 0.00000000 0.00000000 0.00000000 
365328514 0.00000000 0.00000000 -64.94341888 5.20427181 0.00000000 0.00000000 0.00000000 0.00000000 
367246032 0.00000000 0.00000000 -77.39812820 83.58732776 0.00000000 0.00000000 0.00000000 0.00000000 
369163552 0.00000000 0.00000000 -72.50457158 40.37743206 0.00000000 0.00000000 0.00000000 0.00000000 
