! created by ADMIN at Mon Apr 20 19:07:44 IST 2026
! generated using vna/J Version 3.2.10
# Hz S DB R 50
001000000 0.00000000 0.00000000 -64.37910187 85.83946213 0.00000000 0.00000000 0.00000000 0.00000000 
002917518 0.00000000 0.00000000 -67.70194072 125.20421656 0.00000000 0.00000000 0.00000000 0.00000000 
004835036 0.00000000 0.00000000 -69.82295456 143.20104192 0.00000000 0.00000000 0.00000000 0.00000000 
006752554 0.00000000 0.00000000 -80.00000000 -33.42893611 0.00000000 0.00000000 0.00000000 0.00000000 
008670074 0.00000000 0.00000000 -72.18620975 -159.86762231 0.00000000 0.00000000 0.00000000 0.00000000 
010587592 0.00000000 0.00000000 -80.00000000 141.70297410 0.00000000 0.00000000 0.00000000 0.00000000 
012505110 0.00000000 0.00000000 -80.00000000 131.27629560 0.00000000 0.00000000 0.00000000 0.00000000 
014422628 0.00000000 0.00000000 -80.00000000 -121.90455153 0.00000000 0.00000000 0.00000000 0.00000000 
016340148 0.00000000 0.00000000 -79.60819524 -45.81871121 0.00000000 0.00000000 0.00000000 0.00000000 
018257666 0.00000000 0.00000000 -76.63025758 11.83535868 0.00000000 0.00000000 0.00000000 0.00000000 
020175184 0.00000000 0.00000000 -77.04336202 31.73500801 0.00000000 0.00000000 0.00000000 0.00000000 
022092702 0.00000000 0.00000000 -76.94595033 27.74877004 0.00000000 0.00000000 0.00000000 0.00000000 
024010222 0.00000000 0.00000000 -72.99354592 -156.77533733 0.00000000 0.00000000 0.00000000 0.00000000 
025927740 0.00000000 0.00000000 -75.08547616 -0.19514776 0.00000000 0.00000000 0.00000000 0.00000000 
027845258 0.00000000 0.00000000 -74.48091415 133.15968158 0.00000000 0.00000000 0.00000000 0.00000000 
029762776 0.00000000 0.00000000 -70.24843470 145.99798738 0.00000000 0.00000000 0.00000000 0.00000000 
031680296 0.00000000 0.00000000 -67.78783256 92.32266026 0.00000000 0.00000000 0.00000000 0.00000000 
033597814 0.00000000 0.00000000 -72.92448490 149.47161931 0.00000000 0.00000000 0.00000000 0.00000000 
035515332 0.00000000 0.00000000 -72.78120217 132.71042250 0.00000000 0.00000000 0.00000000 0.00000000 
037432850 0.00000000 0.00000000 -69.87789186 -172.55379055 0.00000000 0.00000000 0.00000000 0.00000000 
039350370 0.00000000 0.00000000 -79.11163164 164.84488330 0.00000000 0.00000000 0.00000000 0.00000000 
041267888 0.00000000 0.00000000 -74.71738752 -104.06257398 0.00000000 0.00000000 0.00000000 0.00000000 
043185406 0.00000000 0.00000000 -68.88632593 -89.32872843 0.00000000 0.00000000 0.00000000 0.00000000 
045102924 0.00000000 0.00000000 -70.21796992 -36.75014132 0.00000000 0.00000000 0.00000000 0.00000000 
047020444 0.00000000 0.00000000 -63.33790770 -40.79674006 0.00000000 0.00000000 0.00000000 0.00000000 
048937962 0.00000000 0.00000000 -68.16629228 -60.81747665 0.00000000 0.00000000 0.00000000 0.00000000 
050855480 0.00000000 0.00000000 -68.87569229 -63.94296778 0.00000000 0.00000000 0.00000000 0.00000000 
052772998 0.00000000 0.00000000 -67.08305183 -70.92622130 0.00000000 0.00000000 0.00000000 0.00000000 
054690518 0.00000000 0.00000000 -68.75610920 -74.26751826 0.00000000 0.00000000 0.00000000 0.00000000 
056608036 0.00000000 0.00000000 -79.99926463 -65.20889014 0.00000000 0.00000000 0.00000000 0.00000000 
058525554 0.00000000 0.00000000 -70.16754159 -69.26273084 0.00000000 0.00000000 0.00000000 0.00000000 
060443072 0.00000000 0.00000000 -65.58404576 -35.41250889 0.00000000 0.00000000 0.00000000 0.00000000 
062360592 0.00000000 0.00000000 -67.03177007 -35.71899642 0.00000000 0.00000000 0.00000000 0.00000000 
064278110 0.00000000 0.00000000 -71.32222213 4.18003008 0.00000000 0.00000000 0.00000000 0.00000000 
066195628 0.00000000 0.00000000 -74.39745606 -80.70757285 0.00000000 0.00000000 0.00000000 0.00000000 
068113146 0.00000000 0.00000000 -80.00000000 39.01341447 0.00000000 0.00000000 0.00000000 0.00000000 
070030666 0.00000000 0.00000000 -70.24623586 96.39673327 0.00000000 0.00000000 0.00000000 0.00000000 
071948184 0.00000000 0.00000000 -80.00000000 -125.83400666 0.00000000 0.00000000 0.00000000 0.00000000 
073865702 0.00000000 0.00000000 -73.95336077 -134.73476376 0.00000000 0.00000000 0.00000000 0.00000000 
075783220 0.00000000 0.00000000 -73.40165080 -122.59766699 0.00000000 0.00000000 0.00000000 0.00000000 
077700740 0.00000000 0.00000000 -73.88567018 -93.30251227 0.00000000 0.00000000 0.00000000 0.00000000 
079618258 0.00000000 0.00000000 -68.53824873 -73.78557823 0.00000000 0.00000000 0.00000000 0.00000000 
081535776 0.00000000 0.00000000 -72.31280824 -14.17173432 0.00000000 0.00000000 0.00000000 0.00000000 
083453294 0.00000000 0.00000000 -68.59806339 -26.16502856 0.00000000 0.00000000 0.00000000 0.00000000 
085370814 0.00000000 0.00000000 -74.87706907 -24.26316580 0.00000000 0.00000000 0.00000000 0.00000000 
087288332 0.00000000 0.00000000 -71.10590288 -32.27918840 0.00000000 0.00000000 0.00000000 0.00000000 
089205850 0.00000000 0.00000000 -65.50923940 50.32301035 0.00000000 0.00000000 0.00000000 0.00000000 
091123368 0.00000000 0.00000000 -64.02824473 58.19780042 0.00000000 0.00000000 0.00000000 0.00000000 
093040888 0.00000000 0.00000000 -63.18378761 82.64967698 0.00000000 0.00000000 0.00000000 0.00000000 
094958406 0.00000000 0.00000000 -65.06256144 97.19145721 0.00000000 0.00000000 0.00000000 0.00000000 
096875924 0.00000000 0.00000000 -67.20847842 104.77710147 0.00000000 0.00000000 0.00000000 0.00000000 
098793442 0.00000000 0.00000000 -71.63064169 123.77373784 0.00000000 0.00000000 0.00000000 0.00000000 
100710962 0.00000000 0.00000000 -74.08836871 -170.85486490 0.00000000 0.00000000 0.00000000 0.00000000 
102628480 0.00000000 0.00000000 -73.89172974 98.17168990 0.00000000 0.00000000 0.00000000 0.00000000 
104545998 0.00000000 0.00000000 -72.39466544 142.95149243 0.00000000 0.00000000 0.00000000 0.00000000 
106463516 0.00000000 0.00000000 -71.32372746 133.47889563 0.00000000 0.00000000 0.00000000 0.00000000 
108381036 0.00000000 0.00000000 -65.57893598 55.89865631 0.00000000 0.00000000 0.00000000 0.00000000 
110298554 0.00000000 0.00000000 -73.80312692 124.76524845 0.00000000 0.00000000 0.00000000 0.00000000 
112216072 0.00000000 0.00000000 -67.46619620 119.01101211 0.00000000 0.00000000 0.00000000 0.00000000 
114133590 0.00000000 0.00000000 -67.32486256 170.48971991 0.00000000 0.00000000 0.00000000 0.00000000 
116051110 0.00000000 0.00000000 -80.00000000 135.23763180 0.00000000 0.00000000 0.00000000 0.00000000 
117968628 0.00000000 0.00000000 -74.46146968 154.88990412 0.00000000 0.00000000 0.00000000 0.00000000 
119886146 0.00000000 0.00000000 -76.19255272 177.39753660 0.00000000 0.00000000 0.00000000 0.00000000 
121803664 0.00000000 0.00000000 -73.57319190 -166.89871531 0.00000000 0.00000000 0.00000000 0.00000000 
123721184 0.00000000 0.00000000 -65.19423062 152.43161175 0.00000000 0.00000000 0.00000000 0.00000000 
125638702 0.00000000 0.00000000 -70.15176390 -143.47623315 0.00000000 0.00000000 0.00000000 0.00000000 
127556220 0.00000000 0.00000000 -72.19337681 -52.67771706 0.00000000 0.00000000 0.00000000 0.00000000 
129473738 0.00000000 0.00000000 -70.24757011 -44.22579798 0.00000000 0.00000000 0.00000000 0.00000000 
131391258 0.00000000 0.00000000 -68.93944632 -18.94906017 0.00000000 0.00000000 0.00000000 0.00000000 
133308776 0.00000000 0.00000000 -71.42186653 -117.58869912 0.00000000 0.00000000 0.00000000 0.00000000 
135226294 0.00000000 0.00000000 -76.16264307 54.70316491 0.00000000 0.00000000 0.00000000 0.00000000 
137143812 0.00000000 0.00000000 -71.16768609 -32.60133146 0.00000000 0.00000000 0.00000000 0.00000000 
139061332 0.00000000 0.00000000 -71.90844222 -76.34007401 0.00000000 0.00000000 0.00000000 0.00000000 
140978850 0.00000000 0.00000000 -74.42989544 -20.60542771 0.00000000 0.00000000 0.00000000 0.00000000 
142896368 0.00000000 0.00000000 -68.53353336 33.60771450 0.00000000 0.00000000 0.00000000 0.00000000 
144813886 0.00000000 0.00000000 -75.37767753 -19.41034560 0.00000000 0.00000000 0.00000000 0.00000000 
146731406 0.00000000 0.00000000 -80.00000000 73.02228134 0.00000000 0.00000000 0.00000000 0.00000000 
148648924 0.00000000 0.00000000 -68.75178503 63.13507842 0.00000000 0.00000000 0.00000000 0.00000000 
150566442 0.00000000 0.00000000 -69.02459959 60.05791225 0.00000000 0.00000000 0.00000000 0.00000000 
152483960 0.00000000 0.00000000 -65.80591182 42.63599466 0.00000000 0.00000000 0.00000000 0.00000000 
154401480 0.00000000 0.00000000 -68.56981953 74.29882745 0.00000000 0.00000000 0.00000000 0.00000000 
156318998 0.00000000 0.00000000 -77.56326333 100.90572972 0.00000000 0.00000000 0.00000000 0.00000000 
158236516 0.00000000 0.00000000 -71.26513341 -27.25976384 0.00000000 0.00000000 0.00000000 0.00000000 
160154034 0.00000000 0.00000000 -70.68301159 -1.28080415 0.00000000 0.00000000 0.00000000 0.00000000 
162071554 0.00000000 0.00000000 -69.74187077 -12.37766068 0.00000000 0.00000000 0.00000000 0.00000000 
163989072 0.00000000 0.00000000 -75.00932752 -64.60138990 0.00000000 0.00000000 0.00000000 0.00000000 
165906590 0.00000000 0.00000000 -66.37195790 27.02972528 0.00000000 0.00000000 0.00000000 0.00000000 
167824108 0.00000000 0.00000000 -80.00000000 -150.90493102 0.00000000 0.00000000 0.00000000 0.00000000 
169741628 0.00000000 0.00000000 -70.36936971 87.56091813 0.00000000 0.00000000 0.00000000 0.00000000 
171659146 0.00000000 0.00000000 -68.61116883 133.96466457 0.00000000 0.00000000 0.00000000 0.00000000 
173576664 0.00000000 0.00000000 -69.99200707 162.84002048 0.00000000 0.00000000 0.00000000 0.00000000 
175494182 0.00000000 0.00000000 -72.85042073 174.19511194 0.00000000 0.00000000 0.00000000 0.00000000 
177411702 0.00000000 0.00000000 -73.12067543 -135.48280974 0.00000000 0.00000000 0.00000000 0.00000000 
179329220 0.00000000 0.00000000 -80.00000000 -32.86250629 0.00000000 0.00000000 0.00000000 0.00000000 
181246738 0.00000000 0.00000000 -74.83193346 -44.44399849 0.00000000 0.00000000 0.00000000 0.00000000 
183164256 0.00000000 0.00000000 -71.64593518 130.76009229 0.00000000 0.00000000 0.00000000 0.00000000 
185081776 0.00000000 0.00000000 -72.99780093 -35.78117464 0.00000000 0.00000000 0.00000000 0.00000000 
186999294 0.00000000 0.00000000 -65.81022544 7.44309838 0.00000000 0.00000000 0.00000000 0.00000000 
188916812 0.00000000 0.00000000 -66.11500288 55.82903036 0.00000000 0.00000000 0.00000000 0.00000000 
190834330 0.00000000 0.00000000 -66.54167746 60.83896297 0.00000000 0.00000000 0.00000000 0.00000000 
192751850 0.00000000 0.00000000 -62.99070170 84.55422479 0.00000000 0.00000000 0.00000000 0.00000000 
194669368 0.00000000 0.00000000 -64.51867290 75.27457450 0.00000000 0.00000000 0.00000000 0.00000000 
196586886 0.00000000 0.00000000 -67.71632161 91.45633435 0.00000000 0.00000000 0.00000000 0.00000000 
198504404 0.00000000 0.00000000 -71.09998911 106.33667688 0.00000000 0.00000000 0.00000000 0.00000000 
200421924 0.00000000 0.00000000 -71.28701165 90.94255985 0.00000000 0.00000000 0.00000000 0.00000000 
202339442 0.00000000 0.00000000 -72.25163408 143.93897798 0.00000000 0.00000000 0.00000000 0.00000000 
204256960 0.00000000 0.00000000 -70.88401596 174.89364742 0.00000000 0.00000000 0.00000000 0.00000000 
206174478 0.00000000 0.00000000 -68.94247205 101.58979196 0.00000000 0.00000000 0.00000000 0.00000000 
208091998 0.00000000 0.00000000 -67.65905819 137.09262969 0.00000000 0.00000000 0.00000000 0.00000000 
210009516 0.00000000 0.00000000 -74.05211952 73.07816017 0.00000000 0.00000000 0.00000000 0.00000000 
211927034 0.00000000 0.00000000 -78.99953899 134.27020917 0.00000000 0.00000000 0.00000000 0.00000000 
213844552 0.00000000 0.00000000 -71.35836046 20.03939147 0.00000000 0.00000000 0.00000000 0.00000000 
215762072 0.00000000 0.00000000 -63.71558744 -16.44924099 0.00000000 0.00000000 0.00000000 0.00000000 
217679590 0.00000000 0.00000000 -75.01147241 -16.28207560 0.00000000 0.00000000 0.00000000 0.00000000 
219597108 0.00000000 0.00000000 -80.00000000 -33.59148341 0.00000000 0.00000000 0.00000000 0.00000000 
221514626 0.00000000 0.00000000 -66.95008402 -73.49745990 0.00000000 0.00000000 0.00000000 0.00000000 
223432146 0.00000000 0.00000000 -65.61119036 -95.00897801 0.00000000 0.00000000 0.00000000 0.00000000 
225349664 0.00000000 0.00000000 -66.28723847 -119.36409567 0.00000000 0.00000000 0.00000000 0.00000000 
227267182 0.00000000 0.00000000 -69.30842053 -94.36091434 0.00000000 0.00000000 0.00000000 0.00000000 
229184700 0.00000000 0.00000000 -66.65867673 -81.98048208 0.00000000 0.00000000 0.00000000 0.00000000 
231102220 0.00000000 0.00000000 -66.89542454 -31.04019775 0.00000000 0.00000000 0.00000000 0.00000000 
233019738 0.00000000 0.00000000 -65.92653733 -39.60461539 0.00000000 0.00000000 0.00000000 0.00000000 
234937256 0.00000000 0.00000000 -65.31715874 -1.60493156 0.00000000 0.00000000 0.00000000 0.00000000 
236854774 0.00000000 0.00000000 -69.71073777 57.13061774 0.00000000 0.00000000 0.00000000 0.00000000 
238772294 0.00000000 0.00000000 -68.77519361 16.85128006 0.00000000 0.00000000 0.00000000 0.00000000 
240689812 0.00000000 0.00000000 -71.34883212 68.21698277 0.00000000 0.00000000 0.00000000 0.00000000 
242607330 0.00000000 0.00000000 -73.40605618 54.99603417 0.00000000 0.00000000 0.00000000 0.00000000 
244524848 0.00000000 0.00000000 -71.62552218 135.97191405 0.00000000 0.00000000 0.00000000 0.00000000 
246442368 0.00000000 0.00000000 -67.63880791 144.40444451 0.00000000 0.00000000 0.00000000 0.00000000 
248359886 0.00000000 0.00000000 -72.48874596 144.64929200 0.00000000 0.00000000 0.00000000 0.00000000 
250277404 0.00000000 0.00000000 -65.08781323 -153.37194748 0.00000000 0.00000000 0.00000000 0.00000000 
252194922 0.00000000 0.00000000 -63.80267928 175.43417304 0.00000000 0.00000000 0.00000000 0.00000000 
254112442 0.00000000 0.00000000 -60.39892705 -170.36975246 0.00000000 0.00000000 0.00000000 0.00000000 
256029960 0.00000000 0.00000000 -60.19339081 -172.11993139 0.00000000 0.00000000 0.00000000 0.00000000 
257947478 0.00000000 0.00000000 -61.71574497 -160.10746810 0.00000000 0.00000000 0.00000000 0.00000000 
259864996 0.00000000 0.00000000 -64.16667017 -160.02004003 0.00000000 0.00000000 0.00000000 0.00000000 
261782516 0.00000000 0.00000000 -63.57581700 -177.53543880 0.00000000 0.00000000 0.00000000 0.00000000 
263700034 0.00000000 0.00000000 -65.02888269 -169.95835965 0.00000000 0.00000000 0.00000000 0.00000000 
265617552 0.00000000 0.00000000 -62.62333952 159.79952326 0.00000000 0.00000000 0.00000000 0.00000000 
267535070 0.00000000 0.00000000 -63.68294503 133.48461133 0.00000000 0.00000000 0.00000000 0.00000000 
269452590 0.00000000 0.00000000 -61.81345316 133.38824513 0.00000000 0.00000000 0.00000000 0.00000000 
271370108 0.00000000 0.00000000 -67.63217797 143.10503251 0.00000000 0.00000000 0.00000000 0.00000000 
273287626 0.00000000 0.00000000 -64.55493074 127.03314482 0.00000000 0.00000000 0.00000000 0.00000000 
275205144 0.00000000 0.00000000 -61.37909657 126.35132677 0.00000000 0.00000000 0.00000000 0.00000000 
277122664 0.00000000 0.00000000 -66.95455685 148.17199450 0.00000000 0.00000000 0.00000000 0.00000000 
279040182 0.00000000 0.00000000 -65.49681787 90.97119303 0.00000000 0.00000000 0.00000000 0.00000000 
280957700 0.00000000 0.00000000 -61.03445022 135.13440294 0.00000000 0.00000000 0.00000000 0.00000000 
282875218 0.00000000 0.00000000 -67.43490384 103.63304584 0.00000000 0.00000000 0.00000000 0.00000000 
284792738 0.00000000 0.00000000 -64.63196276 104.45473990 0.00000000 0.00000000 0.00000000 0.00000000 
286710256 0.00000000 0.00000000 -70.77080173 83.48026813 0.00000000 0.00000000 0.00000000 0.00000000 
288627774 0.00000000 0.00000000 -64.80187476 102.27300829 0.00000000 0.00000000 0.00000000 0.00000000 
290545292 0.00000000 0.00000000 -67.25504819 54.28090199 0.00000000 0.00000000 0.00000000 0.00000000 
292462812 0.00000000 0.00000000 -61.31048262 81.30184040 0.00000000 0.00000000 0.00000000 0.00000000 
294380330 0.00000000 0.00000000 -63.57340326 132.17501158 0.00000000 0.00000000 0.00000000 0.00000000 
296297848 0.00000000 0.00000000 -74.41198544 30.22764599 0.00000000 0.00000000 0.00000000 0.00000000 
298215366 0.00000000 0.00000000 -66.40992409 122.73493728 0.00000000 0.00000000 0.00000000 0.00000000 
300132886 0.00000000 0.00000000 -68.54175940 105.86934563 0.00000000 0.00000000 0.00000000 0.00000000 
302050404 0.00000000 0.00000000 -80.00000000 109.51302455 0.00000000 0.00000000 0.00000000 0.00000000 
303967922 0.00000000 0.00000000 -75.63293787 -75.37222334 0.00000000 0.00000000 0.00000000 0.00000000 
305885440 0.00000000 0.00000000 -74.55606134 -89.05662073 0.00000000 0.00000000 0.00000000 0.00000000 
307802960 0.00000000 0.00000000 -64.40322458 -59.39849768 0.00000000 0.00000000 0.00000000 0.00000000 
309720478 0.00000000 0.00000000 -72.17400591 -19.10405664 0.00000000 0.00000000 0.00000000 0.00000000 
311637996 0.00000000 0.00000000 -80.00000000 33.49765345 0.00000000 0.00000000 0.00000000 0.00000000 
313555514 0.00000000 0.00000000 -73.61816010 81.40305344 0.00000000 0.00000000 0.00000000 0.00000000 
315473034 0.00000000 0.00000000 -68.22408835 151.65614154 0.00000000 0.00000000 0.00000000 0.00000000 
317390552 0.00000000 0.00000000 -76.27658885 173.45289188 0.00000000 0.00000000 0.00000000 0.00000000 
319308070 0.00000000 0.00000000 -68.35077244 140.73615951 0.00000000 0.00000000 0.00000000 0.00000000 
321225588 0.00000000 0.00000000 -65.24734541 85.11714672 0.00000000 0.00000000 0.00000000 0.00000000 
323143108 0.00000000 0.00000000 -65.46586315 137.10839183 0.00000000 0.00000000 0.00000000 0.00000000 
325060626 0.00000000 0.00000000 -62.29938125 148.19880046 0.00000000 0.00000000 0.00000000 0.00000000 
326978144 0.00000000 0.00000000 -65.33911291 170.42944149 0.00000000 0.00000000 0.00000000 0.00000000 
328895662 0.00000000 0.00000000 -68.32637747 -151.97922340 0.00000000 0.00000000 0.00000000 0.00000000 
330813182 0.00000000 0.00000000 -64.21827117 -151.15552693 0.00000000 0.00000000 0.00000000 0.00000000 
332730700 0.00000000 0.00000000 -66.50217955 -159.49413745 0.00000000 0.00000000 0.00000000 0.00000000 
334648218 0.00000000 0.00000000 -67.31985530 153.91730569 0.00000000 0.00000000 0.00000000 0.00000000 
336565736 0.00000000 0.00000000 -61.74619196 99.47976643 0.00000000 0.00000000 0.00000000 0.00000000 
338483256 0.00000000 0.00000000 -58.08036785 118.75544099 0.00000000 0.00000000 0.00000000 0.00000000 
340400774 0.00000000 0.00000000 -58.27582779 128.48728852 0.00000000 0.00000000 0.00000000 0.00000000 
342318292 0.00000000 0.00000000 -58.13937771 139.04563547 0.00000000 0.00000000 0.00000000 0.00000000 
344235810 0.00000000 0.00000000 -62.37775780 126.22213405 0.00000000 0.00000000 0.00000000 0.00000000 
346153330 0.00000000 0.00000000 -60.87209799 139.71120460 0.00000000 0.00000000 0.00000000 0.00000000 
348070848 0.00000000 0.00000000 -62.77712254 123.18046915 0.00000000 0.00000000 0.00000000 0.00000000 
349988366 0.00000000 0.00000000 -61.19782056 142.29260520 0.00000000 0.00000000 0.00000000 0.00000000 
351905884 0.00000000 0.00000000 -62.01300399 151.80391417 0.00000000 0.00000000 0.00000000 0.00000000 
353823404 0.00000000 0.00000000 -60.34023135 172.54412588 0.00000000 0.00000000 0.00000000 0.00000000 
355740922 0.00000000 0.00000000 -68.26023461 153.56124524 0.00000000 0.00000000 0.00000000 0.00000000 
357658440 0.00000000 0.00000000 -66.17827203 101.26405442 0.00000000 0.00000000 0.00000000 0.00000000 
359575958 0.00000000 0.00000000 -69.36160856 120.21367104 0.00000000 0.00000000 0.00000000 0.00000000 
361493478 0.00000000 0.00000000 -64.22930630 95.28578336 0.00000000 0.00000000 0.00000000 0.00000000 
363410996 0.00000000 0.00000000 -61.03398873 74.30306700 0.00000000 0.00000000 0.00000000 0.00000000 
365328514 0.00000000 0.00000000 -60.14563876 75.66234608 0.00000000 0.00000000 0.00000000 0.00000000 
367246032 0.00000000 0.00000000 -58.23930395 104.45757412 0.00000000 0.00000000 0.00000000 0.00000000 
369163552 0.00000000 0.00000000 -57.40870309 98.22349331 0.00000000 0.00000000 0.00000000 0.00000000 
