! created by ADMIN at Mon Apr 20 19:14:13 IST 2026
! generated using vna/J Version 3.2.10
# Hz S DB R 50
001000000 0.00000000 0.00000000 -68.21617405 69.32368120 0.00000000 0.00000000 0.00000000 0.00000000 
002917518 0.00000000 0.00000000 -74.25564676 97.53622440 0.00000000 0.00000000 0.00000000 0.00000000 
004835036 0.00000000 0.00000000 -76.59590632 80.60683677 0.00000000 0.00000000 0.00000000 0.00000000 
006752554 0.00000000 0.00000000 -69.25867806 7.93296638 0.00000000 0.00000000 0.00000000 0.00000000 
008670074 0.00000000 0.00000000 -77.22866306 40.10835683 0.00000000 0.00000000 0.00000000 0.00000000 
010587592 0.00000000 0.00000000 -69.92620300 46.26727115 0.00000000 0.00000000 0.00000000 0.00000000 
012505110 0.00000000 0.00000000 -70.48964528 41.30193683 0.00000000 0.00000000 0.00000000 0.00000000 
014422628 0.00000000 0.00000000 -72.05973839 33.49828899 0.00000000 0.00000000 0.00000000 0.00000000 
016340148 0.00000000 0.00000000 -71.12297397 12.42249473 0.00000000 0.00000000 0.00000000 0.00000000 
018257666 0.00000000 0.00000000 -67.83841402 29.81480667 0.00000000 0.00000000 0.00000000 0.00000000 
020175184 0.00000000 0.00000000 -67.16902009 41.18331356 0.00000000 0.00000000 0.00000000 0.00000000 
022092702 0.00000000 0.00000000 -66.63974889 44.93982503 0.00000000 0.00000000 0.00000000 0.00000000 
024010222 0.00000000 0.00000000 -72.91279596 94.67996066 0.00000000 0.00000000 0.00000000 0.00000000 
025927740 0.00000000 0.00000000 -65.63696490 21.17166538 0.00000000 0.00000000 0.00000000 0.00000000 
027845258 0.00000000 0.00000000 -67.33833278 35.94980122 0.00000000 0.00000000 0.00000000 0.00000000 
029762776 0.00000000 0.00000000 -66.13688663 32.52449208 0.00000000 0.00000000 0.00000000 0.00000000 
031680296 0.00000000 0.00000000 -59.83607134 32.38917770 0.00000000 0.00000000 0.00000000 0.00000000 
033597814 0.00000000 0.00000000 -62.85537238 26.51119405 0.00000000 0.00000000 0.00000000 0.00000000 
035515332 0.00000000 0.00000000 -62.17892072 34.02159635 0.00000000 0.00000000 0.00000000 0.00000000 
037432850 0.00000000 0.00000000 -65.57821386 31.99617006 0.00000000 0.00000000 0.00000000 0.00000000 
039350370 0.00000000 0.00000000 -62.61829740 32.50341471 0.00000000 0.00000000 0.00000000 0.00000000 
041267888 0.00000000 0.00000000 -62.78708289 15.97656781 0.00000000 0.00000000 0.00000000 0.00000000 
043185406 0.00000000 0.00000000 -62.24614038 2.89183637 0.00000000 0.00000000 0.00000000 0.00000000 
045102924 0.00000000 0.00000000 -59.35181526 13.36744999 0.00000000 0.00000000 0.00000000 0.00000000 
047020444 0.00000000 0.00000000 -57.34460263 1.76815471 0.00000000 0.00000000 0.00000000 0.00000000 
048937962 0.00000000 0.00000000 -59.99025587 3.92185654 0.00000000 0.00000000 0.00000000 0.00000000 
050855480 0.00000000 0.00000000 -60.24744898 0.63142839 0.00000000 0.00000000 0.00000000 0.00000000 
052772998 0.00000000 0.00000000 -59.90451606 -8.33978578 0.00000000 0.00000000 0.00000000 0.00000000 
054690518 0.00000000 0.00000000 -59.68151760 -6.73144482 0.00000000 0.00000000 0.00000000 0.00000000 
056608036 0.00000000 0.00000000 -62.12662679 7.67018455 0.00000000 0.00000000 0.00000000 0.00000000 
058525554 0.00000000 0.00000000 -63.10080426 -14.79599867 0.00000000 0.00000000 0.00000000 0.00000000 
060443072 0.00000000 0.00000000 -60.68672168 -20.12522290 0.00000000 0.00000000 0.00000000 0.00000000 
062360592 0.00000000 0.00000000 -61.52119652 -30.74583437 0.00000000 0.00000000 0.00000000 0.00000000 
064278110 0.00000000 0.00000000 -64.12928365 -17.49848682 0.00000000 0.00000000 0.00000000 0.00000000 
066195628 0.00000000 0.00000000 -65.08692111 -53.06398659 0.00000000 0.00000000 0.00000000 0.00000000 
068113146 0.00000000 0.00000000 -66.80202300 -34.75142871 0.00000000 0.00000000 0.00000000 0.00000000 
070030666 0.00000000 0.00000000 -70.17620274 -12.99385447 0.00000000 0.00000000 0.00000000 0.00000000 
071948184 0.00000000 0.00000000 -64.96041233 -34.03698862 0.00000000 0.00000000 0.00000000 0.00000000 
073865702 0.00000000 0.00000000 -64.90642199 -21.57710366 0.00000000 0.00000000 0.00000000 0.00000000 
075783220 0.00000000 0.00000000 -63.60188376 -2.73545637 0.00000000 0.00000000 0.00000000 0.00000000 
077700740 0.00000000 0.00000000 -61.52885648 13.19890204 0.00000000 0.00000000 0.00000000 0.00000000 
079618258 0.00000000 0.00000000 -61.80595055 -1.31659912 0.00000000 0.00000000 0.00000000 0.00000000 
081535776 0.00000000 0.00000000 -61.08636151 13.36089024 0.00000000 0.00000000 0.00000000 0.00000000 
083453294 0.00000000 0.00000000 -60.78860940 0.49382866 0.00000000 0.00000000 0.00000000 0.00000000 
085370814 0.00000000 0.00000000 -62.58995143 0.08659562 0.00000000 0.00000000 0.00000000 0.00000000 
087288332 0.00000000 0.00000000 -63.39250594 -21.78588602 0.00000000 0.00000000 0.00000000 0.00000000 
089205850 0.00000000 0.00000000 -64.17210075 7.31403034 0.00000000 0.00000000 0.00000000 0.00000000 
091123368 0.00000000 0.00000000 -64.94079603 -5.64151265 0.00000000 0.00000000 0.00000000 0.00000000 
093040888 0.00000000 0.00000000 -67.95084452 -26.98954694 0.00000000 0.00000000 0.00000000 0.00000000 
094958406 0.00000000 0.00000000 -73.56530891 -24.44523013 0.00000000 0.00000000 0.00000000 0.00000000 
096875924 0.00000000 0.00000000 -80.00000000 -7.24496474 0.00000000 0.00000000 0.00000000 0.00000000 
098793442 0.00000000 0.00000000 -80.00000000 -151.28671270 0.00000000 0.00000000 0.00000000 0.00000000 
100710962 0.00000000 0.00000000 -69.90407029 -151.67772255 0.00000000 0.00000000 0.00000000 0.00000000 
102628480 0.00000000 0.00000000 -75.26712110 137.87213191 0.00000000 0.00000000 0.00000000 0.00000000 
104545998 0.00000000 0.00000000 -69.70107178 164.07705377 0.00000000 0.00000000 0.00000000 0.00000000 
106463516 0.00000000 0.00000000 -68.38990725 154.67298271 0.00000000 0.00000000 0.00000000 0.00000000 
108381036 0.00000000 0.00000000 -67.49333911 76.86060352 0.00000000 0.00000000 0.00000000 0.00000000 
110298554 0.00000000 0.00000000 -69.86756050 103.22959076 0.00000000 0.00000000 0.00000000 0.00000000 
112216072 0.00000000 0.00000000 -62.48138461 88.21762269 0.00000000 0.00000000 0.00000000 0.00000000 
114133590 0.00000000 0.00000000 -62.55208758 96.27391396 0.00000000 0.00000000 0.00000000 0.00000000 
116051110 0.00000000 0.00000000 -59.23646377 72.67173572 0.00000000 0.00000000 0.00000000 0.00000000 
117968628 0.00000000 0.00000000 -59.69010956 72.07363377 0.00000000 0.00000000 0.00000000 0.00000000 
119886146 0.00000000 0.00000000 -59.97001088 61.50038093 0.00000000 0.00000000 0.00000000 0.00000000 
121803664 0.00000000 0.00000000 -59.63767307 55.84553825 0.00000000 0.00000000 0.00000000 0.00000000 
123721184 0.00000000 0.00000000 -57.42254150 70.18993056 0.00000000 0.00000000 0.00000000 0.00000000 
125638702 0.00000000 0.00000000 -59.23396145 51.19767521 0.00000000 0.00000000 0.00000000 0.00000000 
127556220 0.00000000 0.00000000 -57.06698215 39.27658721 0.00000000 0.00000000 0.00000000 0.00000000 
129473738 0.00000000 0.00000000 -56.50098385 38.94575489 0.00000000 0.00000000 0.00000000 0.00000000 
131391258 0.00000000 0.00000000 -55.29927133 41.48456488 0.00000000 0.00000000 0.00000000 0.00000000 
133308776 0.00000000 0.00000000 -58.38026218 48.50100866 0.00000000 0.00000000 0.00000000 0.00000000 
135226294 0.00000000 0.00000000 -56.08726440 48.48404360 0.00000000 0.00000000 0.00000000 0.00000000 
137143812 0.00000000 0.00000000 -56.41549960 33.85055726 0.00000000 0.00000000 0.00000000 0.00000000 
139061332 0.00000000 0.00000000 -57.09396230 31.43661153 0.00000000 0.00000000 0.00000000 0.00000000 
140978850 0.00000000 0.00000000 -56.16310052 35.44719837 0.00000000 0.00000000 0.00000000 0.00000000 
142896368 0.00000000 0.00000000 -54.81625867 40.36319229 0.00000000 0.00000000 0.00000000 0.00000000 
144813886 0.00000000 0.00000000 -56.21600624 36.88444119 0.00000000 0.00000000 0.00000000 0.00000000 
146731406 0.00000000 0.00000000 -56.05128571 44.52531962 0.00000000 0.00000000 0.00000000 0.00000000 
148648924 0.00000000 0.00000000 -52.98060063 42.15758504 0.00000000 0.00000000 0.00000000 0.00000000 
150566442 0.00000000 0.00000000 -51.32177632 40.99107712 0.00000000 0.00000000 0.00000000 0.00000000 
152483960 0.00000000 0.00000000 -49.35537364 41.16601691 0.00000000 0.00000000 0.00000000 0.00000000 
154401480 0.00000000 0.00000000 -48.50639730 48.01688306 0.00000000 0.00000000 0.00000000 0.00000000 
156318998 0.00000000 0.00000000 -48.00515271 38.47437026 0.00000000 0.00000000 0.00000000 0.00000000 
158236516 0.00000000 0.00000000 -46.37159264 29.93217200 0.00000000 0.00000000 0.00000000 0.00000000 
160154034 0.00000000 0.00000000 -44.74955700 30.73960970 0.00000000 0.00000000 0.00000000 0.00000000 
162071554 0.00000000 0.00000000 -43.43163711 32.40132052 0.00000000 0.00000000 0.00000000 0.00000000 
163989072 0.00000000 0.00000000 -43.81988058 11.11820410 0.00000000 0.00000000 0.00000000 0.00000000 
165906590 0.00000000 0.00000000 -41.65018662 -1.72588372 0.00000000 0.00000000 0.00000000 0.00000000 
167824108 0.00000000 0.00000000 -39.89247267 -10.35329123 0.00000000 0.00000000 0.00000000 0.00000000 
169741628 0.00000000 0.00000000 -37.78205771 -9.26894207 0.00000000 0.00000000 0.00000000 0.00000000 
171659146 0.00000000 0.00000000 -40.30130767 -20.24748059 0.00000000 0.00000000 0.00000000 0.00000000 
173576664 0.00000000 0.00000000 -41.39867959 -41.96950110 0.00000000 0.00000000 0.00000000 0.00000000 
175494182 0.00000000 0.00000000 -40.11808319 -62.17401626 0.00000000 0.00000000 0.00000000 0.00000000 
177411702 0.00000000 0.00000000 -37.69403044 -72.56615314 0.00000000 0.00000000 0.00000000 0.00000000 
179329220 0.00000000 0.00000000 -39.67422707 -75.74169076 0.00000000 0.00000000 0.00000000 0.00000000 
181246738 0.00000000 0.00000000 -41.27336470 -86.46014902 0.00000000 0.00000000 0.00000000 0.00000000 
183164256 0.00000000 0.00000000 -42.04201106 -106.30325286 0.00000000 0.00000000 0.00000000 0.00000000 
185081776 0.00000000 0.00000000 -40.68376717 -119.08651128 0.00000000 0.00000000 0.00000000 0.00000000 
186999294 0.00000000 0.00000000 -42.53121404 -117.79030723 0.00000000 0.00000000 0.00000000 0.00000000 
188916812 0.00000000 0.00000000 -44.32930430 -125.11134758 0.00000000 0.00000000 0.00000000 0.00000000 
190834330 0.00000000 0.00000000 -45.50490116 -135.21775342 0.00000000 0.00000000 0.00000000 0.00000000 
192751850 0.00000000 0.00000000 -45.75332193 -152.53853400 0.00000000 0.00000000 0.00000000 0.00000000 
194669368 0.00000000 0.00000000 -47.44286675 -149.28816706 0.00000000 0.00000000 0.00000000 0.00000000 
196586886 0.00000000 0.00000000 -48.77834702 -150.06256175 0.00000000 0.00000000 0.00000000 0.00000000 
198504404 0.00000000 0.00000000 -50.23384612 -154.70014994 0.00000000 0.00000000 0.00000000 0.00000000 
200421924 0.00000000 0.00000000 -51.77141570 -166.70077927 0.00000000 0.00000000 0.00000000 0.00000000 
202339442 0.00000000 0.00000000 -52.04511449 -164.24644257 0.00000000 0.00000000 0.00000000 0.00000000 
204256960 0.00000000 0.00000000 -52.54826612 -162.97217748 0.00000000 0.00000000 0.00000000 0.00000000 
206174478 0.00000000 0.00000000 -54.47807306 -173.40637915 0.00000000 0.00000000 0.00000000 0.00000000 
208091998 0.00000000 0.00000000 -53.88427015 -176.84153364 0.00000000 0.00000000 0.00000000 0.00000000 
210009516 0.00000000 0.00000000 -55.49837020 176.61496010 0.00000000 0.00000000 0.00000000 0.00000000 
211927034 0.00000000 0.00000000 -54.14200585 172.26960209 0.00000000 0.00000000 0.00000000 0.00000000 
213844552 0.00000000 0.00000000 -54.36326119 164.87908700 0.00000000 0.00000000 0.00000000 0.00000000 
215762072 0.00000000 0.00000000 -54.70851970 168.49147026 0.00000000 0.00000000 0.00000000 0.00000000 
217679590 0.00000000 0.00000000 -55.07421858 166.62179069 0.00000000 0.00000000 0.00000000 0.00000000 
219597108 0.00000000 0.00000000 -56.90048304 159.94570250 0.00000000 0.00000000 0.00000000 0.00000000 
221514626 0.00000000 0.00000000 -61.20714901 160.87511994 0.00000000 0.00000000 0.00000000 0.00000000 
223432146 0.00000000 0.00000000 -61.55449601 141.85721338 0.00000000 0.00000000 0.00000000 0.00000000 
225349664 0.00000000 0.00000000 -59.93728970 144.43600945 0.00000000 0.00000000 0.00000000 0.00000000 
227267182 0.00000000 0.00000000 -61.05878118 131.26565131 0.00000000 0.00000000 0.00000000 0.00000000 
229184700 0.00000000 0.00000000 -62.49441744 130.40249822 0.00000000 0.00000000 0.00000000 0.00000000 
231102220 0.00000000 0.00000000 -61.26602800 101.90092137 0.00000000 0.00000000 0.00000000 0.00000000 
233019738 0.00000000 0.00000000 -66.87232493 127.64844183 0.00000000 0.00000000 0.00000000 0.00000000 
234937256 0.00000000 0.00000000 -70.69020971 114.87628540 0.00000000 0.00000000 0.00000000 0.00000000 
236854774 0.00000000 0.00000000 -67.51088591 156.12978106 0.00000000 0.00000000 0.00000000 0.00000000 
238772294 0.00000000 0.00000000 -69.20507631 -92.59128424 0.00000000 0.00000000 0.00000000 0.00000000 
240689812 0.00000000 0.00000000 -74.02489747 -107.24603285 0.00000000 0.00000000 0.00000000 0.00000000 
242607330 0.00000000 0.00000000 -71.73200383 -53.09883552 0.00000000 0.00000000 0.00000000 0.00000000 
244524848 0.00000000 0.00000000 -80.00000000 -81.15988799 0.00000000 0.00000000 0.00000000 0.00000000 
246442368 0.00000000 0.00000000 -79.13537657 87.79612137 0.00000000 0.00000000 0.00000000 0.00000000 
248359886 0.00000000 0.00000000 -72.69661038 -4.64944991 0.00000000 0.00000000 0.00000000 0.00000000 
250277404 0.00000000 0.00000000 -67.75677021 -86.89627686 0.00000000 0.00000000 0.00000000 0.00000000 
252194922 0.00000000 0.00000000 -80.00000000 -104.03256722 0.00000000 0.00000000 0.00000000 0.00000000 
254112442 0.00000000 0.00000000 -69.58242578 -130.64876009 0.00000000 0.00000000 0.00000000 0.00000000 
256029960 0.00000000 0.00000000 -67.38353024 -148.41888070 0.00000000 0.00000000 0.00000000 0.00000000 
257947478 0.00000000 0.00000000 -66.31495718 -124.34318884 0.00000000 0.00000000 0.00000000 0.00000000 
259864996 0.00000000 0.00000000 -67.46920088 -113.08989049 0.00000000 0.00000000 0.00000000 0.00000000 
261782516 0.00000000 0.00000000 -67.61026144 -136.62918862 0.00000000 0.00000000 0.00000000 0.00000000 
263700034 0.00000000 0.00000000 -67.43381348 -111.25350069 0.00000000 0.00000000 0.00000000 0.00000000 
265617552 0.00000000 0.00000000 -71.97901334 -162.54638113 0.00000000 0.00000000 0.00000000 0.00000000 
267535070 0.00000000 0.00000000 -76.75253771 58.31525385 0.00000000 0.00000000 0.00000000 0.00000000 
269452590 0.00000000 0.00000000 -72.35687883 76.69807702 0.00000000 0.00000000 0.00000000 0.00000000 
271370108 0.00000000 0.00000000 -67.09559228 -48.45189818 0.00000000 0.00000000 0.00000000 0.00000000 
273287626 0.00000000 0.00000000 -66.26521203 -42.45777654 0.00000000 0.00000000 0.00000000 0.00000000 
275205144 0.00000000 0.00000000 -66.20614125 -39.86621066 0.00000000 0.00000000 0.00000000 0.00000000 
277122664 0.00000000 0.00000000 -58.51282465 -51.26557707 0.00000000 0.00000000 0.00000000 0.00000000 
279040182 0.00000000 0.00000000 -60.46907577 -31.71571237 0.00000000 0.00000000 0.00000000 0.00000000 
280957700 0.00000000 0.00000000 -67.87115346 -108.19917474 0.00000000 0.00000000 0.00000000 0.00000000 
282875218 0.00000000 0.00000000 -63.12085729 -80.80167265 0.00000000 0.00000000 0.00000000 0.00000000 
284792738 0.00000000 0.00000000 -62.44523668 -103.84128864 0.00000000 0.00000000 0.00000000 0.00000000 
286710256 0.00000000 0.00000000 -60.62035552 -95.26442724 0.00000000 0.00000000 0.00000000 0.00000000 
288627774 0.00000000 0.00000000 -62.96457105 -119.18877356 0.00000000 0.00000000 0.00000000 0.00000000 
290545292 0.00000000 0.00000000 -61.30229897 -95.65294557 0.00000000 0.00000000 0.00000000 0.00000000 
292462812 0.00000000 0.00000000 -65.27668689 -125.53794789 0.00000000 0.00000000 0.00000000 0.00000000 
294380330 0.00000000 0.00000000 -59.19298595 -139.13264435 0.00000000 0.00000000 0.00000000 0.00000000 
296297848 0.00000000 0.00000000 -59.52547541 -100.41212002 0.00000000 0.00000000 0.00000000 0.00000000 
298215366 0.00000000 0.00000000 -60.79115268 -132.16081034 0.00000000 0.00000000 0.00000000 0.00000000 
300132886 0.00000000 0.00000000 -61.56975109 -124.86440266 0.00000000 0.00000000 0.00000000 0.00000000 
302050404 0.00000000 0.00000000 -62.39512885 -136.06058962 0.00000000 0.00000000 0.00000000 0.00000000 
303967922 0.00000000 0.00000000 -61.51607969 -151.20035901 0.00000000 0.00000000 0.00000000 0.00000000 
305885440 0.00000000 0.00000000 -58.78920789 -172.25222710 0.00000000 0.00000000 0.00000000 0.00000000 
307802960 0.00000000 0.00000000 -57.58949623 -166.02618411 0.00000000 0.00000000 0.00000000 0.00000000 
309720478 0.00000000 0.00000000 -58.79165881 -177.42856218 0.00000000 0.00000000 0.00000000 0.00000000 
311637996 0.00000000 0.00000000 -59.21251889 -177.88784906 0.00000000 0.00000000 0.00000000 0.00000000 
313555514 0.00000000 0.00000000 -60.81934519 175.75395998 0.00000000 0.00000000 0.00000000 0.00000000 
315473034 0.00000000 0.00000000 -59.41625642 177.49669911 0.00000000 0.00000000 0.00000000 0.00000000 
317390552 0.00000000 0.00000000 -62.03142514 -165.15123124 0.00000000 0.00000000 0.00000000 0.00000000 
319308070 0.00000000 0.00000000 -62.07566650 -177.54245067 0.00000000 0.00000000 0.00000000 0.00000000 
321225588 0.00000000 0.00000000 -67.91163005 142.87049598 0.00000000 0.00000000 0.00000000 0.00000000 
323143108 0.00000000 0.00000000 -63.85776820 174.39093118 0.00000000 0.00000000 0.00000000 0.00000000 
325060626 0.00000000 0.00000000 -59.32765112 157.49835804 0.00000000 0.00000000 0.00000000 0.00000000 
326978144 0.00000000 0.00000000 -58.93967166 161.28003401 0.00000000 0.00000000 0.00000000 0.00000000 
328895662 0.00000000 0.00000000 -58.54264947 165.81261451 0.00000000 0.00000000 0.00000000 0.00000000 
330813182 0.00000000 0.00000000 -55.34613629 170.26376959 0.00000000 0.00000000 0.00000000 0.00000000 
332730700 0.00000000 0.00000000 -55.63575785 172.03970523 0.00000000 0.00000000 0.00000000 0.00000000 
334648218 0.00000000 0.00000000 -55.66716819 166.22939581 0.00000000 0.00000000 0.00000000 0.00000000 
336565736 0.00000000 0.00000000 -56.08582043 148.38701298 0.00000000 0.00000000 0.00000000 0.00000000 
338483256 0.00000000 0.00000000 -53.99324950 152.16941307 0.00000000 0.00000000 0.00000000 0.00000000 
340400774 0.00000000 0.00000000 -54.14888671 146.69415853 0.00000000 0.00000000 0.00000000 0.00000000 
342318292 0.00000000 0.00000000 -53.60127140 141.84482555 0.00000000 0.00000000 0.00000000 0.00000000 
344235810 0.00000000 0.00000000 -54.61897384 126.54560163 0.00000000 0.00000000 0.00000000 0.00000000 
346153330 0.00000000 0.00000000 -52.53123571 127.14500123 0.00000000 0.00000000 0.00000000 0.00000000 
348070848 0.00000000 0.00000000 -53.33461046 112.26771634 0.00000000 0.00000000 0.00000000 0.00000000 
349988366 0.00000000 0.00000000 -52.85672779 111.46801349 0.00000000 0.00000000 0.00000000 0.00000000 
351905884 0.00000000 0.00000000 -52.59827723 105.69844169 0.00000000 0.00000000 0.00000000 0.00000000 
353823404 0.00000000 0.00000000 -51.99730660 107.85371232 0.00000000 0.00000000 0.00000000 0.00000000 
355740922 0.00000000 0.00000000 -52.16869483 91.90336147 0.00000000 0.00000000 0.00000000 0.00000000 
357658440 0.00000000 0.00000000 -50.84184271 85.20145723 0.00000000 0.00000000 0.00000000 0.00000000 
359575958 0.00000000 0.00000000 -50.96546100 85.79537932 0.00000000 0.00000000 0.00000000 0.00000000 
361493478 0.00000000 0.00000000 -49.48583888 84.46262494 0.00000000 0.00000000 0.00000000 0.00000000 
363410996 0.00000000 0.00000000 -49.99297103 78.69176708 0.00000000 0.00000000 0.00000000 0.00000000 
365328514 0.00000000 0.00000000 -50.79869173 74.83989895 0.00000000 0.00000000 0.00000000 0.00000000 
367246032 0.00000000 0.00000000 -51.27023598 80.60464106 0.00000000 0.00000000 0.00000000 0.00000000 
369163552 0.00000000 0.00000000 -51.11149460 71.47388604 0.00000000 0.00000000 0.00000000 0.00000000 
