! created by ADMIN at Mon Apr 20 19:13:34 IST 2026
! generated using vna/J Version 3.2.10
# Hz S DB R 50
001000000 0.00000000 0.00000000 -67.72104106 33.16700858 0.00000000 0.00000000 0.00000000 0.00000000 
002917518 0.00000000 0.00000000 -70.85177876 60.81255983 0.00000000 0.00000000 0.00000000 0.00000000 
004835036 0.00000000 0.00000000 -69.13817600 74.87436543 0.00000000 0.00000000 0.00000000 0.00000000 
006752554 0.00000000 0.00000000 -67.34173014 50.02236520 0.00000000 0.00000000 0.00000000 0.00000000 
008670074 0.00000000 0.00000000 -67.17429595 105.05673419 0.00000000 0.00000000 0.00000000 0.00000000 
010587592 0.00000000 0.00000000 -66.31931468 94.65339020 0.00000000 0.00000000 0.00000000 0.00000000 
012505110 0.00000000 0.00000000 -68.70479196 98.58039896 0.00000000 0.00000000 0.00000000 0.00000000 
014422628 0.00000000 0.00000000 -72.70246108 107.89590006 0.00000000 0.00000000 0.00000000 0.00000000 
016340148 0.00000000 0.00000000 -80.00000000 80.10608988 0.00000000 0.00000000 0.00000000 0.00000000 
018257666 0.00000000 0.00000000 -72.26664945 39.78857011 0.00000000 0.00000000 0.00000000 0.00000000 
020175184 0.00000000 0.00000000 -69.20493093 39.63400171 0.00000000 0.00000000 0.00000000 0.00000000 
022092702 0.00000000 0.00000000 -66.79003419 36.11058766 0.00000000 0.00000000 0.00000000 0.00000000 
024010222 0.00000000 0.00000000 -72.51789985 59.67453833 0.00000000 0.00000000 0.00000000 0.00000000 
025927740 0.00000000 0.00000000 -65.54641598 16.25483951 0.00000000 0.00000000 0.00000000 0.00000000 
027845258 0.00000000 0.00000000 -70.38140769 30.62590683 0.00000000 0.00000000 0.00000000 0.00000000 
029762776 0.00000000 0.00000000 -71.95068230 17.87329757 0.00000000 0.00000000 0.00000000 0.00000000 
031680296 0.00000000 0.00000000 -63.49327531 20.97143015 0.00000000 0.00000000 0.00000000 0.00000000 
033597814 0.00000000 0.00000000 -64.93158036 2.77113372 0.00000000 0.00000000 0.00000000 0.00000000 
035515332 0.00000000 0.00000000 -62.62453557 15.27758991 0.00000000 0.00000000 0.00000000 0.00000000 
037432850 0.00000000 0.00000000 -63.70203841 11.34639810 0.00000000 0.00000000 0.00000000 0.00000000 
039350370 0.00000000 0.00000000 -60.11063134 21.91446445 0.00000000 0.00000000 0.00000000 0.00000000 
041267888 0.00000000 0.00000000 -61.33872818 13.47243913 0.00000000 0.00000000 0.00000000 0.00000000 
043185406 0.00000000 0.00000000 -62.47398386 1.58158561 0.00000000 0.00000000 0.00000000 0.00000000 
045102924 0.00000000 0.00000000 -60.91912346 10.74249636 0.00000000 0.00000000 0.00000000 0.00000000 
047020444 0.00000000 0.00000000 -59.35935459 -7.67634305 0.00000000 0.00000000 0.00000000 0.00000000 
048937962 0.00000000 0.00000000 -61.37440834 -1.02187697 0.00000000 0.00000000 0.00000000 0.00000000 
050855480 0.00000000 0.00000000 -60.56095252 3.94897919 0.00000000 0.00000000 0.00000000 0.00000000 
052772998 0.00000000 0.00000000 -59.73046943 3.97545834 0.00000000 0.00000000 0.00000000 0.00000000 
054690518 0.00000000 0.00000000 -59.08173986 14.50961129 0.00000000 0.00000000 0.00000000 0.00000000 
056608036 0.00000000 0.00000000 -61.38192346 29.89632106 0.00000000 0.00000000 0.00000000 0.00000000 
058525554 0.00000000 0.00000000 -64.68095236 4.70706413 0.00000000 0.00000000 0.00000000 0.00000000 
060443072 0.00000000 0.00000000 -62.33039790 -14.74460359 0.00000000 0.00000000 0.00000000 0.00000000 
062360592 0.00000000 0.00000000 -62.86348482 -35.04976220 0.00000000 0.00000000 0.00000000 0.00000000 
064278110 0.00000000 0.00000000 -64.65597348 -16.12178266 0.00000000 0.00000000 0.00000000 0.00000000 
066195628 0.00000000 0.00000000 -65.15095241 -43.76077736 0.00000000 0.00000000 0.00000000 0.00000000 
068113146 0.00000000 0.00000000 -65.38300912 -14.14683412 0.00000000 0.00000000 0.00000000 0.00000000 
070030666 0.00000000 0.00000000 -65.48225617 16.44241819 0.00000000 0.00000000 0.00000000 0.00000000 
071948184 0.00000000 0.00000000 -64.83422034 -6.41952113 0.00000000 0.00000000 0.00000000 0.00000000 
073865702 0.00000000 0.00000000 -65.65528483 5.20943367 0.00000000 0.00000000 0.00000000 0.00000000 
075783220 0.00000000 0.00000000 -64.75097254 20.38250944 0.00000000 0.00000000 0.00000000 0.00000000 
077700740 0.00000000 0.00000000 -63.02818217 31.94681367 0.00000000 0.00000000 0.00000000 0.00000000 
079618258 0.00000000 0.00000000 -64.20298109 10.54105270 0.00000000 0.00000000 0.00000000 0.00000000 
081535776 0.00000000 0.00000000 -62.67651601 23.51529948 0.00000000 0.00000000 0.00000000 0.00000000 
083453294 0.00000000 0.00000000 -62.38844613 4.88142823 0.00000000 0.00000000 0.00000000 0.00000000 
085370814 0.00000000 0.00000000 -64.14512459 3.30762790 0.00000000 0.00000000 0.00000000 0.00000000 
087288332 0.00000000 0.00000000 -63.34528224 -12.13512810 0.00000000 0.00000000 0.00000000 0.00000000 
089205850 0.00000000 0.00000000 -61.50094003 21.32798213 0.00000000 0.00000000 0.00000000 0.00000000 
091123368 0.00000000 0.00000000 -60.96015728 21.65800154 0.00000000 0.00000000 0.00000000 0.00000000 
093040888 0.00000000 0.00000000 -62.07001664 30.03704792 0.00000000 0.00000000 0.00000000 0.00000000 
094958406 0.00000000 0.00000000 -64.85069711 27.82183212 0.00000000 0.00000000 0.00000000 0.00000000 
096875924 0.00000000 0.00000000 -66.46154482 15.92558238 0.00000000 0.00000000 0.00000000 0.00000000 
098793442 0.00000000 0.00000000 -67.20644362 -11.32778056 0.00000000 0.00000000 0.00000000 0.00000000 
100710962 0.00000000 0.00000000 -65.50196515 -41.47011349 0.00000000 0.00000000 0.00000000 0.00000000 
102628480 0.00000000 0.00000000 -68.65692138 18.07341285 0.00000000 0.00000000 0.00000000 0.00000000 
104545998 0.00000000 0.00000000 -72.38598927 108.90887174 0.00000000 0.00000000 0.00000000 0.00000000 
106463516 0.00000000 0.00000000 -65.53007852 135.56488320 0.00000000 0.00000000 0.00000000 0.00000000 
108381036 0.00000000 0.00000000 -63.71705565 109.82567531 0.00000000 0.00000000 0.00000000 0.00000000 
110298554 0.00000000 0.00000000 -68.43207413 124.00801963 0.00000000 0.00000000 0.00000000 0.00000000 
112216072 0.00000000 0.00000000 -64.15902756 79.51713069 0.00000000 0.00000000 0.00000000 0.00000000 
114133590 0.00000000 0.00000000 -64.58765382 62.68656068 0.00000000 0.00000000 0.00000000 0.00000000 
116051110 0.00000000 0.00000000 -57.95674854 40.76457411 0.00000000 0.00000000 0.00000000 0.00000000 
117968628 0.00000000 0.00000000 -59.44295575 44.81704076 0.00000000 0.00000000 0.00000000 0.00000000 
119886146 0.00000000 0.00000000 -60.55676434 37.47676143 0.00000000 0.00000000 0.00000000 0.00000000 
121803664 0.00000000 0.00000000 -61.59504392 30.47078958 0.00000000 0.00000000 0.00000000 0.00000000 
123721184 0.00000000 0.00000000 -61.67568108 52.43120464 0.00000000 0.00000000 0.00000000 0.00000000 
125638702 0.00000000 0.00000000 -61.48548121 25.36926739 0.00000000 0.00000000 0.00000000 0.00000000 
127556220 0.00000000 0.00000000 -57.94445566 23.84083155 0.00000000 0.00000000 0.00000000 0.00000000 
129473738 0.00000000 0.00000000 -57.23256140 28.93923921 0.00000000 0.00000000 0.00000000 0.00000000 
131391258 0.00000000 0.00000000 -56.02953062 36.68549852 0.00000000 0.00000000 0.00000000 0.00000000 
133308776 0.00000000 0.00000000 -58.59297153 42.74134481 0.00000000 0.00000000 0.00000000 0.00000000 
135226294 0.00000000 0.00000000 -55.61422460 45.39277572 0.00000000 0.00000000 0.00000000 0.00000000 
137143812 0.00000000 0.00000000 -55.34742724 34.56541260 0.00000000 0.00000000 0.00000000 0.00000000 
139061332 0.00000000 0.00000000 -55.57295081 36.35318920 0.00000000 0.00000000 0.00000000 0.00000000 
140978850 0.00000000 0.00000000 -54.65120680 40.83782348 0.00000000 0.00000000 0.00000000 0.00000000 
142896368 0.00000000 0.00000000 -53.38820272 45.83744012 0.00000000 0.00000000 0.00000000 0.00000000 
144813886 0.00000000 0.00000000 -54.56476908 45.68265982 0.00000000 0.00000000 0.00000000 0.00000000 
146731406 0.00000000 0.00000000 -54.26635504 53.77430331 0.00000000 0.00000000 0.00000000 0.00000000 
148648924 0.00000000 0.00000000 -52.26126017 48.57217068 0.00000000 0.00000000 0.00000000 0.00000000 
150566442 0.00000000 0.00000000 -51.13470674 44.87656313 0.00000000 0.00000000 0.00000000 0.00000000 
152483960 0.00000000 0.00000000 -49.45192284 42.38386589 0.00000000 0.00000000 0.00000000 0.00000000 
154401480 0.00000000 0.00000000 -48.74499047 47.17367059 0.00000000 0.00000000 0.00000000 0.00000000 
156318998 0.00000000 0.00000000 -47.82714969 39.64071424 0.00000000 0.00000000 0.00000000 0.00000000 
158236516 0.00000000 0.00000000 -46.06513364 33.48817291 0.00000000 0.00000000 0.00000000 0.00000000 
160154034 0.00000000 0.00000000 -44.41455554 35.93241243 0.00000000 0.00000000 0.00000000 0.00000000 
162071554 0.00000000 0.00000000 -43.12785802 38.88844720 0.00000000 0.00000000 0.00000000 0.00000000 
163989072 0.00000000 0.00000000 -43.37172705 12.67931842 0.00000000 0.00000000 0.00000000 0.00000000 
165906590 0.00000000 0.00000000 -40.67777947 -2.09565146 0.00000000 0.00000000 0.00000000 0.00000000 
167824108 0.00000000 0.00000000 -38.50660998 -9.85882348 0.00000000 0.00000000 0.00000000 0.00000000 
169741628 0.00000000 0.00000000 -36.22965695 -8.16570317 0.00000000 0.00000000 0.00000000 0.00000000 
171659146 0.00000000 0.00000000 -39.27642958 -16.83232631 0.00000000 0.00000000 0.00000000 0.00000000 
173576664 0.00000000 0.00000000 -41.40024568 -40.54386071 0.00000000 0.00000000 0.00000000 0.00000000 
175494182 0.00000000 0.00000000 -40.32387853 -68.02643861 0.00000000 0.00000000 0.00000000 0.00000000 
177411702 0.00000000 0.00000000 -37.41279614 -81.91560127 0.00000000 0.00000000 0.00000000 0.00000000 
179329220 0.00000000 0.00000000 -39.25310645 -82.69599401 0.00000000 0.00000000 0.00000000 0.00000000 
181246738 0.00000000 0.00000000 -40.90882464 -89.30365454 0.00000000 0.00000000 0.00000000 0.00000000 
183164256 0.00000000 0.00000000 -42.28057649 -105.28036097 0.00000000 0.00000000 0.00000000 0.00000000 
185081776 0.00000000 0.00000000 -41.76800050 -118.18350458 0.00000000 0.00000000 0.00000000 0.00000000 
186999294 0.00000000 0.00000000 -43.60904997 -115.63935623 0.00000000 0.00000000 0.00000000 0.00000000 
188916812 0.00000000 0.00000000 -45.48493003 -121.77542232 0.00000000 0.00000000 0.00000000 0.00000000 
190834330 0.00000000 0.00000000 -46.85125635 -130.22926667 0.00000000 0.00000000 0.00000000 0.00000000 
192751850 0.00000000 0.00000000 -47.55202508 -147.64838593 0.00000000 0.00000000 0.00000000 0.00000000 
194669368 0.00000000 0.00000000 -49.04898136 -142.18959959 0.00000000 0.00000000 0.00000000 0.00000000 
196586886 0.00000000 0.00000000 -50.11502776 -140.48134101 0.00000000 0.00000000 0.00000000 0.00000000 
198504404 0.00000000 0.00000000 -51.42200531 -140.99273469 0.00000000 0.00000000 0.00000000 0.00000000 
200421924 0.00000000 0.00000000 -53.35859417 -146.49719987 0.00000000 0.00000000 0.00000000 0.00000000 
202339442 0.00000000 0.00000000 -53.34154439 -146.19441079 0.00000000 0.00000000 0.00000000 0.00000000 
204256960 0.00000000 0.00000000 -53.53994363 -146.04501896 0.00000000 0.00000000 0.00000000 0.00000000 
206174478 0.00000000 0.00000000 -55.76547804 -154.35934423 0.00000000 0.00000000 0.00000000 0.00000000 
208091998 0.00000000 0.00000000 -54.81769273 -159.43789514 0.00000000 0.00000000 0.00000000 0.00000000 
210009516 0.00000000 0.00000000 -56.07463788 -161.19265664 0.00000000 0.00000000 0.00000000 0.00000000 
211927034 0.00000000 0.00000000 -54.38378665 -165.94776129 0.00000000 0.00000000 0.00000000 0.00000000 
213844552 0.00000000 0.00000000 -54.66421473 -168.03700507 0.00000000 0.00000000 0.00000000 0.00000000 
215762072 0.00000000 0.00000000 -54.42827685 -158.54493055 0.00000000 0.00000000 0.00000000 0.00000000 
217679590 0.00000000 0.00000000 -55.25909560 -170.30930327 0.00000000 0.00000000 0.00000000 0.00000000 
219597108 0.00000000 0.00000000 -56.78232680 175.31310801 0.00000000 0.00000000 0.00000000 0.00000000 
221514626 0.00000000 0.00000000 -58.86820236 170.62451641 0.00000000 0.00000000 0.00000000 0.00000000 
223432146 0.00000000 0.00000000 -57.20314457 153.35782720 0.00000000 0.00000000 0.00000000 0.00000000 
225349664 0.00000000 0.00000000 -56.72073267 156.72556647 0.00000000 0.00000000 0.00000000 0.00000000 
227267182 0.00000000 0.00000000 -58.60315683 151.39277696 0.00000000 0.00000000 0.00000000 0.00000000 
229184700 0.00000000 0.00000000 -60.60492616 154.97908370 0.00000000 0.00000000 0.00000000 0.00000000 
231102220 0.00000000 0.00000000 -62.40812244 125.30337330 0.00000000 0.00000000 0.00000000 0.00000000 
233019738 0.00000000 0.00000000 -68.32070509 122.02175753 0.00000000 0.00000000 0.00000000 0.00000000 
234937256 0.00000000 0.00000000 -65.04412245 66.89058465 0.00000000 0.00000000 0.00000000 0.00000000 
236854774 0.00000000 0.00000000 -62.03049284 79.52806893 0.00000000 0.00000000 0.00000000 0.00000000 
238772294 0.00000000 0.00000000 -60.86310238 48.43886536 0.00000000 0.00000000 0.00000000 0.00000000 
240689812 0.00000000 0.00000000 -60.66292274 58.72675474 0.00000000 0.00000000 0.00000000 0.00000000 
242607330 0.00000000 0.00000000 -60.21414184 48.72838389 0.00000000 0.00000000 0.00000000 0.00000000 
244524848 0.00000000 0.00000000 -60.56079059 59.69804999 0.00000000 0.00000000 0.00000000 0.00000000 
246442368 0.00000000 0.00000000 -59.27860988 65.33543261 0.00000000 0.00000000 0.00000000 0.00000000 
248359886 0.00000000 0.00000000 -59.07669110 45.85882141 0.00000000 0.00000000 0.00000000 0.00000000 
250277404 0.00000000 0.00000000 -62.07744571 29.94004587 0.00000000 0.00000000 0.00000000 0.00000000 
252194922 0.00000000 0.00000000 -59.41134376 44.27630345 0.00000000 0.00000000 0.00000000 0.00000000 
254112442 0.00000000 0.00000000 -60.31318894 43.59925654 0.00000000 0.00000000 0.00000000 0.00000000 
256029960 0.00000000 0.00000000 -61.39437587 39.74069632 0.00000000 0.00000000 0.00000000 0.00000000 
257947478 0.00000000 0.00000000 -60.52759752 16.78731421 0.00000000 0.00000000 0.00000000 0.00000000 
259864996 0.00000000 0.00000000 -58.22673295 11.54362032 0.00000000 0.00000000 0.00000000 0.00000000 
261782516 0.00000000 0.00000000 -57.46238456 16.54004988 0.00000000 0.00000000 0.00000000 0.00000000 
263700034 0.00000000 0.00000000 -58.32970253 6.19404828 0.00000000 0.00000000 0.00000000 0.00000000 
265617552 0.00000000 0.00000000 -60.00605214 15.65616434 0.00000000 0.00000000 0.00000000 0.00000000 
267535070 0.00000000 0.00000000 -58.21493917 12.51852483 0.00000000 0.00000000 0.00000000 0.00000000 
269452590 0.00000000 0.00000000 -58.48688722 8.14845955 0.00000000 0.00000000 0.00000000 0.00000000 
271370108 0.00000000 0.00000000 -55.98767851 -20.58640888 0.00000000 0.00000000 0.00000000 0.00000000 
273287626 0.00000000 0.00000000 -54.77488079 -22.21479870 0.00000000 0.00000000 0.00000000 0.00000000 
275205144 0.00000000 0.00000000 -53.74746441 -21.93997863 0.00000000 0.00000000 0.00000000 0.00000000 
277122664 0.00000000 0.00000000 -50.77475971 -29.21054878 0.00000000 0.00000000 0.00000000 0.00000000 
279040182 0.00000000 0.00000000 -51.24675901 -29.11345874 0.00000000 0.00000000 0.00000000 0.00000000 
280957700 0.00000000 0.00000000 -53.34056699 -48.89061319 0.00000000 0.00000000 0.00000000 0.00000000 
282875218 0.00000000 0.00000000 -50.64342040 -53.10140191 0.00000000 0.00000000 0.00000000 0.00000000 
284792738 0.00000000 0.00000000 -49.64540645 -58.06462470 0.00000000 0.00000000 0.00000000 0.00000000 
286710256 0.00000000 0.00000000 -49.60952634 -59.27165065 0.00000000 0.00000000 0.00000000 0.00000000 
288627774 0.00000000 0.00000000 -51.08289130 -62.56037975 0.00000000 0.00000000 0.00000000 0.00000000 
290545292 0.00000000 0.00000000 -50.21049842 -62.34746729 0.00000000 0.00000000 0.00000000 0.00000000 
292462812 0.00000000 0.00000000 -51.48442481 -64.89883252 0.00000000 0.00000000 0.00000000 0.00000000 
294380330 0.00000000 0.00000000 -52.10210666 -80.54750505 0.00000000 0.00000000 0.00000000 0.00000000 
296297848 0.00000000 0.00000000 -51.21238927 -73.02560705 0.00000000 0.00000000 0.00000000 0.00000000 
298215366 0.00000000 0.00000000 -52.99676096 -86.66021151 0.00000000 0.00000000 0.00000000 0.00000000 
300132886 0.00000000 0.00000000 -52.73004662 -89.20618421 0.00000000 0.00000000 0.00000000 0.00000000 
302050404 0.00000000 0.00000000 -52.63700538 -94.26840631 0.00000000 0.00000000 0.00000000 0.00000000 
303967922 0.00000000 0.00000000 -52.10125149 -100.11429337 0.00000000 0.00000000 0.00000000 0.00000000 
305885440 0.00000000 0.00000000 -51.63508587 -108.59929548 0.00000000 0.00000000 0.00000000 0.00000000 
307802960 0.00000000 0.00000000 -50.19334405 -106.64578079 0.00000000 0.00000000 0.00000000 0.00000000 
309720478 0.00000000 0.00000000 -51.74562992 -111.29953643 0.00000000 0.00000000 0.00000000 0.00000000 
311637996 0.00000000 0.00000000 -52.08837852 -117.03286804 0.00000000 0.00000000 0.00000000 0.00000000 
313555514 0.00000000 0.00000000 -52.48898221 -120.95333025 0.00000000 0.00000000 0.00000000 0.00000000 
315473034 0.00000000 0.00000000 -51.42688029 -128.32428227 0.00000000 0.00000000 0.00000000 0.00000000 
317390552 0.00000000 0.00000000 -52.43076555 -123.71037354 0.00000000 0.00000000 0.00000000 0.00000000 
319308070 0.00000000 0.00000000 -53.71093755 -133.41242891 0.00000000 0.00000000 0.00000000 0.00000000 
321225588 0.00000000 0.00000000 -56.62641513 -139.05830748 0.00000000 0.00000000 0.00000000 0.00000000 
323143108 0.00000000 0.00000000 -54.27378576 -149.60192638 0.00000000 0.00000000 0.00000000 0.00000000 
325060626 0.00000000 0.00000000 -53.77625379 -159.13882010 0.00000000 0.00000000 0.00000000 0.00000000 
326978144 0.00000000 0.00000000 -53.75076020 -154.87461459 0.00000000 0.00000000 0.00000000 0.00000000 
328895662 0.00000000 0.00000000 -53.67453986 -150.30655422 0.00000000 0.00000000 0.00000000 0.00000000 
330813182 0.00000000 0.00000000 -52.21076516 -153.42457032 0.00000000 0.00000000 0.00000000 0.00000000 
332730700 0.00000000 0.00000000 -52.04278322 -156.73168340 0.00000000 0.00000000 0.00000000 0.00000000 
334648218 0.00000000 0.00000000 -51.79596022 -163.28865166 0.00000000 0.00000000 0.00000000 0.00000000 
336565736 0.00000000 0.00000000 -52.19889682 -172.63153966 0.00000000 0.00000000 0.00000000 0.00000000 
338483256 0.00000000 0.00000000 -50.10280695 -174.32893814 0.00000000 0.00000000 0.00000000 0.00000000 
340400774 0.00000000 0.00000000 -50.97757224 -179.98898931 0.00000000 0.00000000 0.00000000 0.00000000 
342318292 0.00000000 0.00000000 -51.12603492 171.91231901 0.00000000 0.00000000 0.00000000 0.00000000 
344235810 0.00000000 0.00000000 -52.61644946 160.89870621 0.00000000 0.00000000 0.00000000 0.00000000 
346153330 0.00000000 0.00000000 -50.72212611 153.29399499 0.00000000 0.00000000 0.00000000 0.00000000 
348070848 0.00000000 0.00000000 -52.53360025 140.79957647 0.00000000 0.00000000 0.00000000 0.00000000 
349988366 0.00000000 0.00000000 -52.23577341 135.19655945 0.00000000 0.00000000 0.00000000 0.00000000 
351905884 0.00000000 0.00000000 -52.13711927 126.51325282 0.00000000 0.00000000 0.00000000 0.00000000 
353823404 0.00000000 0.00000000 -51.17887731 125.27720657 0.00000000 0.00000000 0.00000000 0.00000000 
355740922 0.00000000 0.00000000 -53.79859486 109.12292840 0.00000000 0.00000000 0.00000000 0.00000000 
357658440 0.00000000 0.00000000 -53.98770789 90.56184184 0.00000000 0.00000000 0.00000000 0.00000000 
359575958 0.00000000 0.00000000 -55.13539247 78.36042304 0.00000000 0.00000000 0.00000000 0.00000000 
361493478 0.00000000 0.00000000 -52.81708382 65.93691252 0.00000000 0.00000000 0.00000000 0.00000000 
363410996 0.00000000 0.00000000 -53.16455770 52.35720943 0.00000000 0.00000000 0.00000000 0.00000000 
365328514 0.00000000 0.00000000 -53.54806286 39.02429910 0.00000000 0.00000000 0.00000000 0.00000000 
367246032 0.00000000 0.00000000 -54.33619945 37.27255088 0.00000000 0.00000000 0.00000000 0.00000000 
369163552 0.00000000 0.00000000 -52.19884903 25.90899006 0.00000000 0.00000000 0.00000000 0.00000000 
