! created by ADMIN at Tue Apr 21 15:27:10 IST 2026
! generated using vna/J Version 3.2.10
# Hz S DB R 50
001000000 0.00000000 0.00000000 -64.31662070 57.82015524 0.00000000 0.00000000 0.00000000 0.00000000 
002917518 0.00000000 0.00000000 -69.67174402 84.24681790 0.00000000 0.00000000 0.00000000 0.00000000 
004835036 0.00000000 0.00000000 -72.86723086 90.54383791 0.00000000 0.00000000 0.00000000 0.00000000 
006752554 0.00000000 0.00000000 -71.32969892 14.40760158 0.00000000 0.00000000 0.00000000 0.00000000 
008670074 0.00000000 0.00000000 -80.00000000 141.30141872 0.00000000 0.00000000 0.00000000 0.00000000 
010587592 0.00000000 0.00000000 -72.60639392 65.46600951 0.00000000 0.00000000 0.00000000 0.00000000 
012505110 0.00000000 0.00000000 -72.09209524 72.04644859 0.00000000 0.00000000 0.00000000 0.00000000 
014422628 0.00000000 0.00000000 -73.00194660 85.39281019 0.00000000 0.00000000 0.00000000 0.00000000 
016340148 0.00000000 0.00000000 -74.71832666 82.13773348 0.00000000 0.00000000 0.00000000 0.00000000 
018257666 0.00000000 0.00000000 -75.01413960 38.05253566 0.00000000 0.00000000 0.00000000 0.00000000 
020175184 0.00000000 0.00000000 -73.39987825 -1.34097353 0.00000000 0.00000000 0.00000000 0.00000000 
022092702 0.00000000 0.00000000 -68.16414008 -20.01054302 0.00000000 0.00000000 0.00000000 0.00000000 
024010222 0.00000000 0.00000000 -66.99879618 -59.03410240 0.00000000 0.00000000 0.00000000 0.00000000 
025927740 0.00000000 0.00000000 -63.86785073 -13.67848916 0.00000000 0.00000000 0.00000000 0.00000000 
027845258 0.00000000 0.00000000 -70.07161605 16.66990944 0.00000000 0.00000000 0.00000000 0.00000000 
029762776 0.00000000 0.00000000 -71.52501884 59.06195708 0.00000000 0.00000000 0.00000000 0.00000000 
031680296 0.00000000 0.00000000 -63.75811306 62.49577898 0.00000000 0.00000000 0.00000000 0.00000000 
033597814 0.00000000 0.00000000 -70.93831727 79.28039890 0.00000000 0.00000000 0.00000000 0.00000000 
035515332 0.00000000 0.00000000 -69.92979256 88.09050535 0.00000000 0.00000000 0.00000000 0.00000000 
037432850 0.00000000 0.00000000 -73.32129587 162.67692917 0.00000000 0.00000000 0.00000000 0.00000000 
039350370 0.00000000 0.00000000 -79.42002309 117.42504349 0.00000000 0.00000000 0.00000000 0.00000000 
041267888 0.00000000 0.00000000 -80.00000000 -171.73365019 0.00000000 0.00000000 0.00000000 0.00000000 
043185406 0.00000000 0.00000000 -74.64915642 -139.35904884 0.00000000 0.00000000 0.00000000 0.00000000 
045102924 0.00000000 0.00000000 -78.82161305 116.68654473 0.00000000 0.00000000 0.00000000 0.00000000 
047020444 0.00000000 0.00000000 -75.76456475 -62.62367089 0.00000000 0.00000000 0.00000000 0.00000000 
048937962 0.00000000 0.00000000 -76.71475495 -171.43141875 0.00000000 0.00000000 0.00000000 0.00000000 
050855480 0.00000000 0.00000000 -79.13410789 142.56152564 0.00000000 0.00000000 0.00000000 0.00000000 
052772998 0.00000000 0.00000000 -80.00000000 115.88524102 0.00000000 0.00000000 0.00000000 0.00000000 
054690518 0.00000000 0.00000000 -71.30159048 103.07119890 0.00000000 0.00000000 0.00000000 0.00000000 
056608036 0.00000000 0.00000000 -67.22287961 108.44525295 0.00000000 0.00000000 0.00000000 0.00000000 
058525554 0.00000000 0.00000000 -77.97140096 107.14046622 0.00000000 0.00000000 0.00000000 0.00000000 
060443072 0.00000000 0.00000000 -69.66751646 7.51261818 0.00000000 0.00000000 0.00000000 0.00000000 
062360592 0.00000000 0.00000000 -69.90093086 4.46510561 0.00000000 0.00000000 0.00000000 0.00000000 
064278110 0.00000000 0.00000000 -70.44456032 40.15971699 0.00000000 0.00000000 0.00000000 0.00000000 
066195628 0.00000000 0.00000000 -77.75473989 -68.78666088 0.00000000 0.00000000 0.00000000 0.00000000 
068113146 0.00000000 0.00000000 -76.54271839 18.92070249 0.00000000 0.00000000 0.00000000 0.00000000 
070030666 0.00000000 0.00000000 -71.41051691 64.03390310 0.00000000 0.00000000 0.00000000 0.00000000 
071948184 0.00000000 0.00000000 -79.46546879 -41.48211386 0.00000000 0.00000000 0.00000000 0.00000000 
073865702 0.00000000 0.00000000 -78.98558166 -123.28127800 0.00000000 0.00000000 0.00000000 0.00000000 
075783220 0.00000000 0.00000000 -77.08477212 -136.60336951 0.00000000 0.00000000 0.00000000 0.00000000 
077700740 0.00000000 0.00000000 -78.27492501 -126.86903508 0.00000000 0.00000000 0.00000000 0.00000000 
079618258 0.00000000 0.00000000 -68.88389379 -91.54902786 0.00000000 0.00000000 0.00000000 0.00000000 
081535776 0.00000000 0.00000000 -74.28403827 -67.01081552 0.00000000 0.00000000 0.00000000 0.00000000 
083453294 0.00000000 0.00000000 -66.96365191 -65.48453264 0.00000000 0.00000000 0.00000000 0.00000000 
085370814 0.00000000 0.00000000 -66.70518930 -83.28638556 0.00000000 0.00000000 0.00000000 0.00000000 
087288332 0.00000000 0.00000000 -65.89878318 -77.07593900 0.00000000 0.00000000 0.00000000 0.00000000 
089205850 0.00000000 0.00000000 -74.88345144 29.49081289 0.00000000 0.00000000 0.00000000 0.00000000 
091123368 0.00000000 0.00000000 -72.25551500 64.24634535 0.00000000 0.00000000 0.00000000 0.00000000 
093040888 0.00000000 0.00000000 -68.09631557 118.36266189 0.00000000 0.00000000 0.00000000 0.00000000 
094958406 0.00000000 0.00000000 -73.37578936 129.13646917 0.00000000 0.00000000 0.00000000 0.00000000 
096875924 0.00000000 0.00000000 -80.00000000 49.30589375 0.00000000 0.00000000 0.00000000 0.00000000 
098793442 0.00000000 0.00000000 -72.42427405 -24.30740677 0.00000000 0.00000000 0.00000000 0.00000000 
100710962 0.00000000 0.00000000 -67.09405191 -32.80134148 0.00000000 0.00000000 0.00000000 0.00000000 
102628480 0.00000000 0.00000000 -71.18553509 12.87759183 0.00000000 0.00000000 0.00000000 0.00000000 
104545998 0.00000000 0.00000000 -76.39125989 -173.20840160 0.00000000 0.00000000 0.00000000 0.00000000 
106463516 0.00000000 0.00000000 -67.94594844 -171.99576675 0.00000000 0.00000000 0.00000000 0.00000000 
108381036 0.00000000 0.00000000 -76.19147360 162.61146228 0.00000000 0.00000000 0.00000000 0.00000000 
110298554 0.00000000 0.00000000 -67.53108406 -167.85872442 0.00000000 0.00000000 0.00000000 0.00000000 
112216072 0.00000000 0.00000000 -65.65860695 145.89661060 0.00000000 0.00000000 0.00000000 0.00000000 
114133590 0.00000000 0.00000000 -63.88572835 163.74224963 0.00000000 0.00000000 0.00000000 0.00000000 
116051110 0.00000000 0.00000000 -66.61695225 126.76938914 0.00000000 0.00000000 0.00000000 0.00000000 
117968628 0.00000000 0.00000000 -66.57648674 147.05926847 0.00000000 0.00000000 0.00000000 0.00000000 
119886146 0.00000000 0.00000000 -69.62959536 171.24461749 0.00000000 0.00000000 0.00000000 0.00000000 
121803664 0.00000000 0.00000000 -70.00990379 -157.94051090 0.00000000 0.00000000 0.00000000 0.00000000 
123721184 0.00000000 0.00000000 -66.16308550 170.39979059 0.00000000 0.00000000 0.00000000 0.00000000 
125638702 0.00000000 0.00000000 -64.79426971 -134.02090755 0.00000000 0.00000000 0.00000000 0.00000000 
127556220 0.00000000 0.00000000 -65.22254531 -106.16670359 0.00000000 0.00000000 0.00000000 0.00000000 
129473738 0.00000000 0.00000000 -62.63108452 -105.32991977 0.00000000 0.00000000 0.00000000 0.00000000 
131391258 0.00000000 0.00000000 -61.59188582 -100.65138356 0.00000000 0.00000000 0.00000000 0.00000000 
133308776 0.00000000 0.00000000 -60.46181668 -116.99717618 0.00000000 0.00000000 0.00000000 0.00000000 
135226294 0.00000000 0.00000000 -69.58746734 -108.52770816 0.00000000 0.00000000 0.00000000 0.00000000 
137143812 0.00000000 0.00000000 -67.41253009 -71.82732294 0.00000000 0.00000000 0.00000000 0.00000000 
139061332 0.00000000 0.00000000 -69.85245828 -91.48731511 0.00000000 0.00000000 0.00000000 0.00000000 
140978850 0.00000000 0.00000000 -70.06718384 -112.47391471 0.00000000 0.00000000 0.00000000 0.00000000 
142896368 0.00000000 0.00000000 -70.80636098 -128.29850567 0.00000000 0.00000000 0.00000000 0.00000000 
144813886 0.00000000 0.00000000 -61.05636711 -119.61409240 0.00000000 0.00000000 0.00000000 0.00000000 
146731406 0.00000000 0.00000000 -58.82894263 -123.79644460 0.00000000 0.00000000 0.00000000 0.00000000 
148648924 0.00000000 0.00000000 -66.55927094 -125.93114602 0.00000000 0.00000000 0.00000000 0.00000000 
150566442 0.00000000 0.00000000 -77.42822358 -166.79741549 0.00000000 0.00000000 0.00000000 0.00000000 
152483960 0.00000000 0.00000000 -67.53550535 78.00893363 0.00000000 0.00000000 0.00000000 0.00000000 
154401480 0.00000000 0.00000000 -61.50492324 109.77572899 0.00000000 0.00000000 0.00000000 0.00000000 
156318998 0.00000000 0.00000000 -64.84048519 122.65124485 0.00000000 0.00000000 0.00000000 0.00000000 
158236516 0.00000000 0.00000000 -73.35967285 70.18588612 0.00000000 0.00000000 0.00000000 0.00000000 
160154034 0.00000000 0.00000000 -68.25610742 55.47513801 0.00000000 0.00000000 0.00000000 0.00000000 
162071554 0.00000000 0.00000000 -66.93267132 39.70197469 0.00000000 0.00000000 0.00000000 0.00000000 
163989072 0.00000000 0.00000000 -76.78463208 -4.86645610 0.00000000 0.00000000 0.00000000 0.00000000 
165906590 0.00000000 0.00000000 -64.41842145 20.59006835 0.00000000 0.00000000 0.00000000 0.00000000 
167824108 0.00000000 0.00000000 -70.44377286 -48.19532739 0.00000000 0.00000000 0.00000000 0.00000000 
169741628 0.00000000 0.00000000 -66.75496419 4.32098613 0.00000000 0.00000000 0.00000000 0.00000000 
171659146 0.00000000 0.00000000 -70.87953007 19.54308159 0.00000000 0.00000000 0.00000000 0.00000000 
173576664 0.00000000 0.00000000 -70.61428991 9.34368424 0.00000000 0.00000000 0.00000000 0.00000000 
175494182 0.00000000 0.00000000 -67.54700622 16.75658410 0.00000000 0.00000000 0.00000000 0.00000000 
177411702 0.00000000 0.00000000 -66.12313135 11.02957704 0.00000000 0.00000000 0.00000000 0.00000000 
179329220 0.00000000 0.00000000 -64.20368522 30.35386372 0.00000000 0.00000000 0.00000000 0.00000000 
181246738 0.00000000 0.00000000 -65.87086479 33.15820996 0.00000000 0.00000000 0.00000000 0.00000000 
183164256 0.00000000 0.00000000 -64.47391410 96.95895517 0.00000000 0.00000000 0.00000000 0.00000000 
185081776 0.00000000 0.00000000 -71.17620804 63.88364521 0.00000000 0.00000000 0.00000000 0.00000000 
186999294 0.00000000 0.00000000 -66.42576183 38.65030169 0.00000000 0.00000000 0.00000000 0.00000000 
188916812 0.00000000 0.00000000 -66.66300701 76.86983637 0.00000000 0.00000000 0.00000000 0.00000000 
190834330 0.00000000 0.00000000 -70.81495714 72.65983144 0.00000000 0.00000000 0.00000000 0.00000000 
192751850 0.00000000 0.00000000 -68.15636742 92.34708039 0.00000000 0.00000000 0.00000000 0.00000000 
194669368 0.00000000 0.00000000 -69.73323232 74.81036119 0.00000000 0.00000000 0.00000000 0.00000000 
196586886 0.00000000 0.00000000 -73.89933374 110.53985225 0.00000000 0.00000000 0.00000000 0.00000000 
198504404 0.00000000 0.00000000 -75.41882913 151.14378440 0.00000000 0.00000000 0.00000000 0.00000000 
200421924 0.00000000 0.00000000 -75.88458326 130.69126360 0.00000000 0.00000000 0.00000000 0.00000000 
202339442 0.00000000 0.00000000 -73.12322233 -143.60601440 0.00000000 0.00000000 0.00000000 0.00000000 
204256960 0.00000000 0.00000000 -68.97223573 -109.29114665 0.00000000 0.00000000 0.00000000 0.00000000 
206174478 0.00000000 0.00000000 -72.28643407 -10.99776344 0.00000000 0.00000000 0.00000000 0.00000000 
208091998 0.00000000 0.00000000 -72.80020751 -35.51066051 0.00000000 0.00000000 0.00000000 0.00000000 
210009516 0.00000000 0.00000000 -69.70029750 8.14266990 0.00000000 0.00000000 0.00000000 0.00000000 
211927034 0.00000000 0.00000000 -77.31052343 129.35756824 0.00000000 0.00000000 0.00000000 0.00000000 
213844552 0.00000000 0.00000000 -72.45473827 107.18350753 0.00000000 0.00000000 0.00000000 0.00000000 
215762072 0.00000000 0.00000000 -80.00000000 -122.33034812 0.00000000 0.00000000 0.00000000 0.00000000 
217679590 0.00000000 0.00000000 -72.57352248 -174.97751186 0.00000000 0.00000000 0.00000000 0.00000000 
219597108 0.00000000 0.00000000 -78.51719622 -161.57236532 0.00000000 0.00000000 0.00000000 0.00000000 
221514626 0.00000000 0.00000000 -66.60140086 -58.49934795 0.00000000 0.00000000 0.00000000 0.00000000 
223432146 0.00000000 0.00000000 -66.03794411 -52.28867776 0.00000000 0.00000000 0.00000000 0.00000000 
225349664 0.00000000 0.00000000 -74.88668218 -97.81678885 0.00000000 0.00000000 0.00000000 0.00000000 
227267182 0.00000000 0.00000000 -80.00000000 13.69613955 0.00000000 0.00000000 0.00000000 0.00000000 
229184700 0.00000000 0.00000000 -80.00000000 -136.85923016 0.00000000 0.00000000 0.00000000 0.00000000 
231102220 0.00000000 0.00000000 -73.94481171 74.64245819 0.00000000 0.00000000 0.00000000 0.00000000 
233019738 0.00000000 0.00000000 -74.15634534 -87.32982114 0.00000000 0.00000000 0.00000000 0.00000000 
234937256 0.00000000 0.00000000 -71.92595725 -46.89960178 0.00000000 0.00000000 0.00000000 0.00000000 
236854774 0.00000000 0.00000000 -72.73313148 -115.47093090 0.00000000 0.00000000 0.00000000 0.00000000 
238772294 0.00000000 0.00000000 -63.27784418 -67.16886370 0.00000000 0.00000000 0.00000000 0.00000000 
240689812 0.00000000 0.00000000 -70.88841709 -65.74631676 0.00000000 0.00000000 0.00000000 0.00000000 
242607330 0.00000000 0.00000000 -74.07388982 -24.84601863 0.00000000 0.00000000 0.00000000 0.00000000 
244524848 0.00000000 0.00000000 -72.80659712 136.86728748 0.00000000 0.00000000 0.00000000 0.00000000 
246442368 0.00000000 0.00000000 -64.30215026 133.91771568 0.00000000 0.00000000 0.00000000 0.00000000 
248359886 0.00000000 0.00000000 -70.03480348 140.14589512 0.00000000 0.00000000 0.00000000 0.00000000 
250277404 0.00000000 0.00000000 -65.03068916 -144.28422017 0.00000000 0.00000000 0.00000000 0.00000000 
252194922 0.00000000 0.00000000 -65.44826440 -165.09875273 0.00000000 0.00000000 0.00000000 0.00000000 
254112442 0.00000000 0.00000000 -61.88784836 -146.89871015 0.00000000 0.00000000 0.00000000 0.00000000 
256029960 0.00000000 0.00000000 -62.92131521 -151.75892176 0.00000000 0.00000000 0.00000000 0.00000000 
257947478 0.00000000 0.00000000 -65.52311062 -134.18795976 0.00000000 0.00000000 0.00000000 0.00000000 
259864996 0.00000000 0.00000000 -72.14150990 -126.66934338 0.00000000 0.00000000 0.00000000 0.00000000 
261782516 0.00000000 0.00000000 -72.31187538 158.12151804 0.00000000 0.00000000 0.00000000 0.00000000 
263700034 0.00000000 0.00000000 -75.21769402 -150.46475397 0.00000000 0.00000000 0.00000000 0.00000000 
265617552 0.00000000 0.00000000 -69.26289129 155.46248805 0.00000000 0.00000000 0.00000000 0.00000000 
267535070 0.00000000 0.00000000 -71.43317479 99.30046326 0.00000000 0.00000000 0.00000000 0.00000000 
269452590 0.00000000 0.00000000 -70.80383650 106.24483652 0.00000000 0.00000000 0.00000000 0.00000000 
271370108 0.00000000 0.00000000 -79.45158499 15.15972883 0.00000000 0.00000000 0.00000000 0.00000000 
273287626 0.00000000 0.00000000 -70.30210833 90.58684053 0.00000000 0.00000000 0.00000000 0.00000000 
275205144 0.00000000 0.00000000 -64.52229312 113.62818404 0.00000000 0.00000000 0.00000000 0.00000000 
277122664 0.00000000 0.00000000 -74.15265275 145.55832978 0.00000000 0.00000000 0.00000000 0.00000000 
279040182 0.00000000 0.00000000 -68.50408058 66.22827317 0.00000000 0.00000000 0.00000000 0.00000000 
280957700 0.00000000 0.00000000 -64.79015901 147.40114305 0.00000000 0.00000000 0.00000000 0.00000000 
282875218 0.00000000 0.00000000 -80.00000000 20.27645203 0.00000000 0.00000000 0.00000000 0.00000000 
284792738 0.00000000 0.00000000 -79.06906308 48.06748271 0.00000000 0.00000000 0.00000000 0.00000000 
286710256 0.00000000 0.00000000 -70.55072722 -46.41954504 0.00000000 0.00000000 0.00000000 0.00000000 
288627774 0.00000000 0.00000000 -80.00000000 -160.36031382 0.00000000 0.00000000 0.00000000 0.00000000 
290545292 0.00000000 0.00000000 -67.11822387 -38.30387046 0.00000000 0.00000000 0.00000000 0.00000000 
292462812 0.00000000 0.00000000 -72.82472201 31.12027667 0.00000000 0.00000000 0.00000000 0.00000000 
294380330 0.00000000 0.00000000 -70.20353631 -129.94164083 0.00000000 0.00000000 0.00000000 0.00000000 
296297848 0.00000000 0.00000000 -62.06704050 -42.43509674 0.00000000 0.00000000 0.00000000 0.00000000 
298215366 0.00000000 0.00000000 -69.90788092 -29.60886200 0.00000000 0.00000000 0.00000000 0.00000000 
300132886 0.00000000 0.00000000 -65.08484477 -7.72799773 0.00000000 0.00000000 0.00000000 0.00000000 
302050404 0.00000000 0.00000000 -66.78286542 -15.91513427 0.00000000 0.00000000 0.00000000 0.00000000 
303967922 0.00000000 0.00000000 -69.04433636 -36.51410661 0.00000000 0.00000000 0.00000000 0.00000000 
305885440 0.00000000 0.00000000 -76.07863738 -98.53655131 0.00000000 0.00000000 0.00000000 0.00000000 
307802960 0.00000000 0.00000000 -66.75192113 -88.25513564 0.00000000 0.00000000 0.00000000 0.00000000 
309720478 0.00000000 0.00000000 -73.24601576 -84.54254260 0.00000000 0.00000000 0.00000000 0.00000000 
311637996 0.00000000 0.00000000 -71.68428099 -90.83241726 0.00000000 0.00000000 0.00000000 0.00000000 
313555514 0.00000000 0.00000000 -71.76531833 -57.66335527 0.00000000 0.00000000 0.00000000 0.00000000 
315473034 0.00000000 0.00000000 -69.62559064 -93.14085248 0.00000000 0.00000000 0.00000000 0.00000000 
317390552 0.00000000 0.00000000 -65.56196461 -72.53547851 0.00000000 0.00000000 0.00000000 0.00000000 
319308070 0.00000000 0.00000000 -69.97868442 -90.75956901 0.00000000 0.00000000 0.00000000 0.00000000 
321225588 0.00000000 0.00000000 -69.54664431 -6.15101387 0.00000000 0.00000000 0.00000000 0.00000000 
323143108 0.00000000 0.00000000 -70.61982466 -102.58329420 0.00000000 0.00000000 0.00000000 0.00000000 
325060626 0.00000000 0.00000000 -73.09449407 -164.77306286 0.00000000 0.00000000 0.00000000 0.00000000 
326978144 0.00000000 0.00000000 -76.63645303 -96.32510430 0.00000000 0.00000000 0.00000000 0.00000000 
328895662 0.00000000 0.00000000 -71.38648025 -42.15655869 0.00000000 0.00000000 0.00000000 0.00000000 
330813182 0.00000000 0.00000000 -80.00000000 -114.99899597 0.00000000 0.00000000 0.00000000 0.00000000 
332730700 0.00000000 0.00000000 -70.46422721 -119.64844665 0.00000000 0.00000000 0.00000000 0.00000000 
334648218 0.00000000 0.00000000 -69.86945688 -128.29167656 0.00000000 0.00000000 0.00000000 0.00000000 
336565736 0.00000000 0.00000000 -80.00000000 15.65928043 0.00000000 0.00000000 0.00000000 0.00000000 
338483256 0.00000000 0.00000000 -70.08592238 -163.60299262 0.00000000 0.00000000 0.00000000 0.00000000 
340400774 0.00000000 0.00000000 -67.42525893 -164.76079823 0.00000000 0.00000000 0.00000000 0.00000000 
342318292 0.00000000 0.00000000 -64.63438953 -164.61027193 0.00000000 0.00000000 0.00000000 0.00000000 
344235810 0.00000000 0.00000000 -72.04192820 -107.97085906 0.00000000 0.00000000 0.00000000 0.00000000 
346153330 0.00000000 0.00000000 -67.93027504 -147.85392419 0.00000000 0.00000000 0.00000000 0.00000000 
348070848 0.00000000 0.00000000 -80.00000000 -37.57622290 0.00000000 0.00000000 0.00000000 0.00000000 
349988366 0.00000000 0.00000000 -72.36098046 166.77078694 0.00000000 0.00000000 0.00000000 0.00000000 
351905884 0.00000000 0.00000000 -72.21955268 166.98690577 0.00000000 0.00000000 0.00000000 0.00000000 
353823404 0.00000000 0.00000000 -65.69157052 -173.37137089 0.00000000 0.00000000 0.00000000 0.00000000 
355740922 0.00000000 0.00000000 -79.25289278 -162.40453234 0.00000000 0.00000000 0.00000000 0.00000000 
357658440 0.00000000 0.00000000 -74.58547797 101.45266993 0.00000000 0.00000000 0.00000000 0.00000000 
359575958 0.00000000 0.00000000 -70.99923551 -144.80323042 0.00000000 0.00000000 0.00000000 0.00000000 
361493478 0.00000000 0.00000000 -73.27033577 -171.84061162 0.00000000 0.00000000 0.00000000 0.00000000 
363410996 0.00000000 0.00000000 -72.74925140 78.57809593 0.00000000 0.00000000 0.00000000 0.00000000 
365328514 0.00000000 0.00000000 -70.31583806 85.63787393 0.00000000 0.00000000 0.00000000 0.00000000 
367246032 0.00000000 0.00000000 -62.81045508 139.72580007 0.00000000 0.00000000 0.00000000 0.00000000 
369163552 0.00000000 0.00000000 -62.81749886 128.34052653 0.00000000 0.00000000 0.00000000 0.00000000 
