! created by ADMIN at Mon Apr 20 18:57:48 IST 2026
! generated using vna/J Version 3.2.10
# Hz S DB R 50
001000000 0.00000000 0.00000000 -66.46428697 74.62709995 0.00000000 0.00000000 0.00000000 0.00000000 
002917518 0.00000000 0.00000000 -73.07136714 93.02905960 0.00000000 0.00000000 0.00000000 0.00000000 
004835036 0.00000000 0.00000000 -75.55347209 56.52804396 0.00000000 0.00000000 0.00000000 0.00000000 
006752554 0.00000000 0.00000000 -66.47128546 3.04864667 0.00000000 0.00000000 0.00000000 0.00000000 
008670074 0.00000000 0.00000000 -69.94629550 13.54854712 0.00000000 0.00000000 0.00000000 0.00000000 
010587592 0.00000000 0.00000000 -65.40239868 39.83815378 0.00000000 0.00000000 0.00000000 0.00000000 
012505110 0.00000000 0.00000000 -64.91371365 49.50223509 0.00000000 0.00000000 0.00000000 0.00000000 
014422628 0.00000000 0.00000000 -65.14228575 60.17928119 0.00000000 0.00000000 0.00000000 0.00000000 
016340148 0.00000000 0.00000000 -65.32407170 64.39188048 0.00000000 0.00000000 0.00000000 0.00000000 
018257666 0.00000000 0.00000000 -65.04031696 58.54009978 0.00000000 0.00000000 0.00000000 0.00000000 
020175184 0.00000000 0.00000000 -65.85210724 55.26854243 0.00000000 0.00000000 0.00000000 0.00000000 
022092702 0.00000000 0.00000000 -66.33504456 43.03166994 0.00000000 0.00000000 0.00000000 0.00000000 
024010222 0.00000000 0.00000000 -75.93359846 49.40584293 0.00000000 0.00000000 0.00000000 0.00000000 
025927740 0.00000000 0.00000000 -65.83206649 17.50384566 0.00000000 0.00000000 0.00000000 0.00000000 
027845258 0.00000000 0.00000000 -69.78372821 49.98024136 0.00000000 0.00000000 0.00000000 0.00000000 
029762776 0.00000000 0.00000000 -71.05820717 62.42451165 0.00000000 0.00000000 0.00000000 0.00000000 
031680296 0.00000000 0.00000000 -63.93203766 47.24008388 0.00000000 0.00000000 0.00000000 0.00000000 
033597814 0.00000000 0.00000000 -66.96866676 32.29853419 0.00000000 0.00000000 0.00000000 0.00000000 
035515332 0.00000000 0.00000000 -63.53432663 36.71430494 0.00000000 0.00000000 0.00000000 0.00000000 
037432850 0.00000000 0.00000000 -64.87058814 35.46517942 0.00000000 0.00000000 0.00000000 0.00000000 
039350370 0.00000000 0.00000000 -60.54743888 37.75619546 0.00000000 0.00000000 0.00000000 0.00000000 
041267888 0.00000000 0.00000000 -59.58658924 19.86665145 0.00000000 0.00000000 0.00000000 0.00000000 
043185406 0.00000000 0.00000000 -58.00611222 10.53095304 0.00000000 0.00000000 0.00000000 0.00000000 
045102924 0.00000000 0.00000000 -55.05631544 17.36422388 0.00000000 0.00000000 0.00000000 0.00000000 
047020444 0.00000000 0.00000000 -53.17027594 12.08947631 0.00000000 0.00000000 0.00000000 0.00000000 
048937962 0.00000000 0.00000000 -56.22771067 13.35918496 0.00000000 0.00000000 0.00000000 0.00000000 
050855480 0.00000000 0.00000000 -58.06903864 4.48212154 0.00000000 0.00000000 0.00000000 0.00000000 
052772998 0.00000000 0.00000000 -58.73817438 -15.88208843 0.00000000 0.00000000 0.00000000 0.00000000 
054690518 0.00000000 0.00000000 -58.31874984 -28.97431921 0.00000000 0.00000000 0.00000000 0.00000000 
056608036 0.00000000 0.00000000 -61.85421296 -7.79376320 0.00000000 0.00000000 0.00000000 0.00000000 
058525554 0.00000000 0.00000000 -63.86493831 -14.07557647 0.00000000 0.00000000 0.00000000 0.00000000 
060443072 0.00000000 0.00000000 -63.42441662 -7.56123804 0.00000000 0.00000000 0.00000000 0.00000000 
062360592 0.00000000 0.00000000 -69.87390214 -6.26734823 0.00000000 0.00000000 0.00000000 0.00000000 
064278110 0.00000000 0.00000000 -72.29086511 8.16545399 0.00000000 0.00000000 0.00000000 0.00000000 
066195628 0.00000000 0.00000000 -68.43622045 -79.39207531 0.00000000 0.00000000 0.00000000 0.00000000 
068113146 0.00000000 0.00000000 -68.27188519 -52.35180604 0.00000000 0.00000000 0.00000000 0.00000000 
070030666 0.00000000 0.00000000 -68.65399369 -31.52316608 0.00000000 0.00000000 0.00000000 0.00000000 
071948184 0.00000000 0.00000000 -68.19482900 -46.18086854 0.00000000 0.00000000 0.00000000 0.00000000 
073865702 0.00000000 0.00000000 -78.92607250 -47.51340181 0.00000000 0.00000000 0.00000000 0.00000000 
075783220 0.00000000 0.00000000 -77.89384099 124.56411223 0.00000000 0.00000000 0.00000000 0.00000000 
077700740 0.00000000 0.00000000 -69.71803994 128.84740807 0.00000000 0.00000000 0.00000000 0.00000000 
079618258 0.00000000 0.00000000 -80.00000000 -3.25724843 0.00000000 0.00000000 0.00000000 0.00000000 
081535776 0.00000000 0.00000000 -66.21341209 31.83624067 0.00000000 0.00000000 0.00000000 0.00000000 
083453294 0.00000000 0.00000000 -62.62196073 14.42286031 0.00000000 0.00000000 0.00000000 0.00000000 
085370814 0.00000000 0.00000000 -61.61007381 26.68330847 0.00000000 0.00000000 0.00000000 0.00000000 
087288332 0.00000000 0.00000000 -61.81717320 6.10660868 0.00000000 0.00000000 0.00000000 0.00000000 
089205850 0.00000000 0.00000000 -59.36404349 24.23828283 0.00000000 0.00000000 0.00000000 0.00000000 
091123368 0.00000000 0.00000000 -58.56164304 19.51084168 0.00000000 0.00000000 0.00000000 0.00000000 
093040888 0.00000000 0.00000000 -58.80568972 21.16433425 0.00000000 0.00000000 0.00000000 0.00000000 
094958406 0.00000000 0.00000000 -59.48879733 20.52200099 0.00000000 0.00000000 0.00000000 0.00000000 
096875924 0.00000000 0.00000000 -59.29247286 18.68241675 0.00000000 0.00000000 0.00000000 0.00000000 
098793442 0.00000000 0.00000000 -59.22452638 14.26691763 0.00000000 0.00000000 0.00000000 0.00000000 
100710962 0.00000000 0.00000000 -59.36224254 8.70896232 0.00000000 0.00000000 0.00000000 0.00000000 
102628480 0.00000000 0.00000000 -59.58439880 25.33930581 0.00000000 0.00000000 0.00000000 0.00000000 
104545998 0.00000000 0.00000000 -63.94850039 36.26807720 0.00000000 0.00000000 0.00000000 0.00000000 
106463516 0.00000000 0.00000000 -67.29973276 51.54118109 0.00000000 0.00000000 0.00000000 0.00000000 
108381036 0.00000000 0.00000000 -63.26508640 37.53304156 0.00000000 0.00000000 0.00000000 0.00000000 
110298554 0.00000000 0.00000000 -66.70532924 53.11494777 0.00000000 0.00000000 0.00000000 0.00000000 
112216072 0.00000000 0.00000000 -61.17598833 71.59127548 0.00000000 0.00000000 0.00000000 0.00000000 
114133590 0.00000000 0.00000000 -61.76934273 84.93327713 0.00000000 0.00000000 0.00000000 0.00000000 
116051110 0.00000000 0.00000000 -58.80679892 70.16865292 0.00000000 0.00000000 0.00000000 0.00000000 
117968628 0.00000000 0.00000000 -58.95521570 63.21491205 0.00000000 0.00000000 0.00000000 0.00000000 
119886146 0.00000000 0.00000000 -58.27558359 49.28744886 0.00000000 0.00000000 0.00000000 0.00000000 
121803664 0.00000000 0.00000000 -57.02916684 43.33256702 0.00000000 0.00000000 0.00000000 0.00000000 
123721184 0.00000000 0.00000000 -54.99986886 55.63627411 0.00000000 0.00000000 0.00000000 0.00000000 
125638702 0.00000000 0.00000000 -56.09220200 43.32227285 0.00000000 0.00000000 0.00000000 0.00000000 
127556220 0.00000000 0.00000000 -54.72520168 37.34453637 0.00000000 0.00000000 0.00000000 0.00000000 
129473738 0.00000000 0.00000000 -54.59150547 38.14731773 0.00000000 0.00000000 0.00000000 0.00000000 
131391258 0.00000000 0.00000000 -53.88337050 40.74948477 0.00000000 0.00000000 0.00000000 0.00000000 
133308776 0.00000000 0.00000000 -55.08528996 44.18281279 0.00000000 0.00000000 0.00000000 0.00000000 
135226294 0.00000000 0.00000000 -52.39696363 45.24443995 0.00000000 0.00000000 0.00000000 0.00000000 
137143812 0.00000000 0.00000000 -51.66511011 38.75521482 0.00000000 0.00000000 0.00000000 0.00000000 
139061332 0.00000000 0.00000000 -51.21937497 41.88302291 0.00000000 0.00000000 0.00000000 0.00000000 
140978850 0.00000000 0.00000000 -50.55117449 43.18658975 0.00000000 0.00000000 0.00000000 0.00000000 
142896368 0.00000000 0.00000000 -49.57266185 45.32174285 0.00000000 0.00000000 0.00000000 0.00000000 
144813886 0.00000000 0.00000000 -50.03955375 44.59765335 0.00000000 0.00000000 0.00000000 0.00000000 
146731406 0.00000000 0.00000000 -49.54718523 49.18487129 0.00000000 0.00000000 0.00000000 0.00000000 
148648924 0.00000000 0.00000000 -48.91621896 45.18139464 0.00000000 0.00000000 0.00000000 0.00000000 
150566442 0.00000000 0.00000000 -48.56751245 40.29489704 0.00000000 0.00000000 0.00000000 0.00000000 
152483960 0.00000000 0.00000000 -47.49764088 35.82382701 0.00000000 0.00000000 0.00000000 0.00000000 
154401480 0.00000000 0.00000000 -47.05549343 36.71192607 0.00000000 0.00000000 0.00000000 0.00000000 
156318998 0.00000000 0.00000000 -46.74244309 27.01747247 0.00000000 0.00000000 0.00000000 0.00000000 
158236516 0.00000000 0.00000000 -45.25079783 18.67832879 0.00000000 0.00000000 0.00000000 0.00000000 
160154034 0.00000000 0.00000000 -43.80750019 18.63228706 0.00000000 0.00000000 0.00000000 0.00000000 
162071554 0.00000000 0.00000000 -42.53571557 19.49835758 0.00000000 0.00000000 0.00000000 0.00000000 
163989072 0.00000000 0.00000000 -43.15229764 4.97925554 0.00000000 0.00000000 0.00000000 0.00000000 
165906590 0.00000000 0.00000000 -41.85632261 -4.65083599 0.00000000 0.00000000 0.00000000 0.00000000 
167824108 0.00000000 0.00000000 -40.75957485 -14.16832848 0.00000000 0.00000000 0.00000000 0.00000000 
169741628 0.00000000 0.00000000 -39.02480470 -14.37654363 0.00000000 0.00000000 0.00000000 0.00000000 
171659146 0.00000000 0.00000000 -40.74623933 -23.33163157 0.00000000 0.00000000 0.00000000 0.00000000 
173576664 0.00000000 0.00000000 -41.34122255 -37.76202056 0.00000000 0.00000000 0.00000000 0.00000000 
175494182 0.00000000 0.00000000 -40.58982327 -50.94991692 0.00000000 0.00000000 0.00000000 0.00000000 
177411702 0.00000000 0.00000000 -38.95263436 -59.48392840 0.00000000 0.00000000 0.00000000 0.00000000 
179329220 0.00000000 0.00000000 -40.97931334 -62.23284989 0.00000000 0.00000000 0.00000000 0.00000000 
181246738 0.00000000 0.00000000 -42.69432015 -73.19856583 0.00000000 0.00000000 0.00000000 0.00000000 
183164256 0.00000000 0.00000000 -43.72596207 -94.01734856 0.00000000 0.00000000 0.00000000 0.00000000 
185081776 0.00000000 0.00000000 -42.17159580 -107.82526353 0.00000000 0.00000000 0.00000000 0.00000000 
186999294 0.00000000 0.00000000 -43.76087544 -104.54803622 0.00000000 0.00000000 0.00000000 0.00000000 
188916812 0.00000000 0.00000000 -45.47716441 -109.25276819 0.00000000 0.00000000 0.00000000 0.00000000 
190834330 0.00000000 0.00000000 -46.63429439 -115.40372393 0.00000000 0.00000000 0.00000000 0.00000000 
192751850 0.00000000 0.00000000 -47.56452902 -128.88406569 0.00000000 0.00000000 0.00000000 0.00000000 
194669368 0.00000000 0.00000000 -48.90994082 -124.12666893 0.00000000 0.00000000 0.00000000 0.00000000 
196586886 0.00000000 0.00000000 -49.90184273 -124.47017489 0.00000000 0.00000000 0.00000000 0.00000000 
198504404 0.00000000 0.00000000 -50.99663197 -126.95796831 0.00000000 0.00000000 0.00000000 0.00000000 
200421924 0.00000000 0.00000000 -52.51296011 -133.00801559 0.00000000 0.00000000 0.00000000 0.00000000 
202339442 0.00000000 0.00000000 -53.95977139 -132.77336926 0.00000000 0.00000000 0.00000000 0.00000000 
204256960 0.00000000 0.00000000 -55.91050027 -135.52862965 0.00000000 0.00000000 0.00000000 0.00000000 
206174478 0.00000000 0.00000000 -61.66119757 -159.61654488 0.00000000 0.00000000 0.00000000 0.00000000 
208091998 0.00000000 0.00000000 -59.80083719 170.80487598 0.00000000 0.00000000 0.00000000 0.00000000 
210009516 0.00000000 0.00000000 -63.40567260 157.42172005 0.00000000 0.00000000 0.00000000 0.00000000 
211927034 0.00000000 0.00000000 -61.21617682 157.13998297 0.00000000 0.00000000 0.00000000 0.00000000 
213844552 0.00000000 0.00000000 -62.25863659 137.85391588 0.00000000 0.00000000 0.00000000 0.00000000 
215762072 0.00000000 0.00000000 -65.62631985 134.24276229 0.00000000 0.00000000 0.00000000 0.00000000 
217679590 0.00000000 0.00000000 -62.99731885 142.71320463 0.00000000 0.00000000 0.00000000 0.00000000 
219597108 0.00000000 0.00000000 -63.99242506 134.63565698 0.00000000 0.00000000 0.00000000 0.00000000 
221514626 0.00000000 0.00000000 -75.04755417 138.20023387 0.00000000 0.00000000 0.00000000 0.00000000 
223432146 0.00000000 0.00000000 -73.70536424 123.82716359 0.00000000 0.00000000 0.00000000 0.00000000 
225349664 0.00000000 0.00000000 -67.62299789 125.35646536 0.00000000 0.00000000 0.00000000 0.00000000 
227267182 0.00000000 0.00000000 -65.71955689 88.37420270 0.00000000 0.00000000 0.00000000 0.00000000 
229184700 0.00000000 0.00000000 -65.40817848 77.52570932 0.00000000 0.00000000 0.00000000 0.00000000 
231102220 0.00000000 0.00000000 -60.11797985 65.17550084 0.00000000 0.00000000 0.00000000 0.00000000 
233019738 0.00000000 0.00000000 -64.20091968 60.00002108 0.00000000 0.00000000 0.00000000 0.00000000 
234937256 0.00000000 0.00000000 -62.96226870 52.41079390 0.00000000 0.00000000 0.00000000 0.00000000 
236854774 0.00000000 0.00000000 -64.40434162 78.56360760 0.00000000 0.00000000 0.00000000 0.00000000 
238772294 0.00000000 0.00000000 -66.93420568 23.98214069 0.00000000 0.00000000 0.00000000 0.00000000 
240689812 0.00000000 0.00000000 -64.45158641 44.08354240 0.00000000 0.00000000 0.00000000 0.00000000 
242607330 0.00000000 0.00000000 -61.35188532 36.07447053 0.00000000 0.00000000 0.00000000 0.00000000 
244524848 0.00000000 0.00000000 -60.50327302 52.34059914 0.00000000 0.00000000 0.00000000 0.00000000 
246442368 0.00000000 0.00000000 -58.14500385 62.78478563 0.00000000 0.00000000 0.00000000 0.00000000 
248359886 0.00000000 0.00000000 -57.36760300 37.11185669 0.00000000 0.00000000 0.00000000 0.00000000 
250277404 0.00000000 0.00000000 -57.98783618 17.44543007 0.00000000 0.00000000 0.00000000 0.00000000 
252194922 0.00000000 0.00000000 -55.41040107 26.56869956 0.00000000 0.00000000 0.00000000 0.00000000 
254112442 0.00000000 0.00000000 -54.69581567 24.66923143 0.00000000 0.00000000 0.00000000 0.00000000 
256029960 0.00000000 0.00000000 -55.30775608 26.21014423 0.00000000 0.00000000 0.00000000 0.00000000 
257947478 0.00000000 0.00000000 -54.99891311 18.73933122 0.00000000 0.00000000 0.00000000 0.00000000 
259864996 0.00000000 0.00000000 -54.09172038 17.92605279 0.00000000 0.00000000 0.00000000 0.00000000 
261782516 0.00000000 0.00000000 -53.92245596 22.94233549 0.00000000 0.00000000 0.00000000 0.00000000 
263700034 0.00000000 0.00000000 -54.10228650 12.11725889 0.00000000 0.00000000 0.00000000 0.00000000 
265617552 0.00000000 0.00000000 -54.24196353 14.55830895 0.00000000 0.00000000 0.00000000 0.00000000 
267535070 0.00000000 0.00000000 -52.46262838 11.64363487 0.00000000 0.00000000 0.00000000 0.00000000 
269452590 0.00000000 0.00000000 -51.76615004 10.03017302 0.00000000 0.00000000 0.00000000 0.00000000 
271370108 0.00000000 0.00000000 -51.79855631 -4.34784704 0.00000000 0.00000000 0.00000000 0.00000000 
273287626 0.00000000 0.00000000 -51.99140452 -7.14861476 0.00000000 0.00000000 0.00000000 0.00000000 
275205144 0.00000000 0.00000000 -52.04103432 -10.18553374 0.00000000 0.00000000 0.00000000 0.00000000 
277122664 0.00000000 0.00000000 -50.16683011 -22.74576772 0.00000000 0.00000000 0.00000000 0.00000000 
279040182 0.00000000 0.00000000 -50.47022874 -22.01953988 0.00000000 0.00000000 0.00000000 0.00000000 
280957700 0.00000000 0.00000000 -52.71041108 -36.86517894 0.00000000 0.00000000 0.00000000 0.00000000 
282875218 0.00000000 0.00000000 -50.27824562 -42.70902269 0.00000000 0.00000000 0.00000000 0.00000000 
284792738 0.00000000 0.00000000 -49.48540207 -47.22548647 0.00000000 0.00000000 0.00000000 0.00000000 
286710256 0.00000000 0.00000000 -49.04518452 -50.30628895 0.00000000 0.00000000 0.00000000 0.00000000 
288627774 0.00000000 0.00000000 -49.90318031 -52.38129082 0.00000000 0.00000000 0.00000000 0.00000000 
290545292 0.00000000 0.00000000 -48.61959729 -52.42821182 0.00000000 0.00000000 0.00000000 0.00000000 
292462812 0.00000000 0.00000000 -49.16522485 -51.25730611 0.00000000 0.00000000 0.00000000 0.00000000 
294380330 0.00000000 0.00000000 -49.89604331 -62.93854375 0.00000000 0.00000000 0.00000000 0.00000000 
296297848 0.00000000 0.00000000 -48.70727022 -58.81315794 0.00000000 0.00000000 0.00000000 0.00000000 
298215366 0.00000000 0.00000000 -50.07469076 -64.86591329 0.00000000 0.00000000 0.00000000 0.00000000 
300132886 0.00000000 0.00000000 -49.65375191 -65.17896186 0.00000000 0.00000000 0.00000000 0.00000000 
302050404 0.00000000 0.00000000 -50.22427174 -64.51522207 0.00000000 0.00000000 0.00000000 0.00000000 
303967922 0.00000000 0.00000000 -50.76309228 -66.03906821 0.00000000 0.00000000 0.00000000 0.00000000 
305885440 0.00000000 0.00000000 -51.84161058 -70.60723072 0.00000000 0.00000000 0.00000000 0.00000000 
307802960 0.00000000 0.00000000 -51.26261489 -72.48044422 0.00000000 0.00000000 0.00000000 0.00000000 
309720478 0.00000000 0.00000000 -52.72355518 -74.75189593 0.00000000 0.00000000 0.00000000 0.00000000 
311637996 0.00000000 0.00000000 -52.90660224 -81.50796711 0.00000000 0.00000000 0.00000000 0.00000000 
313555514 0.00000000 0.00000000 -52.81541546 -83.83842458 0.00000000 0.00000000 0.00000000 0.00000000 
315473034 0.00000000 0.00000000 -51.88319649 -92.46561879 0.00000000 0.00000000 0.00000000 0.00000000 
317390552 0.00000000 0.00000000 -51.29727973 -88.64880860 0.00000000 0.00000000 0.00000000 0.00000000 
319308070 0.00000000 0.00000000 -51.81421674 -91.51114193 0.00000000 0.00000000 0.00000000 0.00000000 
321225588 0.00000000 0.00000000 -52.39131045 -82.27455759 0.00000000 0.00000000 0.00000000 0.00000000 
323143108 0.00000000 0.00000000 -51.32739540 -90.34538821 0.00000000 0.00000000 0.00000000 0.00000000 
325060626 0.00000000 0.00000000 -53.01906091 -95.63494889 0.00000000 0.00000000 0.00000000 0.00000000 
326978144 0.00000000 0.00000000 -53.34282624 -94.08382898 0.00000000 0.00000000 0.00000000 0.00000000 
328895662 0.00000000 0.00000000 -53.51339496 -92.79842911 0.00000000 0.00000000 0.00000000 0.00000000 
330813182 0.00000000 0.00000000 -53.64326943 -104.43640736 0.00000000 0.00000000 0.00000000 0.00000000 
332730700 0.00000000 0.00000000 -53.99900218 -109.18374158 0.00000000 0.00000000 0.00000000 0.00000000 
334648218 0.00000000 0.00000000 -54.73429778 -116.44269739 0.00000000 0.00000000 0.00000000 0.00000000 
336565736 0.00000000 0.00000000 -56.81489894 -120.91162987 0.00000000 0.00000000 0.00000000 0.00000000 
338483256 0.00000000 0.00000000 -54.77639692 -136.62219904 0.00000000 0.00000000 0.00000000 0.00000000 
340400774 0.00000000 0.00000000 -55.22050476 -145.19353967 0.00000000 0.00000000 0.00000000 0.00000000 
342318292 0.00000000 0.00000000 -54.70785769 -155.20323753 0.00000000 0.00000000 0.00000000 0.00000000 
344235810 0.00000000 0.00000000 -56.32673372 -153.51629961 0.00000000 0.00000000 0.00000000 0.00000000 
346153330 0.00000000 0.00000000 -54.19991344 -164.96520248 0.00000000 0.00000000 0.00000000 0.00000000 
348070848 0.00000000 0.00000000 -56.03386512 -176.28375092 0.00000000 0.00000000 0.00000000 0.00000000 
349988366 0.00000000 0.00000000 -54.02454687 174.69854091 0.00000000 0.00000000 0.00000000 0.00000000 
351905884 0.00000000 0.00000000 -52.96193055 171.40277077 0.00000000 0.00000000 0.00000000 0.00000000 
353823404 0.00000000 0.00000000 -50.93798343 173.47342502 0.00000000 0.00000000 0.00000000 0.00000000 
355740922 0.00000000 0.00000000 -52.88969833 163.15685834 0.00000000 0.00000000 0.00000000 0.00000000 
357658440 0.00000000 0.00000000 -52.54790133 147.60375709 0.00000000 0.00000000 0.00000000 0.00000000 
359575958 0.00000000 0.00000000 -51.59610280 149.07770161 0.00000000 0.00000000 0.00000000 0.00000000 
361493478 0.00000000 0.00000000 -50.20325778 142.11794135 0.00000000 0.00000000 0.00000000 0.00000000 
363410996 0.00000000 0.00000000 -51.95045565 130.21420461 0.00000000 0.00000000 0.00000000 0.00000000 
365328514 0.00000000 0.00000000 -52.86240811 119.47619869 0.00000000 0.00000000 0.00000000 0.00000000 
367246032 0.00000000 0.00000000 -51.63552070 117.33884891 0.00000000 0.00000000 0.00000000 0.00000000 
369163552 0.00000000 0.00000000 -51.01143343 104.48375747 0.00000000 0.00000000 0.00000000 0.00000000 
371081070 0.00000000 0.00000000 -52.74410801 90.18167835 0.00000000 0.00000000 0.00000000 0.00000000 
