! created by ADMIN at Tue Apr 21 15:27:31 IST 2026
! generated using vna/J Version 3.2.10
# Hz S DB R 50
001000000 0.00000000 0.00000000 -69.32656864 32.70564901 0.00000000 0.00000000 0.00000000 0.00000000 
002917518 0.00000000 0.00000000 -76.32922469 26.33327435 0.00000000 0.00000000 0.00000000 0.00000000 
004835036 0.00000000 0.00000000 -74.70724526 14.93185693 0.00000000 0.00000000 0.00000000 0.00000000 
006752554 0.00000000 0.00000000 -66.23737224 -2.75862631 0.00000000 0.00000000 0.00000000 0.00000000 
008670074 0.00000000 0.00000000 -72.38871429 1.08178651 0.00000000 0.00000000 0.00000000 0.00000000 
010587592 0.00000000 0.00000000 -68.53093145 42.56432373 0.00000000 0.00000000 0.00000000 0.00000000 
012505110 0.00000000 0.00000000 -69.17447013 57.97388591 0.00000000 0.00000000 0.00000000 0.00000000 
014422628 0.00000000 0.00000000 -70.91775162 78.71075474 0.00000000 0.00000000 0.00000000 0.00000000 
016340148 0.00000000 0.00000000 -73.30656434 90.90803144 0.00000000 0.00000000 0.00000000 0.00000000 
018257666 0.00000000 0.00000000 -71.80287064 90.69728883 0.00000000 0.00000000 0.00000000 0.00000000 
020175184 0.00000000 0.00000000 -72.67689315 109.25966198 0.00000000 0.00000000 0.00000000 0.00000000 
022092702 0.00000000 0.00000000 -76.08150869 127.51698255 0.00000000 0.00000000 0.00000000 0.00000000 
024010222 0.00000000 0.00000000 -67.05482857 -161.55376768 0.00000000 0.00000000 0.00000000 0.00000000 
025927740 0.00000000 0.00000000 -77.00383247 -70.35753575 0.00000000 0.00000000 0.00000000 0.00000000 
027845258 0.00000000 0.00000000 -75.35540186 -150.05068597 0.00000000 0.00000000 0.00000000 0.00000000 
029762776 0.00000000 0.00000000 -75.29355124 -145.28499938 0.00000000 0.00000000 0.00000000 0.00000000 
031680296 0.00000000 0.00000000 -71.28033979 33.00222028 0.00000000 0.00000000 0.00000000 0.00000000 
033597814 0.00000000 0.00000000 -79.74790376 -74.76885291 0.00000000 0.00000000 0.00000000 0.00000000 
035515332 0.00000000 0.00000000 -80.00000000 -30.85658187 0.00000000 0.00000000 0.00000000 0.00000000 
037432850 0.00000000 0.00000000 -70.88831662 -132.06437855 0.00000000 0.00000000 0.00000000 0.00000000 
039350370 0.00000000 0.00000000 -77.03576797 -105.87430270 0.00000000 0.00000000 0.00000000 0.00000000 
041267888 0.00000000 0.00000000 -73.84872241 -107.94748226 0.00000000 0.00000000 0.00000000 0.00000000 
043185406 0.00000000 0.00000000 -70.57067138 -118.52260225 0.00000000 0.00000000 0.00000000 0.00000000 
045102924 0.00000000 0.00000000 -80.00000000 2.20176739 0.00000000 0.00000000 0.00000000 0.00000000 
047020444 0.00000000 0.00000000 -72.90832423 -86.04707692 0.00000000 0.00000000 0.00000000 0.00000000 
048937962 0.00000000 0.00000000 -76.43464533 -113.90059545 0.00000000 0.00000000 0.00000000 0.00000000 
050855480 0.00000000 0.00000000 -76.38582724 -17.27485413 0.00000000 0.00000000 0.00000000 0.00000000 
052772998 0.00000000 0.00000000 -69.25089928 1.10389357 0.00000000 0.00000000 0.00000000 0.00000000 
054690518 0.00000000 0.00000000 -65.39248194 31.48509891 0.00000000 0.00000000 0.00000000 0.00000000 
056608036 0.00000000 0.00000000 -67.25412397 60.45146304 0.00000000 0.00000000 0.00000000 0.00000000 
058525554 0.00000000 0.00000000 -75.21856853 -3.99943289 0.00000000 0.00000000 0.00000000 0.00000000 
060443072 0.00000000 0.00000000 -66.25949557 -27.64606471 0.00000000 0.00000000 0.00000000 0.00000000 
062360592 0.00000000 0.00000000 -65.21217377 -48.45860531 0.00000000 0.00000000 0.00000000 0.00000000 
064278110 0.00000000 0.00000000 -67.74981855 -18.25870471 0.00000000 0.00000000 0.00000000 0.00000000 
066195628 0.00000000 0.00000000 -67.52515812 -46.71448055 0.00000000 0.00000000 0.00000000 0.00000000 
068113146 0.00000000 0.00000000 -67.38585409 2.10059512 0.00000000 0.00000000 0.00000000 0.00000000 
070030666 0.00000000 0.00000000 -65.18866238 42.19073168 0.00000000 0.00000000 0.00000000 0.00000000 
071948184 0.00000000 0.00000000 -69.72237071 11.67864177 0.00000000 0.00000000 0.00000000 0.00000000 
073865702 0.00000000 0.00000000 -77.15377998 16.69139843 0.00000000 0.00000000 0.00000000 0.00000000 
075783220 0.00000000 0.00000000 -80.00000000 24.49028997 0.00000000 0.00000000 0.00000000 0.00000000 
077700740 0.00000000 0.00000000 -80.00000000 2.73154499 0.00000000 0.00000000 0.00000000 0.00000000 
079618258 0.00000000 0.00000000 -72.29158792 -40.21658291 0.00000000 0.00000000 0.00000000 0.00000000 
081535776 0.00000000 0.00000000 -69.24616938 25.57157397 0.00000000 0.00000000 0.00000000 0.00000000 
083453294 0.00000000 0.00000000 -67.29070963 7.62279540 0.00000000 0.00000000 0.00000000 0.00000000 
085370814 0.00000000 0.00000000 -70.23333859 29.83008586 0.00000000 0.00000000 0.00000000 0.00000000 
087288332 0.00000000 0.00000000 -72.03240068 -18.62022125 0.00000000 0.00000000 0.00000000 0.00000000 
089205850 0.00000000 0.00000000 -68.16718390 49.33974202 0.00000000 0.00000000 0.00000000 0.00000000 
091123368 0.00000000 0.00000000 -69.69219949 43.05265777 0.00000000 0.00000000 0.00000000 0.00000000 
093040888 0.00000000 0.00000000 -75.50299337 75.32608805 0.00000000 0.00000000 0.00000000 0.00000000 
094958406 0.00000000 0.00000000 -75.85060643 104.28973545 0.00000000 0.00000000 0.00000000 0.00000000 
096875924 0.00000000 0.00000000 -75.29323530 104.71750801 0.00000000 0.00000000 0.00000000 0.00000000 
098793442 0.00000000 0.00000000 -77.73461741 125.65794397 0.00000000 0.00000000 0.00000000 0.00000000 
100710962 0.00000000 0.00000000 -75.99640599 -176.64993217 0.00000000 0.00000000 0.00000000 0.00000000 
102628480 0.00000000 0.00000000 -76.38108589 102.62986940 0.00000000 0.00000000 0.00000000 0.00000000 
104545998 0.00000000 0.00000000 -74.13832443 1.87860766 0.00000000 0.00000000 0.00000000 0.00000000 
106463516 0.00000000 0.00000000 -74.96697652 -165.24184294 0.00000000 0.00000000 0.00000000 0.00000000 
108381036 0.00000000 0.00000000 -68.67269037 20.96500388 0.00000000 0.00000000 0.00000000 0.00000000 
110298554 0.00000000 0.00000000 -79.04384722 -120.90070262 0.00000000 0.00000000 0.00000000 0.00000000 
112216072 0.00000000 0.00000000 -72.50151778 138.86860629 0.00000000 0.00000000 0.00000000 0.00000000 
114133590 0.00000000 0.00000000 -67.33287535 -164.89003702 0.00000000 0.00000000 0.00000000 0.00000000 
116051110 0.00000000 0.00000000 -78.36618615 -133.61597472 0.00000000 0.00000000 0.00000000 0.00000000 
117968628 0.00000000 0.00000000 -78.54407832 -172.64275929 0.00000000 0.00000000 0.00000000 0.00000000 
119886146 0.00000000 0.00000000 -80.00000000 -140.17272847 0.00000000 0.00000000 0.00000000 0.00000000 
121803664 0.00000000 0.00000000 -80.00000000 138.45831090 0.00000000 0.00000000 0.00000000 0.00000000 
123721184 0.00000000 0.00000000 -66.19106466 125.29607870 0.00000000 0.00000000 0.00000000 0.00000000 
125638702 0.00000000 0.00000000 -73.17771224 160.06544517 0.00000000 0.00000000 0.00000000 0.00000000 
127556220 0.00000000 0.00000000 -77.38293653 95.61626907 0.00000000 0.00000000 0.00000000 0.00000000 
129473738 0.00000000 0.00000000 -74.30416324 144.19476070 0.00000000 0.00000000 0.00000000 0.00000000 
131391258 0.00000000 0.00000000 -70.39471452 149.00902092 0.00000000 0.00000000 0.00000000 0.00000000 
133308776 0.00000000 0.00000000 -62.78602827 -164.33383697 0.00000000 0.00000000 0.00000000 0.00000000 
135226294 0.00000000 0.00000000 -67.03365936 1.53973121 0.00000000 0.00000000 0.00000000 0.00000000 
137143812 0.00000000 0.00000000 -66.20346565 -112.23228270 0.00000000 0.00000000 0.00000000 0.00000000 
139061332 0.00000000 0.00000000 -62.63196491 -106.74641658 0.00000000 0.00000000 0.00000000 0.00000000 
140978850 0.00000000 0.00000000 -64.94705761 -113.85833396 0.00000000 0.00000000 0.00000000 0.00000000 
142896368 0.00000000 0.00000000 -68.71443573 -131.05230764 0.00000000 0.00000000 0.00000000 0.00000000 
144813886 0.00000000 0.00000000 -61.82225628 -128.51443619 0.00000000 0.00000000 0.00000000 0.00000000 
146731406 0.00000000 0.00000000 -60.08740346 -140.39143602 0.00000000 0.00000000 0.00000000 0.00000000 
148648924 0.00000000 0.00000000 -67.88660720 -151.23060247 0.00000000 0.00000000 0.00000000 0.00000000 
150566442 0.00000000 0.00000000 -77.56011239 161.64726093 0.00000000 0.00000000 0.00000000 0.00000000 
152483960 0.00000000 0.00000000 -66.99449514 62.61446760 0.00000000 0.00000000 0.00000000 0.00000000 
154401480 0.00000000 0.00000000 -62.77949870 92.37572368 0.00000000 0.00000000 0.00000000 0.00000000 
156318998 0.00000000 0.00000000 -66.39143817 113.53145615 0.00000000 0.00000000 0.00000000 0.00000000 
158236516 0.00000000 0.00000000 -76.33258976 69.03501714 0.00000000 0.00000000 0.00000000 0.00000000 
160154034 0.00000000 0.00000000 -73.31103626 69.79582770 0.00000000 0.00000000 0.00000000 0.00000000 
162071554 0.00000000 0.00000000 -78.15014968 39.79047517 0.00000000 0.00000000 0.00000000 0.00000000 
163989072 0.00000000 0.00000000 -77.15754072 -90.53709512 0.00000000 0.00000000 0.00000000 0.00000000 
165906590 0.00000000 0.00000000 -65.54512236 21.14524740 0.00000000 0.00000000 0.00000000 0.00000000 
167824108 0.00000000 0.00000000 -73.51719337 -36.05946464 0.00000000 0.00000000 0.00000000 0.00000000 
169741628 0.00000000 0.00000000 -65.91220641 31.37675700 0.00000000 0.00000000 0.00000000 0.00000000 
171659146 0.00000000 0.00000000 -71.83816355 38.24415266 0.00000000 0.00000000 0.00000000 0.00000000 
173576664 0.00000000 0.00000000 -72.60130323 -14.61096806 0.00000000 0.00000000 0.00000000 0.00000000 
175494182 0.00000000 0.00000000 -67.60780417 -21.03973729 0.00000000 0.00000000 0.00000000 0.00000000 
177411702 0.00000000 0.00000000 -63.68385556 -29.85308949 0.00000000 0.00000000 0.00000000 0.00000000 
179329220 0.00000000 0.00000000 -65.08383884 -6.71079013 0.00000000 0.00000000 0.00000000 0.00000000 
181246738 0.00000000 0.00000000 -68.28481870 -12.24377393 0.00000000 0.00000000 0.00000000 0.00000000 
183164256 0.00000000 0.00000000 -70.58510560 131.54736654 0.00000000 0.00000000 0.00000000 0.00000000 
185081776 0.00000000 0.00000000 -74.89863655 -114.24134642 0.00000000 0.00000000 0.00000000 0.00000000 
186999294 0.00000000 0.00000000 -72.60059870 -23.03762635 0.00000000 0.00000000 0.00000000 0.00000000 
188916812 0.00000000 0.00000000 -80.00000000 105.10835631 0.00000000 0.00000000 0.00000000 0.00000000 
190834330 0.00000000 0.00000000 -80.00000000 -110.77891476 0.00000000 0.00000000 0.00000000 0.00000000 
192751850 0.00000000 0.00000000 -77.13286028 148.79376013 0.00000000 0.00000000 0.00000000 0.00000000 
194669368 0.00000000 0.00000000 -76.49320479 -17.86813823 0.00000000 0.00000000 0.00000000 0.00000000 
196586886 0.00000000 0.00000000 -72.61549858 -48.24644695 0.00000000 0.00000000 0.00000000 0.00000000 
198504404 0.00000000 0.00000000 -69.17655039 -44.47255108 0.00000000 0.00000000 0.00000000 0.00000000 
200421924 0.00000000 0.00000000 -66.53089798 -15.29541908 0.00000000 0.00000000 0.00000000 0.00000000 
202339442 0.00000000 0.00000000 -70.95126885 -48.99233351 0.00000000 0.00000000 0.00000000 0.00000000 
204256960 0.00000000 0.00000000 -69.97039881 -86.58135491 0.00000000 0.00000000 0.00000000 0.00000000 
206174478 0.00000000 0.00000000 -77.62354290 3.95744806 0.00000000 0.00000000 0.00000000 0.00000000 
208091998 0.00000000 0.00000000 -73.96540539 -146.91085774 0.00000000 0.00000000 0.00000000 0.00000000 
210009516 0.00000000 0.00000000 -80.00000000 -81.34229094 0.00000000 0.00000000 0.00000000 0.00000000 
211927034 0.00000000 0.00000000 -68.94894252 -154.99866526 0.00000000 0.00000000 0.00000000 0.00000000 
213844552 0.00000000 0.00000000 -72.16807817 -145.54487289 0.00000000 0.00000000 0.00000000 0.00000000 
215762072 0.00000000 0.00000000 -66.37800829 -92.39464917 0.00000000 0.00000000 0.00000000 0.00000000 
217679590 0.00000000 0.00000000 -69.22893153 -129.61399439 0.00000000 0.00000000 0.00000000 0.00000000 
219597108 0.00000000 0.00000000 -75.80774261 -147.87748973 0.00000000 0.00000000 0.00000000 0.00000000 
221514626 0.00000000 0.00000000 -70.45704930 -64.74170984 0.00000000 0.00000000 0.00000000 0.00000000 
223432146 0.00000000 0.00000000 -77.64939085 -67.88487632 0.00000000 0.00000000 0.00000000 0.00000000 
225349664 0.00000000 0.00000000 -73.60500679 -172.80702540 0.00000000 0.00000000 0.00000000 0.00000000 
227267182 0.00000000 0.00000000 -80.00000000 132.74322818 0.00000000 0.00000000 0.00000000 0.00000000 
229184700 0.00000000 0.00000000 -80.00000000 -111.27491206 0.00000000 0.00000000 0.00000000 0.00000000 
231102220 0.00000000 0.00000000 -70.94989058 36.28613681 0.00000000 0.00000000 0.00000000 0.00000000 
233019738 0.00000000 0.00000000 -72.59087007 -27.63508367 0.00000000 0.00000000 0.00000000 0.00000000 
234937256 0.00000000 0.00000000 -68.71783988 3.15579611 0.00000000 0.00000000 0.00000000 0.00000000 
236854774 0.00000000 0.00000000 -77.80706704 63.21747743 0.00000000 0.00000000 0.00000000 0.00000000 
238772294 0.00000000 0.00000000 -67.80561043 -29.03777530 0.00000000 0.00000000 0.00000000 0.00000000 
240689812 0.00000000 0.00000000 -66.49468309 -7.36829519 0.00000000 0.00000000 0.00000000 0.00000000 
242607330 0.00000000 0.00000000 -61.30430659 -2.07749716 0.00000000 0.00000000 0.00000000 0.00000000 
244524848 0.00000000 0.00000000 -60.91147435 10.27577472 0.00000000 0.00000000 0.00000000 0.00000000 
246442368 0.00000000 0.00000000 -58.85501843 26.17045731 0.00000000 0.00000000 0.00000000 0.00000000 
248359886 0.00000000 0.00000000 -59.04939125 19.14546654 0.00000000 0.00000000 0.00000000 0.00000000 
250277404 0.00000000 0.00000000 -63.09777037 -8.50816245 0.00000000 0.00000000 0.00000000 0.00000000 
252194922 0.00000000 0.00000000 -65.93702157 12.23180324 0.00000000 0.00000000 0.00000000 0.00000000 
254112442 0.00000000 0.00000000 -70.53785920 -43.56181059 0.00000000 0.00000000 0.00000000 0.00000000 
256029960 0.00000000 0.00000000 -77.73263562 -52.48483516 0.00000000 0.00000000 0.00000000 0.00000000 
257947478 0.00000000 0.00000000 -71.77450328 -46.56912535 0.00000000 0.00000000 0.00000000 0.00000000 
259864996 0.00000000 0.00000000 -71.12629662 -17.81329039 0.00000000 0.00000000 0.00000000 0.00000000 
261782516 0.00000000 0.00000000 -77.75433719 46.96657940 0.00000000 0.00000000 0.00000000 0.00000000 
263700034 0.00000000 0.00000000 -80.00000000 63.48450073 0.00000000 0.00000000 0.00000000 0.00000000 
265617552 0.00000000 0.00000000 -66.63446897 131.42482640 0.00000000 0.00000000 0.00000000 0.00000000 
267535070 0.00000000 0.00000000 -65.14592134 113.42847660 0.00000000 0.00000000 0.00000000 0.00000000 
269452590 0.00000000 0.00000000 -63.40345724 131.27336885 0.00000000 0.00000000 0.00000000 0.00000000 
271370108 0.00000000 0.00000000 -70.65076141 149.29223846 0.00000000 0.00000000 0.00000000 0.00000000 
273287626 0.00000000 0.00000000 -66.71640743 134.99324750 0.00000000 0.00000000 0.00000000 0.00000000 
275205144 0.00000000 0.00000000 -63.13267790 136.86853115 0.00000000 0.00000000 0.00000000 0.00000000 
277122664 0.00000000 0.00000000 -68.79268672 -175.37448567 0.00000000 0.00000000 0.00000000 0.00000000 
279040182 0.00000000 0.00000000 -75.21854325 97.60857313 0.00000000 0.00000000 0.00000000 0.00000000 
280957700 0.00000000 0.00000000 -63.89973072 170.00226214 0.00000000 0.00000000 0.00000000 0.00000000 
282875218 0.00000000 0.00000000 -74.13902543 -99.40843688 0.00000000 0.00000000 0.00000000 0.00000000 
284792738 0.00000000 0.00000000 -76.20027020 -87.75659477 0.00000000 0.00000000 0.00000000 0.00000000 
286710256 0.00000000 0.00000000 -66.87736266 -67.96999838 0.00000000 0.00000000 0.00000000 0.00000000 
288627774 0.00000000 0.00000000 -75.11091239 -98.65832781 0.00000000 0.00000000 0.00000000 0.00000000 
290545292 0.00000000 0.00000000 -65.50587594 -49.52883907 0.00000000 0.00000000 0.00000000 0.00000000 
292462812 0.00000000 0.00000000 -74.21699893 7.55539094 0.00000000 0.00000000 0.00000000 0.00000000 
294380330 0.00000000 0.00000000 -68.40780911 -143.00169110 0.00000000 0.00000000 0.00000000 0.00000000 
296297848 0.00000000 0.00000000 -64.83487817 -52.65405659 0.00000000 0.00000000 0.00000000 0.00000000 
298215366 0.00000000 0.00000000 -78.70716544 -153.99383940 0.00000000 0.00000000 0.00000000 0.00000000 
300132886 0.00000000 0.00000000 -80.00000000 63.81328560 0.00000000 0.00000000 0.00000000 0.00000000 
302050404 0.00000000 0.00000000 -80.00000000 -33.56658242 0.00000000 0.00000000 0.00000000 0.00000000 
303967922 0.00000000 0.00000000 -80.00000000 -63.55515698 0.00000000 0.00000000 0.00000000 0.00000000 
305885440 0.00000000 0.00000000 -76.80340219 163.22899617 0.00000000 0.00000000 0.00000000 0.00000000 
307802960 0.00000000 0.00000000 -76.26416614 -90.97054010 0.00000000 0.00000000 0.00000000 0.00000000 
309720478 0.00000000 0.00000000 -75.11332304 24.80609350 0.00000000 0.00000000 0.00000000 0.00000000 
311637996 0.00000000 0.00000000 -70.54646842 12.21913412 0.00000000 0.00000000 0.00000000 0.00000000 
313555514 0.00000000 0.00000000 -64.36216742 17.82070973 0.00000000 0.00000000 0.00000000 0.00000000 
315473034 0.00000000 0.00000000 -64.75308870 20.11628557 0.00000000 0.00000000 0.00000000 0.00000000 
317390552 0.00000000 0.00000000 -63.86789080 -10.49205942 0.00000000 0.00000000 0.00000000 0.00000000 
319308070 0.00000000 0.00000000 -67.20962593 -10.82240735 0.00000000 0.00000000 0.00000000 0.00000000 
321225588 0.00000000 0.00000000 -62.18129536 3.74826838 0.00000000 0.00000000 0.00000000 0.00000000 
323143108 0.00000000 0.00000000 -65.08962107 -36.99112741 0.00000000 0.00000000 0.00000000 0.00000000 
325060626 0.00000000 0.00000000 -72.05769349 19.55752971 0.00000000 0.00000000 0.00000000 0.00000000 
326978144 0.00000000 0.00000000 -68.68756359 26.40455262 0.00000000 0.00000000 0.00000000 0.00000000 
328895662 0.00000000 0.00000000 -66.30505971 33.45112954 0.00000000 0.00000000 0.00000000 0.00000000 
330813182 0.00000000 0.00000000 -66.79291346 91.46930836 0.00000000 0.00000000 0.00000000 0.00000000 
332730700 0.00000000 0.00000000 -70.96976643 131.01392245 0.00000000 0.00000000 0.00000000 0.00000000 
334648218 0.00000000 0.00000000 -70.00639359 153.07124036 0.00000000 0.00000000 0.00000000 0.00000000 
336565736 0.00000000 0.00000000 -69.55302189 100.75091247 0.00000000 0.00000000 0.00000000 0.00000000 
338483256 0.00000000 0.00000000 -67.24444920 159.69517102 0.00000000 0.00000000 0.00000000 0.00000000 
340400774 0.00000000 0.00000000 -67.16819440 173.85815494 0.00000000 0.00000000 0.00000000 0.00000000 
342318292 0.00000000 0.00000000 -66.16023252 -174.51317819 0.00000000 0.00000000 0.00000000 0.00000000 
344235810 0.00000000 0.00000000 -74.70566112 -52.82481906 0.00000000 0.00000000 0.00000000 0.00000000 
346153330 0.00000000 0.00000000 -79.11670072 -107.51746298 0.00000000 0.00000000 0.00000000 0.00000000 
348070848 0.00000000 0.00000000 -74.33620747 31.97477677 0.00000000 0.00000000 0.00000000 0.00000000 
349988366 0.00000000 0.00000000 -70.88782490 151.08769837 0.00000000 0.00000000 0.00000000 0.00000000 
351905884 0.00000000 0.00000000 -67.87427262 170.98647545 0.00000000 0.00000000 0.00000000 0.00000000 
353823404 0.00000000 0.00000000 -61.76769575 -168.36102948 0.00000000 0.00000000 0.00000000 0.00000000 
355740922 0.00000000 0.00000000 -68.63118027 -167.89808853 0.00000000 0.00000000 0.00000000 0.00000000 
357658440 0.00000000 0.00000000 -68.99810742 145.33534652 0.00000000 0.00000000 0.00000000 0.00000000 
359575958 0.00000000 0.00000000 -65.84118166 -170.80221681 0.00000000 0.00000000 0.00000000 0.00000000 
361493478 0.00000000 0.00000000 -65.36821564 168.64393967 0.00000000 0.00000000 0.00000000 0.00000000 
363410996 0.00000000 0.00000000 -68.10007467 138.18792069 0.00000000 0.00000000 0.00000000 0.00000000 
365328514 0.00000000 0.00000000 -68.03049724 143.40305086 0.00000000 0.00000000 0.00000000 0.00000000 
367246032 0.00000000 0.00000000 -60.70126643 161.21131145 0.00000000 0.00000000 0.00000000 0.00000000 
369163552 0.00000000 0.00000000 -62.10105827 157.66625344 0.00000000 0.00000000 0.00000000 0.00000000 
